# Hz S RI R 50
40000000	8.74940778940275E-03	-1.55030423949044E-02
40250000	8.55807694067109E-03	-1.55446086014687E-02
40500000	8.37014934190035E-03	-1.55849466907894E-02
40750000	8.17873148161489E-03	-1.56212124814763E-02
41000000	7.98511982407812E-03	-1.56553395945946E-02
41250000	7.79211922704578E-03	-0.015686093251621
41500000	7.6013115922524E-03	-1.57131885322618E-02
41750000	7.40752152369078E-03	-1.57408844985071E-02
42000000	7.21514798870828E-03	-1.57615771358158E-02
42250000	7.01985487002046E-03	-1.57809693519578E-02
42500000	0.006821913427833	-1.57987532192166E-02
42750000	6.62901631721693E-03	-1.58131329310787E-02
43000000	6.43489465873219E-03	-1.58246519848644E-02
43250000	6.23843085173697E-03	-1.58317811694246E-02
43500000	6.04225931687854E-03	-1.58382396869743E-02
43750000	5.84517589797583E-03	-1.58414516550512E-02
44000000	5.65078764213147E-03	-1.58407091263486E-02
44250000	5.45442472214015E-03	-1.58396969953979E-02
44500000	5.25776084313321E-03	-1.58335348851451E-02
44750000	5.0607323695091E-03	-1.58244048080782E-02
45000000	4.86413822243368E-03	-1.58137365695284E-02
45250000	4.66750735647127E-03	-1.57977096603187E-02
45500000	4.47190115567171E-03	-1.57827699879005E-02
45750000	4.27464358529255E-03	-1.57614297817649E-02
46000000	4.07985769246308E-03	-1.57403767747242E-02
46250000	3.88513958578983E-03	-1.57135621504852E-02
46500000	3.69034171358711E-03	-1.56863538785112E-02
46750000	3.49639372747912E-03	-1.56544655774432E-02
47000000	3.30057123247296E-03	-1.56201707473677E-02
47250000	3.10688063676557E-03	-0.015584341152208
47500000	2.9129075631541E-03	-1.55441413632068E-02
47750000	2.71963757347239E-03	-0.015502766477844
48000000	2.52714363335934E-03	-1.54580381531525E-02
48250000	2.33500950969574E-03	-1.54095802204004E-02
48500000	2.14367796670336E-03	-1.53579808780394E-02
48750000	1.95263655712157E-03	-1.53063584959516E-02
49000000	1.76340934056875E-03	-1.52489555952396E-02
49250000	1.57449199813738E-03	-0.015190409766918
49500000	1.38373686933784E-03	-1.51282251631216E-02
49750000	1.19906583466397E-03	-1.50629026117489E-02
50000000	1.01140273117445E-03	-0.014997520586008
50250000	8.2508840158869E-04	-0.014925776408448
50500000	6.40695795440052E-04	-1.48556102773532E-02
50750000	4.57216889273004E-04	-1.47800297443328E-02
51000000	2.76119816212739E-04	-1.47031937627133E-02
51250000	9.26789985441723E-05	-1.46224943970521E-02
51500000	-8.75789998354405E-05	-1.45387597925481E-02
51750000	-2.67445301219204E-04	-1.44522334557989E-02
52000000	-4.46092270769522E-04	-1.43649867590776E-02
52250000	-6.2250124288998E-04	-1.42751202330683E-02
52500000	-7.98013597849608E-04	-1.41818684444294E-02
52750000	-9.95610603878345E-04	-1.40915235136757E-02
53000000	-1.16796853042307E-03	-1.39929302124662E-02
53250000	-1.33988846824258E-03	-1.38935677587196E-02
53500000	-1.50906429262978E-03	-1.37895786766101E-02
53750000	-0.001678248941658	-1.36815464157581E-02
54000000	-1.84524388048728E-03	-1.35746730898468E-02
54250000	-2.01221632220563E-03	-1.34641973600279E-02
54500000	-2.17577216436269E-03	-1.33500663012227E-02
54750000	-2.33844214303567E-03	-1.32341738839812E-02
55000000	-2.50017179857799E-03	-1.31173506583327E-02
55250000	-2.65777643873714E-03	-1.29962372757856E-02
55500000	-2.81417875864581E-03	-1.28741848594068E-02
55750000	-2.97121156637361E-03	-1.27474691936383E-02
56000000	-3.12534524416499E-03	-1.26216024158451E-02
56250000	-3.27612199674161E-03	-1.24920822598951E-02
56500000	-3.4256947748341E-03	-1.23615873005301E-02
56750000	-3.5758749334826E-03	-1.22295523678211E-02
57000000	-3.72220443987879E-03	-0.012091966904776
57250000	-3.86592093116047E-03	-1.19550125666419E-02
57500000	-4.00927149736459E-03	-1.18143634949536E-02
57750000	-4.15025624602117E-03	-1.16735544506755E-02
58000000	-4.2881365536358E-03	-1.15286803447709E-02
58250000	-4.42450534434562E-03	-1.13837354641445E-02
58500000	-4.55908519952462E-03	-1.12353707065424E-02
58750000	-4.69082068422075E-03	-1.10863937877478E-02
59000000	-4.82077863293502E-03	-1.09346505016269E-02
59250000	-4.94905030343265E-03	-1.07823957556023E-02
59500000	-5.07391729039412E-03	-1.06256630467355E-02
59750000	-5.19777714517133E-03	-1.04681478182815E-02
60000000	-5.31868109451468E-03	-1.03105701306932E-02
60250000	-5.43860710621115E-03	-1.01494902726645E-02
60500000	-5.55442306630915E-03	-9.98602066047464E-03
60750000	-5.66747944998605E-03	-9.8250877152451E-03
61000000	-5.77822570582617E-03	-9.65880026112368E-03
61250000	-5.88993828113981E-03	-9.49170274368842E-03
61500000	-5.99628981864176E-03	-9.32394663537909E-03
61750000	-6.10164377742942E-03	-0.009154407969234
62000000	-6.20287805906929E-03	-8.98245975056112E-03
62250000	-6.30338307058689E-03	-8.80959848977198E-03
62500000	-6.40103923377479E-03	-8.63535486535699E-03
62750000	-6.49710879135185E-03	-8.45934289811487E-03
63000000	-6.58580660312743E-03	-8.28328598947753E-03
63250000	-6.6771647670927E-03	-8.10426962446846E-03
63500000	-6.76463717463408E-03	-7.92683541082918E-03
63750000	-6.8474207768392E-03	-7.74428567936237E-03
64000000	-6.93160569724471E-03	-7.56153450252983E-03
64250000	-7.00974599651711E-03	-7.37890542016864E-03
64500000	-7.08771109630344E-03	-7.19545316795514E-03
64750000	-7.16116855353319E-03	-7.01054456489523E-03
65000000	-7.2328506222468E-03	-6.82463738536023E-03
65250000	-7.3000417648571E-03	-6.63782520890602E-03
65500000	-7.36581630260185E-03	-0.006449488564656
65750000	-7.43043377224968E-03	-6.26067505041485E-03
66000000	-7.49144157240122E-03	-6.07019747745618E-03
66250000	-7.54907892752572E-03	-5.8809039749258E-03
66500000	-7.60386047961144E-03	-5.68939780420994E-03
66750000	-7.65575435135709E-03	-5.49547811329321E-03
67000000	-7.70534573668002E-03	-5.30318007979513E-03
67250000	-7.75346540082181E-03	-5.10960889887609E-03
67500000	-7.79692503862201E-03	-4.91604631145429E-03
67750000	-7.83778887226552E-03	-4.72152627845103E-03
68000000	-7.87775050070884E-03	-4.52723637473538E-03
68250000	-7.91306110665124E-03	-4.33039009878499E-03
68500000	-7.94614311005645E-03	-4.13393482785477E-03
68750000	-7.97692002318437E-03	-3.9373067898071E-03
69000000	-8.00243009876084E-03	-3.74061293998751E-03
69250000	-8.02859710567079E-03	-3.54225921907853E-03
69500000	-8.05005720561187E-03	-3.3456512402051E-03
69750000	-8.06836401312996E-03	-3.14845245594145E-03
70000000	-8.08408738199415E-03	-2.95163285071742E-03
70250000	-8.09844317076501E-03	-2.75148785460302E-03
70500000	-8.10953981778922E-03	-2.55336468572928E-03
70750000	-8.11684626273796E-03	-2.35624869510515E-03
71000000	-8.12222716291315E-03	-2.1562668580584E-03
71250000	-8.12229108102198E-03	-1.95779795989018E-03
71500000	-8.12315853853916E-03	-1.76116913863025E-03
71750000	-0.008119234095993	-1.56118742293173E-03
72000000	-8.11390851867451E-03	-1.36459251978228E-03
72250000	-8.10283837189896E-03	-1.16490748823347E-03
72500000	-8.09124120326069E-03	-9.68233184757488E-04
72750000	-8.0774435214392E-03	-7.69532093684044E-04
73000000	-8.05768352245055E-03	-5.72811528599144E-04
73250000	-8.03794357522533E-03	-3.75465928522012E-04
73500000	-8.01332938005521E-03	-1.77984726936183E-04
73750000	-7.98874971879122E-03	1.78279211623423E-05
74000000	-7.96080677905379E-03	2.13198704082726E-04
74250000	-7.92708966030134E-03	4.06652162307994E-04
74500000	-7.89328167456983E-03	6.02342630586006E-04
74750000	-7.85532996987968E-03	7.981543453017E-04
75000000	-7.81699763685532E-03	9.89816914653155E-04
75250000	-7.77281754526508E-03	1.18368650185213E-03
75500000	-7.72834229357024E-03	1.37698399713877E-03
75750000	-7.68029440536069E-03	1.56811583403133E-03
76000000	-7.62913258684249E-03	1.75818734272191E-03
76250000	-7.57590644001825E-03	1.94798615398148E-03
76500000	-7.52073283207263E-03	2.1379832109038E-03
76750000	-7.46145644389658E-03	2.32572924927428E-03
77000000	-7.39891760245717E-03	2.51420340523474E-03
77250000	-7.33477652469152E-03	2.70153315697573E-03
77500000	-7.26910464311715E-03	2.88479538685214E-03
77750000	-7.20003796968764E-03	3.07037277125116E-03
78000000	-7.12828902000962E-03	3.2530899376626E-03
78250000	-7.05342869016035E-03	3.4354927347637E-03
78500000	-6.97600894857138E-03	3.61726348166424E-03
78750000	-6.8964999355018E-03	3.79742410294118E-03
79000000	-6.81618025797606E-03	3.97619475123571E-03
79250000	-6.73058850737255E-03	4.15334993500605E-03
79500000	-6.6430007580025E-03	4.33002967389719E-03
79750000	-6.55413273137605E-03	4.5064226829978E-03
80000000	-6.4626965482646E-03	4.67823525630281E-03
80250000	-6.36783646695624E-03	0.004852432564733
80500000	-6.27194632978873E-03	5.02437302900878E-03
80750000	-6.17277817043599E-03	5.19350635758161E-03
81000000	-6.07149273760805E-03	5.36087052860489E-03
81250000	-5.96774047343593E-03	5.52688662749796E-03
81500000	-5.86046018825449E-03	5.69303273701706E-03
81750000	-5.75378771573309E-03	5.85658994172332E-03
82000000	-5.64482804046685E-03	6.01952927885861E-03
82250000	-5.52909699064404E-03	6.17780495991417E-03
82500000	-5.41545533454336E-03	6.3376117959835E-03
82750000	-5.29671599808704E-03	6.49395251534869E-03
83000000	-5.17825579644304E-03	6.6481260793246E-03
83250000	-5.05588964796962E-03	6.80150631539463E-03
83500000	-4.93247645847166E-03	6.95385816237801E-03
83750000	-4.8074245941814E-03	7.10313573004799E-03
84000000	-4.67924132880401E-03	7.25152430303465E-03
84250000	-4.54959161384067E-03	7.39808833094085E-03
84500000	-4.41893436003738E-03	7.54348961269198E-03
84750000	-4.2851883932795E-03	7.68561482481216E-03
85000000	-4.14760479827536E-03	7.82530451240373E-03
85250000	-4.01145676292606E-03	7.9645913185906E-03
85500000	-3.87238306402353E-03	8.10163490407674E-03
85750000	-3.72954254143798E-03	8.23562025684393E-03
86000000	-3.58746270425088E-03	8.36802447825293E-03
86250000	-3.4431639861537E-03	8.49810406865202E-03
86500000	-3.29756108509533E-03	8.62683173801969E-03
86750000	-3.14855970731988E-03	8.75389443358122E-03
87000000	-2.99861007618521E-03	8.87893977915815E-03
87250000	-2.84668675540667E-03	8.9988272571572E-03
87500000	-2.69128676584057E-03	9.1197183795743E-03
87750000	-2.53726865880386E-03	9.23683852331247E-03
88000000	-2.38207746075121E-03	9.35120450765904E-03
88250000	-2.22394210309674E-03	9.46539830773766E-03
88500000	-2.06372125678292E-03	9.57536369116689E-03
88750000	-1.90263958177041E-03	9.68399209175261E-03
89000000	-1.74077705647628E-03	9.79042236329379E-03
89250000	-1.57717517351167E-03	9.89441101991059E-03
89500000	-1.41321553607126E-03	9.99675167755878E-03
89750000	-1.24386673044392E-03	1.00956002707733E-02
90000000	-1.07683843470186E-03	1.01924441651241E-02
90250000	-9.08147936863831E-04	1.02866774514701E-02
90500000	-7.38090566878724E-04	1.03797368757753E-02
90750000	-5.66070301586835E-04	1.04689963833739E-02
91000000	-3.94842355736934E-04	1.05566680236538E-02
91250000	-2.19763724545083E-04	1.06414209351585E-02
91500000	-4.62122752687233E-05	0.010722755763913
91750000	1.3087769249485E-04	1.08036698069196E-02
92000000	3.06886249901306E-04	1.08801570026551E-02
92250000	4.86406085987333E-04	1.09554879600256E-02
92500000	6.6400984148624E-04	1.10285620096799E-02
92750000	8.42878970320624E-04	1.11006505703511E-02
93000000	1.02353539219628E-03	1.11663771842202E-02
93250000	1.2053741431633E-03	1.12316075057039E-02
93500000	1.38896564171443E-03	1.12948910920569E-02
93750000	1.57078739800692E-03	1.13551906090145E-02
94000000	1.75443764187892E-03	1.14107249396394E-02
94250000	1.94011554065009E-03	1.14655811105848E-02
94500000	2.12368182234221E-03	1.15200050754362E-02
94750000	2.30941930528604E-03	1.15677160835204E-02
95000000	2.49714481883055E-03	0.011615904484814
95250000	2.68250742653824E-03	1.16615327043628E-02
95500000	2.86903785778886E-03	1.17015431551151E-02
95750000	3.05788198965778E-03	1.17398853466013E-02
96000000	3.2458062764807E-03	0.011778055996579
96250000	3.43594433859962E-03	1.18138670113342E-02
96500000	3.62365315204783E-03	1.18448942631661E-02
96750000	3.81168613816138E-03	1.18720724446549E-02
97000000	4.00236790935016E-03	1.18989059231737E-02
97250000	4.19123811660088E-03	1.19218665784617E-02
97500000	4.38226040035552E-03	1.19445267447117E-02
97750000	4.56921626475882E-03	1.19626069888208E-02
98000000	4.76189851112127E-03	1.19781556347084E-02
98250000	4.95212762560939E-03	1.19917596688467E-02
98500000	5.14201379388383E-03	0.012003105728121
98750000	5.33375375118228E-03	1.20091715595588E-02
99000000	5.52360715415122E-03	1.20158848926662E-02
99250000	5.71366074621034E-03	1.20192397145008E-02
99500000	5.90434385331459E-03	1.20205051680194E-02
99750000	6.09520584634562E-03	1.20184411802739E-02
100000000	6.28421581683874E-03	0.012012825615542
100250000	6.47410527414729E-03	1.20044403667519E-02
100500000	6.66315278674398E-03	1.19960803346985E-02
100750000	6.85362617681851E-03	1.19818931565301E-02
101000000	7.04099448602444E-03	1.19695976185485E-02
101250000	7.22886380538409E-03	1.19502148708969E-02
101500000	7.41892493213052E-03	1.19301448617273E-02
101750000	7.60605724995633E-03	1.19077247559528E-02
102000000	7.7940615853022E-03	1.18830505693131E-02
102250000	7.98190898966535E-03	1.18534336579512E-02
102500000	8.1674782181138E-03	1.18243398330175E-02
102750000	8.35521705778315E-03	1.17910923393517E-02
103000000	8.54016560865253E-03	1.17566587236246E-02
103250000	8.72377887972054E-03	1.17189273835958E-02
103500000	8.90810885374824E-03	1.16794917176224E-02
103750000	9.09280041261949E-03	0.011636442884758
104000000	9.27479250435118E-03	1.15919429021725E-02
104250000	9.45664813260655E-03	1.15441974097279E-02
104500000	9.63693652953428E-03	1.14953984654365E-02
104750000	9.81867258836754E-03	1.14441266300588E-02
105000000	9.99991992043906E-03	1.13890759910617E-02
105250000	0.01017653996845	1.13321339913243E-02
105500000	1.03542118273232E-02	0.011270858823533
105750000	1.05316315000767E-02	1.12101073290583E-02
106000000	1.07075862293418E-02	1.11475068043136E-02
106250000	1.08820443516491E-02	1.10803546357049E-02
106500000	1.10564983448226E-02	1.10122871049033E-02
106750000	1.12295792703202E-02	1.09428225557673E-02
107000000	1.14018710767092E-02	1.08687148317479E-02
107250000	1.15721318068631E-02	1.07948816912779E-02
107500000	1.17416782555011E-02	1.07164600095606E-02
107750000	1.19116604099833E-02	1.06382054710485E-02
108000000	1.20769914182866E-02	1.05551671403471E-02
108250000	1.22443500561927E-02	1.04726429642636E-02
108500000	1.24078168932073E-02	1.03858651206903E-02
108750000	0.01257074459238	1.02995035490358E-02
109000000	1.27334242809414E-02	1.02092196707112E-02
109250000	1.28936123526527E-02	0.010114869829945
109500000	1.30532411524068E-02	0.010023227415
109750000	1.32124601750875E-02	9.92600515863208E-03
110000000	1.33687676558045E-02	9.82814466975794E-03
110250000	1.35238630615115E-02	9.7278577516681E-03
110500000	1.36783058300028E-02	9.62530658627103E-03
110750000	1.38291859535124E-02	9.52155490577983E-03
111000000	1.39806268319341E-02	9.41617511614031E-03
111250000	1.41295132352454E-02	9.30899543708641E-03
111500000	1.42774589738594E-02	9.19701439414444E-03
111750000	1.44253100502465E-02	9.08636773176649E-03
112000000	1.45671979132258E-02	8.97229652129984E-03
112250000	1.47106930723716E-02	8.85801615058301E-03
112500000	1.48517450621618E-02	8.74204469450552E-03
112750000	1.49901210738283E-02	8.62462591141939E-03
113000000	1.51300097361892E-02	8.50220064670999E-03
113250000	1.52652912709345E-02	8.38062539224561E-03
113500000	1.54000338387786E-02	8.25885298261147E-03
113750000	1.55328144313272E-02	8.13355794736421E-03
114000000	1.56635673250544E-02	8.0053199509244E-03
114250000	0.015793713038433	7.87685760057398E-03
114500000	1.59207104538503E-02	7.74854688365069E-03
114750000	1.60467982626493E-02	7.6159909245397E-03
115000000	1.61703398555217E-02	7.48416854470602E-03
115250000	1.62919243171053E-02	7.34889822066252E-03
115500000	1.64112403684323E-02	7.21356318057226E-03
115750000	1.65299280477675E-02	7.07654144587698E-03
116000000	1.66450862007759E-02	6.9387662399651E-03
116250000	1.67596161103249E-02	6.79841738601406E-03
116500000	1.68718440535106E-02	6.65736651540565E-03
116750000	1.69816557919551E-02	6.51481729234056E-03
117000000	1.70902084988951E-02	6.37191349125994E-03
117250000	1.71958947630445E-02	6.22741528476522E-03
117500000	1.73001669273668E-02	6.08027496601443E-03
117750000	1.74027575252141E-02	5.93456447894969E-03
118000000	1.75046758062381E-02	5.78563166120021E-03
118250000	0.017602754618619	5.63568598046309E-03
118500000	1.76995036692278E-02	5.48503074189148E-03
118750000	1.77904746741274E-02	5.33695881985162E-03
119000000	1.78852396041156E-02	5.1808593486914E-03
119250000	0.017976705542499	5.02946482268553E-03
119500000	1.80632529422887E-02	4.8735648140462E-03
119750000	1.81498217440823E-02	4.71827085424135E-03
120000000	1.82332875172775E-02	4.56361364775755E-03
120250000	1.83159830616951E-02	4.4047594749055E-03
120500000	1.83946974122286E-02	4.24777101305331E-03
120750000	1.84721403523361E-02	4.08895886439091E-03
121000000	1.85487772352169E-02	3.93029500799739E-03
121250000	1.86215233025494E-02	3.76967867018522E-03
121500000	1.86907863788699E-02	3.60818011118549E-03
121750000	1.87624502099349E-02	3.44552039199143E-03
122000000	1.88298913071058E-02	3.28542117574385E-03
122250000	0.018892974214118	3.12171386656594E-03
122500000	1.89545631770387E-02	2.95937879154651E-03
122750000	1.90161507559154E-02	2.79412205824047E-03
123000000	1.90748137463495E-02	2.63011248478897E-03
123250000	1.91326555993422E-02	2.46658659197165E-03
123500000	1.91857223890303E-02	2.29970888851362E-03
123750000	1.92385752816076E-02	2.1351918925941E-03
124000000	1.92869651333459E-02	1.96717791118478E-03
124250000	1.93339335225192E-02	1.80064958042665E-03
124500000	1.93797571437008E-02	1.63395442359442E-03
124750000	0.019423359423047	1.46717382540648E-03
125000000	0.019463753081788	1.29992324687071E-03
125250000	1.95026457119544E-02	1.13293062769823E-03
125500000	1.95391477202868E-02	9.6429847655213E-04
125750000	1.95738899573726E-02	7.95608706685462E-04
126000000	1.96070621913513E-02	6.28312732263429E-04
126250000	1.96366096316234E-02	4.58155934694329E-04
126500000	1.96659313083602E-02	2.91470877401681E-04
126750000	1.96923968511212E-02	1.21676941996069E-04
127000000	1.97153238518855E-02	-4.73887178125821E-05
127250000	1.97381646288152E-02	-2.16828685073437E-04
127500000	1.97567024479479E-02	-3.83887907996646E-04
127750000	1.97747667396161E-02	-5.52538352999406E-04
128000000	1.97899827787508E-02	-7.20729500130588E-04
128250000	0.019804619013384	-8.89592999173039E-04
128500000	1.98153788465832E-02	-1.05807266088761E-03
128750000	1.98253879368287E-02	-1.22501215500608E-03
129000000	1.98311171013135E-02	-1.39266057190427E-03
129250000	1.98369608145191E-02	-1.5605996958079E-03
129500000	1.98392078716051E-02	-1.7282827032903E-03
129750000	0.019840096556339	-1.89580584523802E-03
130000000	1.98397504854395E-02	-2.06103064051386E-03
130250000	1.98360542988805E-02	-2.22786432636963E-03
130500000	1.98304330738792E-02	-2.39464585761434E-03
130750000	1.98237674724954E-02	-2.55999106398693E-03
131000000	1.98137776936492E-02	-2.72606726387179E-03
131250000	1.98027935918676E-02	-2.88966109405652E-03
131500000	1.97895479784889E-02	-3.05398425415761E-03
131750000	0.019774744814835	-3.21849220255768E-03
132000000	0.019758449092011	-3.3821725285898E-03
132250000	1.97389114782515E-02	-3.5450346564771E-03
132500000	1.97173351633244E-02	-3.70654197456882E-03
132750000	1.96939368849921E-02	-3.86826908547936E-03
133000000	0.019670663810185	-4.03025940120958E-03
133250000	1.96442856199764E-02	-4.19096021089099E-03
133500000	1.96150621948627E-02	-4.3503198083831E-03
133750000	1.95835737471428E-02	-4.50715943055343E-03
134000000	1.95522390919993E-02	-4.66739131233964E-03
134250000	1.95182157719056E-02	-4.82511743857574E-03
