# Hz S RI R 50
40000000	8.24859590213465E-03	-1.52350130361569E-02
40250000	8.08923625789331E-03	-1.52610808044459E-02
40500000	7.92998648261881E-03	-1.52853419341585E-02
40750000	7.77123277315138E-03	-1.53084651248178E-02
41000000	7.60920325677159E-03	-1.53288676532701E-02
41250000	7.44821501720082E-03	-1.53474300488464E-02
41500000	7.28774547051589E-03	-1.53639429963458E-02
41750000	7.12708405259901E-03	-1.53778488212181E-02
42000000	6.96722531746279E-03	-1.53915980571735E-02
42250000	6.80366288269499E-03	-1.54024444880464E-02
42500000	6.64051398677325E-03	-1.54117518658322E-02
42750000	6.47901871504888E-03	-1.54177997332781E-02
43000000	6.31821925193664E-03	-1.54239181160033E-02
43250000	6.15568105625683E-03	-0.015426432859313
43500000	5.9932989750515E-03	-1.54292588058149E-02
43750000	5.83027112192291E-03	-1.54277454563549E-02
44000000	5.66733931570369E-03	-1.54252339591936E-02
44250000	5.50542136096674E-03	-0.015421768910827
44500000	5.34265588646746E-03	-1.54155048620749E-02
44750000	5.17955397356254E-03	-1.54066741839466E-02
45000000	5.01621911317552E-03	-1.53972043970096E-02
45250000	4.85471601533949E-03	-1.53840587647492E-02
45500000	4.69283858332785E-03	-0.015371238890556
45750000	4.52913464488271E-03	-1.53545097334701E-02
46000000	4.36709787967006E-03	-1.53374102853748E-02
46250000	4.20608390042151E-03	-1.53177469124367E-02
46500000	4.0447784170772E-03	-0.015295402179363
46750000	3.88181716578469E-03	-1.52732768142954E-02
47000000	3.72308745437977E-03	-1.52466645724055E-02
47250000	3.56044663871675E-03	-1.52207080788145E-02
47500000	3.39947604542814E-03	-1.51897059537058E-02
47750000	3.23751455148643E-03	-1.51605454408072E-02
48000000	3.07884796247235E-03	-1.51274502972987E-02
48250000	2.91743094392038E-03	-1.50930355575092E-02
48500000	2.75856391457618E-03	-1.50553837862369E-02
48750000	2.59836219575114E-03	-1.50171158124313E-02
49000000	2.43976935735745E-03	-0.014974954644474
49250000	2.28300791576213E-03	-1.49340765849381E-02
49500000	2.12423486750084E-03	-1.48878661739998E-02
49750000	1.96703637205757E-03	-1.48414067533326E-02
50000000	1.81044740342826E-03	-1.47939666575895E-02
50250000	1.65303708345485E-03	-1.47439072920061E-02
50500000	1.49796596343713E-03	-1.46930928717576E-02
50750000	1.34216961505542E-03	-1.46385522883514E-02
51000000	1.18777892520272E-03	-1.45840274715816E-02
51250000	1.03179897483524E-03	-1.45266285790703E-02
51500000	8.76257695160798E-04	-1.44668573539808E-02
51750000	7.24065330004736E-04	-1.44055115405724E-02
52000000	5.72469111809069E-04	-1.43424440783209E-02
52250000	4.20968406138415E-04	-1.42788456305716E-02
52500000	2.7093314792645E-04	-1.42123209878678E-02
52750000	1.18931829324452E-04	-1.41435386880264E-02
53000000	-2.90323622056185E-05	-1.40733419962655E-02
53250000	-1.77533519226271E-04	-1.40018156933892E-02
53500000	-3.24365709665341E-04	-1.39284143798262E-02
53750000	-4.71524390282403E-04	-1.38527972245827E-02
54000000	-6.17899083672735E-04	-0.013774587979885
54250000	-7.62541413363784E-04	-0.013696719948855
54500000	-9.06516188134973E-04	-1.36152270474624E-02
54750000	-1.05015916427044E-03	-1.35337210361097E-02
55000000	-1.19222505465814E-03	-1.34492252199406E-02
55250000	-1.33429184847304E-03	-1.33635274592435E-02
55500000	-1.4740505477236E-03	-1.32764052414403E-02
55750000	-1.6124937014604E-03	-1.31844900929167E-02
56000000	-1.75326808317865E-03	-1.30950766245285E-02
56250000	-1.8902286663701E-03	-1.30025725025344E-02
56500000	-2.0239384528788E-03	-1.29091623511482E-02
56750000	-2.16026093198606E-03	-0.012815105167607
57000000	-2.29377804257325E-03	-1.27155260270516E-02
57250000	-2.42716522692032E-03	-1.26178455433065E-02
57500000	-2.5584331354728E-03	-1.25150994318213E-02
57750000	-2.68873307649675E-03	-1.24145664579564E-02
58000000	-2.81963901682864E-03	-1.23101014638906E-02
58250000	-2.9475551661305E-03	-1.22054136207159E-02
58500000	-3.0741363724385E-03	-1.20982722029875E-02
58750000	-3.19949164008124E-03	-1.19886763806766E-02
59000000	-3.32470632216603E-03	-0.011879428612209
59250000	-3.44801359262231E-03	-1.17695261597099E-02
59500000	-3.57006366614503E-03	-1.16549612889343E-02
59750000	-3.68960586563853E-03	-1.15398346051456E-02
60000000	-3.80900631582828E-03	-1.14245461561921E-02
60250000	-3.92783011634435E-03	-0.011307106815428
60500000	-4.04439086484649E-03	-1.11868966100933E-02
60750000	-4.15810174109921E-03	-1.10689810540594E-02
61000000	-4.2712448816126E-03	-1.09463147566634E-02
61250000	-4.38452685469931E-03	-1.08231055257762E-02
61500000	-4.49575312530952E-03	-1.07000730403225E-02
61750000	-4.60491099177167E-03	-1.05740591489899E-02
62000000	-4.71199499217064E-03	-1.04480510747487E-02
62250000	-4.81996144605409E-03	-1.03188692832615E-02
62500000	-4.92438097895268E-03	-1.01871710167518E-02
62750000	-5.02870682840936E-03	-1.00583503492105E-02
63000000	-5.12981194978643E-03	-9.92568067273065E-03
63250000	-5.23028657956516E-03	-9.79289903791542E-03
63500000	-5.32871760986396E-03	-9.65927881884711E-03
63750000	-5.42537916350844E-03	-9.52146124693084E-03
64000000	-5.52177608819177E-03	-9.38460386566167E-03
64250000	-5.61590015168999E-03	-9.24633203692779E-03
64500000	-5.70819044333964E-03	-9.10904735445926E-03
64750000	-5.79928314616015E-03	-8.9677621907963E-03
65000000	-5.88738789907352E-03	-8.82548569696944E-03
65250000	-5.97438545521706E-03	-8.68332992803657E-03
65500000	-6.06013344422124E-03	-8.53994691577334E-03
65750000	-6.14551108756576E-03	-8.39420924136638E-03
66000000	-6.22768024928422E-03	-8.24826291554193E-03
66250000	-6.30833578495545E-03	-8.10326412351981E-03
66500000	-6.38777277558682E-03	-7.95535708100963E-03
66750000	-6.46360099367471E-03	-7.80517614601828E-03
67000000	-6.53857768020822E-03	-7.65451103943752E-03
67250000	-6.61288219398076E-03	-7.50368889834817E-03
67500000	-6.68572445794918E-03	-7.35364064634867E-03
67750000	-6.75395786702444E-03	-7.2000198167447E-03
68000000	-6.82353423956362E-03	-7.0480871803527E-03
68250000	-6.89008121101733E-03	-6.89154074519366E-03
68500000	-6.95488165095268E-03	-6.7380243483606E-03
68750000	-7.01732019087599E-03	-6.58161849016772E-03
69000000	-7.07639185154709E-03	-6.42464862072075E-03
69250000	-7.13702024612071E-03	-6.26669352217514E-03
69500000	-7.19404869274995E-03	-6.10960259151117E-03
69750000	-7.24936580566288E-03	-5.94821307098506E-03
70000000	-7.3015890876783E-03	-5.79136442982076E-03
70250000	-7.35462776434658E-03	-5.63006801457205E-03
70500000	-7.40426739634177E-03	-5.4693313496297E-03
70750000	-7.45306209675675E-03	-5.30748758683665E-03
71000000	-7.49818819306265E-03	-5.1440551082852E-03
71250000	-7.54040095010774E-03	-4.98179744996193E-03
71500000	-7.58344984140332E-03	-4.81938786054853E-03
71750000	-7.62334232421824E-03	-4.65508327678086E-03
72000000	-7.66250839182515E-03	-4.49013694335604E-03
72250000	-7.69835827666613E-03	-4.32489599313478E-03
72500000	-7.73189298981393E-03	-4.15947612994953E-03
72750000	-7.7644917883628E-03	-3.99401742225795E-03
73000000	-7.79349334576672E-03	-3.82798903098269E-03
73250000	-7.82233546247354E-03	-3.6598991219236E-03
73500000	-7.84753866347075E-03	-3.49205531630253E-03
73750000	-7.87211402770517E-03	-3.32559939830087E-03
74000000	-7.89590825389907E-03	-3.15918892292762E-03
74250000	-7.91448522466497E-03	-2.99207447420252E-03
74500000	-7.93346421764727E-03	-2.82126368675344E-03
74750000	-7.94988457183184E-03	-2.65169671483775E-03
75000000	-7.96459657731859E-03	-2.48425341672492E-03
75250000	-7.97488633323622E-03	-2.31393915409975E-03
75500000	-7.98616154632168E-03	-2.14495179931453E-03
75750000	-7.99470556742642E-03	-1.97471818625993E-03
76000000	-8.00115734080454E-03	-1.80553937001196E-03
76250000	-8.00482167918638E-03	-1.63631436311553E-03
76500000	-8.00701199058974E-03	-1.46599137208576E-03
76750000	-8.00631962717069E-03	-1.2949492593109E-03
77000000	-8.00395541367264E-03	-1.12462856727831E-03
77250000	-7.99974327489416E-03	-9.53714353830429E-04
77500000	-7.9936875273185E-03	-7.84781935777564E-04
77750000	-7.98585795034866E-03	-6.14874136296727E-04
78000000	-7.97637138804935E-03	-4.4502046278842E-04
78250000	-7.96290609072038E-03	-2.7361780629782E-04
78500000	-7.94941585110186E-03	-1.03224278349743E-04
78750000	-7.93330358855048E-03	6.63516640991448E-05
79000000	-7.91557542754527E-03	2.35501391015426E-04
79250000	-7.89413617838076E-03	4.0557190981626E-04
79500000	-7.87088189979947E-03	5.75520929068559E-04
79750000	-7.84778799850034E-03	7.44763301327413E-04
80000000	-7.82072776522666E-03	9.13074514115296E-04
80250000	-7.79197491763131E-03	1.0818311673806E-03
80500000	-7.76144008606802E-03	1.25194516609976E-03
80750000	-7.72913966137005E-03	1.41938264674624E-03
81000000	-7.69532778402891E-03	1.58714043244787E-03
81250000	-7.65743733613101E-03	1.75422685715729E-03
81500000	-7.6180519179271E-03	1.92285266145234E-03
81750000	-7.57826732345839E-03	2.0887064271559E-03
82000000	-7.53741890291779E-03	2.2567897912412E-03
82250000	-7.49064929643933E-03	2.42160521406255E-03
82500000	-7.44380850326155E-03	2.58596185696465E-03
82750000	-7.39553530320094E-03	2.75317580579715E-03
83000000	-7.34422377589848E-03	2.9170777021386E-03
83250000	-7.29151656419639E-03	3.07918670918619E-03
83500000	-7.23746148034466E-03	3.24269238258457E-03
83750000	-7.18021735194873E-03	3.40556035624618E-03
84000000	-7.12129537384662E-03	3.5678432541052E-03
84250000	-7.06085450257837E-03	3.73067148976228E-03
84500000	-6.9985148353396E-03	3.89232023060949E-03
84750000	-6.93335589923942E-03	4.05173687576164E-03
85000000	-6.86575874463546E-03	4.21050954804692E-03
85250000	-6.79928373070486E-03	4.37014100595236E-03
85500000	-6.72906789441319E-03	4.52982973467066E-03
85750000	-6.65616485633051E-03	4.68543481688639E-03
86000000	-6.58160507314543E-03	4.84256430983789E-03
86250000	-6.50633351324012E-03	4.99728160177782E-03
86500000	-6.42852263217209E-03	5.15282282344225E-03
86750000	-6.34817039361509E-03	5.30598043807335E-03
87000000	-6.26779983208942E-03	5.46202029047288E-03
87250000	-6.18334448375208E-03	5.61268886092835E-03
87500000	-6.09568370091867E-03	5.76457192270441E-03
87750000	-6.00844990378599E-03	5.91591356870193E-03
88000000	-5.92068949427609E-03	6.06337227416239E-03
88250000	-5.82862674549053E-03	6.21332685703669E-03
88500000	-5.73633661227191E-03	6.36050905160029E-03
88750000	-5.64191232939501E-03	6.50701626535119E-03
89000000	-5.54432777917219E-03	6.65270122389507E-03
89250000	-5.44675258169419E-03	6.79761059654811E-03
89500000	-5.34691640414123E-03	6.94008285869465E-03
89750000	-5.24375388633155E-03	7.08140055300256E-03
90000000	-5.14084765533576E-03	7.22282531458333E-03
90250000	-5.03720215423749E-03	7.36145249784865E-03
90500000	-4.92866022464098E-03	7.50217689940919E-03
90750000	-4.81976126833028E-03	7.63863447896722E-03
91000000	-4.71087828316314E-03	7.77526699084757E-03
91250000	-4.59761697861056E-03	7.90941050431607E-03
91500000	-4.48422757376146E-03	8.04387702787593E-03
91750000	-4.36944589615606E-03	8.17645390056787E-03
92000000	-4.25347565989336E-03	8.30675991409885E-03
92250000	-4.13218802944643E-03	8.43691305494108E-03
92500000	-4.01287896435356E-03	8.56568698449414E-03
92750000	-3.8907534689206E-03	8.69437471022007E-03
93000000	-3.76775359742725E-03	8.82004238508413E-03
93250000	-0.003643205748724	8.94281836037077E-03
93500000	-3.51485176609165E-03	9.06809029971729E-03
93750000	-3.38818017937001E-03	9.18932850793894E-03
94000000	-3.25857184685793E-03	9.30928824331949E-03
94250000	-3.12673850739163E-03	9.42812617511686E-03
94500000	-2.99407879758699E-03	9.5455962234346E-03
94750000	-2.86031065968924E-03	9.66081388507144E-03
95000000	-2.72376782096281E-03	9.77493745700654E-03
95250000	-2.58727401244667E-03	9.88795427372947E-03
95500000	-2.44962462177284E-03	9.99829509954089E-03
95750000	-2.30993049493502E-03	1.01081259234677E-02
96000000	-2.16764020425075E-03	1.02170208469645E-02
96250000	-2.02459154952825E-03	1.03253614425928E-02
96500000	-1.88137643636158E-03	1.04285747416893E-02
96750000	-1.73669708052754E-03	1.05306317429075E-02
97000000	-1.58864363558833E-03	1.06325414306732E-02
97250000	-1.44220532868413E-03	1.07333296278111E-02
97500000	-1.29129971057431E-03	1.08313351351571E-02
97750000	-1.14314733160035E-03	1.09277637607966E-02
98000000	-9.90261675589888E-04	1.10225258458445E-02
98250000	-8.36933273763526E-04	1.11156144200729E-02
98500000	-6.83078391224788E-04	1.12071235449242E-02
98750000	-5.26601138405784E-04	0.01129499566177
99000000	-3.71017672555499E-04	1.13835605513865E-02
99250000	-2.14702690983643E-04	1.14699893060409E-02
99500000	-5.50051124217263E-05	1.15561432148679E-02
99750000	1.05284033029281E-04	1.16380302730578E-02
100000000	2.66051444417066E-04	1.17186569771685E-02
100250000	4.27172006116226E-04	1.17967156215235E-02
100500000	5.91525311069549E-04	1.18738489187007E-02
100750000	7.54436323666728E-04	1.19498711612934E-02
101000000	9.19501112843006E-04	1.20233882372587E-02
101250000	1.08446497424187E-03	0.012093295663629
101500000	1.2508313840707E-03	1.21631610522177E-02
101750000	1.42024392682975E-03	1.22311137625492E-02
102000000	1.58786341245248E-03	1.22967831343156E-02
102250000	1.75773956597358E-03	1.23593446857194E-02
102500000	1.92828848535362E-03	1.24207986970589E-02
102750000	2.10032679599362E-03	1.24805004389248E-02
103000000	2.27354489976164E-03	1.25398613348751E-02
103250000	2.44554509869145E-03	0.012595667566146
103500000	2.6197602703111E-03	1.26493023919725E-02
103750000	2.79566595996139E-03	0.012700336382886
104000000	2.97009043388457E-03	1.27506580096671E-02
104250000	3.14443264630901E-03	1.27992660939669E-02
104500000	3.32229794947125E-03	1.28459138458264E-02
104750000	3.50012866231348E-03	1.28892734930858E-02
105000000	3.67916506747736E-03	1.29303730862157E-02
105250000	3.85596563213938E-03	1.29715491973265E-02
105500000	4.03400726346757E-03	1.30066351508806E-02
105750000	4.21513512830704E-03	1.30426113909184E-02
106000000	4.39597949237216E-03	1.30774737552258E-02
106250000	4.57695046561791E-03	1.31091702437678E-02
106500000	4.75859159322347E-03	1.31381657492885E-02
106750000	4.94036504773799E-03	1.31670235951699E-02
107000000	5.12245504030295E-03	1.31909403091405E-02
107250000	5.30602611502101E-03	1.32129644153861E-02
107500000	5.49007442627732E-03	1.32342932279952E-02
107750000	5.67290011802592E-03	1.32555521154265E-02
108000000	5.85703536175986E-03	1.32712558150406E-02
108250000	6.04026588879871E-03	1.32853650315027E-02
108500000	6.22460801573256E-03	1.32989208385981E-02
108750000	6.40933069573074E-03	1.33097316797412E-02
109000000	6.59509915714884E-03	0.013317564819345
109250000	6.7791042800253E-03	1.33225540633388E-02
109500000	6.96632401712751E-03	1.33279365962536E-02
109750000	7.1514983275976E-03	1.33299936842373E-02
110000000	7.33738488459578E-03	0.013329390720749
110250000	7.52310190587806E-03	1.33274462557118E-02
110500000	7.71069022350263E-03	1.33224081228988E-02
110750000	7.89587432561741E-03	1.33160626494942E-02
111000000	8.08442857757955E-03	1.33071009315263E-02
111250000	8.26975660334935E-03	1.32970946016066E-02
111500000	8.45542695172614E-03	1.32827536929867E-02
111750000	8.64301546508513E-03	1.32672419144109E-02
112000000	8.82922729895762E-03	1.32490425714985E-02
112250000	9.01528279037066E-03	1.32305962308876E-02
112500000	9.20203138069237E-03	1.32090499521355E-02
112750000	9.38746547705988E-03	1.31866181376709E-02
113000000	9.57444933485752E-03	1.31577991391103E-02
113250000	9.76024730853651E-03	1.31302676868026E-02
113500000	9.94739088116382E-03	1.31006693354396E-02
113750000	1.01323007217054E-02	1.30687268358778E-02
114000000	1.03184186460695E-02	1.30331967418435E-02
114250000	1.05025458022738E-02	1.29957472518213E-02
114500000	1.06874969644285E-02	1.29577235496022E-02
114750000	1.08725523040255E-02	1.29170729125041E-02
115000000	1.10571447355544E-02	1.28736175878862E-02
115250000	1.12401862314574E-02	1.28265346780263E-02
115500000	1.14252828425928E-02	1.27812343012401E-02
115750000	1.16082760882883E-02	1.27294344708908E-02
116000000	1.17892096721705E-02	1.26790052316397E-02
116250000	1.19721082420076E-02	1.26249638041877E-02
116500000	0.012153963623252	1.25686000831966E-02
116750000	1.23355423822667E-02	1.25101594636128E-02
117000000	1.25164383074754E-02	1.24507234172141E-02
117250000	1.26959090583298E-02	1.23879148581737E-02
117500000	1.28765973891452E-02	1.23232490333657E-02
117750000	1.30534683965473E-02	0.012256866337265
118000000	1.32348843491915E-02	1.21889318573457E-02
118250000	1.34123173213248E-02	1.21166047579631E-02
118500000	1.35890907900495E-02	1.20439915830571E-02
118750000	1.37641276737957E-02	1.19712714501927E-02
119000000	1.39418168934773E-02	1.18924376541125E-02
119250000	1.41183784948721E-02	1.18139620907215E-02
119500000	1.42899278554631E-02	1.17330913756089E-02
119750000	1.44657073771974E-02	1.16481529582699E-02
120000000	1.46367319147514E-02	1.15648734684236E-02
120250000	1.48101712661898E-02	1.14756674863002E-02
120500000	1.49803603618894E-02	1.13874160838317E-02
120750000	0.015150523077434	1.12958990306152E-02
121000000	1.53204092340817E-02	1.12023569655919E-02
121250000	0.015487966961301	1.11077013397232E-02
121500000	1.56540951414072E-02	1.10111157083805E-02
121750000	0.01582275820602	1.09116041532032E-02
122000000	1.59885595725869E-02	1.08114108168565E-02
122250000	1.61513774543164E-02	1.07074039095479E-02
122500000	1.63165383945691E-02	0.010603076765037
122750000	1.64790314227561E-02	1.04941786432805E-02
123000000	1.66401076175302E-02	0.010386180599807
123250000	1.68018860283619E-02	1.02755940712103E-02
123500000	1.69589199411591E-02	1.01631115472717E-02
123750000	1.71191166690522E-02	1.00481298852656E-02
124000000	0.017274269005108	9.93219264823688E-03
124250000	1.74316423404912E-02	9.81290448688576E-03
124500000	1.75859419892066E-02	9.69454036333856E-03
124750000	1.77381580422939E-02	9.57329947349019E-03
125000000	1.78908593971652E-02	9.44855320710506E-03
125250000	1.80411162020153E-02	9.32358360338422E-03
125500000	1.81912615187468E-02	9.19615635669486E-03
125750000	1.83383696361827E-02	0.009066078193901
126000000	1.84855858832031E-02	0.008936430567394
126250000	1.86305553358827E-02	8.80179321734022E-03
126500000	1.87761601038903E-02	8.66954570110838E-03
126750000	1.89191076686584E-02	8.53175966394241E-03
127000000	0.019059924113546	8.39308397983941E-03
127250000	1.92008591882499E-02	8.25469236893131E-03
127500000	0.019338144206304	8.11387249643536E-03
127750000	0.019474219617844	7.97070950980951E-03
128000000	1.96115312296853E-02	7.82750508516786E-03
128250000	1.97461118313143E-02	7.68051410941342E-03
128500000	1.98781295501431E-02	0.00753200510402
128750000	2.00096126287017E-02	7.38482339387927E-03
129000000	2.01387172678506E-02	7.23305474697258E-03
129250000	2.02673382422279E-02	7.08171783378594E-03
129500000	2.03923764008598E-02	6.92772831914097E-03
129750000	2.05172372212226E-02	6.77173317183347E-03
130000000	2.06417892780124E-02	6.61626861038228E-03
130250000	2.07637591929204E-02	6.45778519805708E-03
130500000	2.08828294918354E-02	6.29629601487946E-03
130750000	2.10001863306352E-02	6.13579516046216E-03
131000000	2.11166378273854E-02	5.97169413596655E-03
131250000	2.12326226816237E-02	5.80862262537405E-03
131500000	2.13435695187245E-02	5.64307255644404E-03
131750000	2.14560119805535E-02	5.4769944228986E-03
132000000	2.15667256508379E-02	5.30771559277994E-03
132250000	2.16725528955891E-02	5.13864090595704E-03
132500000	2.17789802219829E-02	4.96781391557928E-03
132750000	2.18820290960408E-02	4.79554056254579E-03
133000000	2.19874703974479E-02	4.62124265068481E-03
133250000	2.20861327506782E-02	0.004446232961224
133500000	2.21847112555815E-02	4.27106173961325E-03
133750000	2.22814775145403E-02	4.09450790564878E-03
134000000	0.02237662956334	3.91367278032133E-03
