# Hz S RI R 50
40000000	-0.226391337077128	-0.96715567824418
40250000	-0.237330454494159	-0.964403867419217
40500000	-0.248243026811751	-0.961548695623317
40750000	-0.259120177738726	-0.958563007721054
41000000	-0.269970297296243	-0.955445824012325
41250000	-0.280770730778871	-0.952207774602511
41500000	-0.291514218543356	-0.94884256036651
41750000	-0.302247245616908	-0.945385835745578
42000000	-0.312937442720707	-0.941773581989585
42250000	-0.323564722707964	-0.938049723169843
42500000	-0.334192573451399	-0.934200060792776
42750000	-0.344736546946293	-0.930234135369288
43000000	-0.355245658462241	-0.926164321028059
43250000	-0.365706090956296	-0.921942891607934
43500000	-0.37613368338421	-0.917616717576649
43750000	-0.386500033886336	-0.913182314057938
44000000	-0.396793872974694	-0.908603859910514
44250000	-0.407047365777564	-0.903932956318388
44500000	-0.417245066490702	-0.899139317987708
44750000	-0.42742053699659	-0.89422547527291
45000000	-0.437498538566294	-0.889198851299302
45250000	-0.447512458450211	-0.884043932066219
45500000	-0.457493787575379	-0.878794773956094
45750000	-0.46740882036147	-0.873419325023711
46000000	-0.477248820481561	-0.867940336143558
46250000	-0.487030611898966	-0.862351253561335
46500000	-0.496756871325104	-0.856639357884514
46750000	-0.506388800645255	-0.850820452049799
47000000	-0.515975065312172	-0.844888602018961
47250000	-0.525508281922018	-0.838840349352321
47500000	-0.534950843868828	-0.832717330073107
47750000	-0.544314390325136	-0.826471160407196
48000000	-0.553616864192565	-0.820103004699086
48250000	-0.562841459612497	-0.813646290167341
48500000	-0.571984919242348	-0.807067274631861
48750000	-0.581059394996862	-0.800389642524549
49000000	-0.590070434661298	-0.793619281652764
49250000	-0.598966874387726	-0.786744318144309
49500000	-0.607819711403984	-0.77976659217105
49750000	-0.616588373090177	-0.77268061329859
50000000	-0.62525120346588	-0.765511701308173
50250000	-0.633838334155883	-0.758223963730017
50500000	-0.642352478072378	-0.750856190821988
50750000	-0.650771008324464	-0.743389091584083
51000000	-0.659100588887362	-0.735836301047518
51250000	-0.667350010469452	-0.728172950985361
51500000	-0.675513016309008	-0.72039632628993
51750000	-0.683572628436989	-0.712574250150632
52000000	-0.691540708569053	-0.704635921191422
52250000	-0.699432771371154	-0.696608760053387
52500000	-0.707217884255146	-0.688508262177658
52750000	-0.714908377381752	-0.680294038337876
53000000	-0.722515290819496	-0.672007134995773
53250000	-0.73002836720653	-0.663626913194678
53500000	-0.737435045608059	-0.655187679929136
53750000	-0.744742619026904	-0.646644874835202
54000000	-0.751968743867277	-0.638006225494
54250000	-0.759072914568672	-0.629304554327849
54500000	-0.766069159530903	-0.620500588100286
54750000	-0.772981883926308	-0.611639469062797
55000000	-0.779789328409195	-0.602705181504773
55250000	-0.786486517488129	-0.593685514408511
55500000	-0.793100367890642	-0.584596128874575
55750000	-0.799574404199146	-0.57542915057777
56000000	-0.805974319165987	-0.566192966774497
56250000	-0.812255703325439	-0.556873964640285
56500000	-0.818429060780229	-0.547499876576049
56750000	-0.824490942093732	-0.538056381209962
57000000	-0.830438625006985	-0.528530843777786
57250000	-0.836282965098182	-0.518941007921674
57500000	-0.842014749636114	-0.509309015320899
57750000	-0.847626998127527	-0.49958706221553
58000000	-0.853137744716547	-0.489809741257278
58250000	-0.858547875601617	-0.479970562110444
58500000	-0.863843184298988	-0.470097550876131
58750000	-0.868990763504778	-0.460125991324976
59000000	-0.874050706919319	-0.45012146484219
59250000	-0.878999620637131	-0.440063211394198
59500000	-0.883802263278372	-0.429929203469018
59750000	-0.888520166201188	-0.419765632705891
60000000	-0.893110345565649	-0.409528770703139
60250000	-0.897569104619551	-0.399278441750229
60500000	-0.901934974640457	-0.388926448955405
60750000	-0.906178110188073	-0.3785665143255
61000000	-0.910275143850891	-0.368144284839238
61250000	-0.91428036881857	-0.357698852003603
61500000	-0.918151157871217	-0.347190551272158
61750000	-0.921909364581426	-0.336632236720775
62000000	-0.92553401657826	-0.326065996143497
62250000	-0.929043592029375	-0.315417397204228
62500000	-0.932432695709418	-0.304753798951192
62750000	-0.93567541262595	-0.294064200781098
63000000	-0.938827000832197	-0.283327614220497
63250000	-0.941856876373982	-0.272553712760559
63500000	-0.944749023688329	-0.261747786818356
63750000	-0.94750190777876	-0.25094089864863
64000000	-0.950153847680318	-0.240065761936697
64250000	-0.952679721562421	-0.229182459952141
64500000	-0.955073193928602	-0.218276133756269
64750000	-0.957360750255964	-0.207337092571404
65000000	-0.959505925672974	-0.196364574019968
65250000	-0.961508045059628	-0.185383378344249
65500000	-0.96340760722013	-0.174391402691268
65750000	-0.965178409548913	-0.163374589662984
66000000	-0.966829939848981	-0.152325663499992
66250000	-0.968337722429265	-0.141280709882736
66500000	-0.969734348079406	-0.130197626422202
66750000	-0.971001778478314	-0.119131236832081
67000000	-0.97213351988711	-0.108030467285292
67250000	-0.97315477939151	-9.69146631998779E-02
67500000	-0.974038119188714	-8.58133812603758E-02
67750000	-0.974790847598331	-7.46842137910528E-02
68000000	-0.975411457304654	-6.35723651362602E-02
68250000	-0.975925078515145	-5.24496117951479E-02
68500000	-0.976288246630474	-4.13151075188395E-02
68750000	-0.97654755769853	-3.01734087413456E-02
69000000	-0.976668984234493	-1.90421606665186E-02
69250000	-0.976656491629203	-7.92144380582281E-03
69500000	-0.976531878346559	3.21253881035588E-03
69750000	-0.976269087948339	1.43492467676985E-02
70000000	-0.975899105593594	0.025469291575409
70250000	-0.975384696354	0.036571245664646
70500000	-0.974742003625182	0.047682385863098
70750000	-0.973989175305888	0.058769303614683
71000000	-0.973081050670997	6.98559496184015E-02
71250000	-0.97208820044941	8.09019263299254E-02
71500000	-0.970939039530292	9.19474165878238E-02
71750000	-0.969673453766999	0.102982418268705
72000000	-0.968293886063598	0.114004608533048
72250000	-0.966774217044452	0.125004404549275
72500000	-0.965124241315375	0.135983276015631
72750000	-0.963364251992179	0.146938250092802
73000000	-0.961474112221391	0.157878066809358
73250000	-0.959451762388519	0.168779563353402
73500000	-0.957320548289954	0.179670638092014
73750000	-0.95506263820339	0.190512248472585
74000000	-0.952693414396003	0.20134254875268
74250000	-0.950181308342216	0.212132219515228
74500000	-0.947555308378421	0.222900260628892
74750000	-0.944802032069262	0.233618157149911
75000000	-0.941945658308103	0.244336708124267
75250000	-0.938944677322723	0.255005998731104
75500000	-0.935838674584383	0.265608716379279
75750000	-0.932618869514932	0.276200517624707
76000000	-0.929266968673872	0.286743862138266
76250000	-0.925805888505338	0.2972560041325
76500000	-0.922230736310351	0.307695400539335
76750000	-0.918514524901374	0.318120344975946
77000000	-0.914694934222788	0.328501157644684
77250000	-0.910763985193646	0.338813601889429
77500000	-0.906729182622199	0.349087056227745
77750000	-0.902567285715298	0.359340030178215
78000000	-0.898273520242934	0.369492721385996
78250000	-0.893892702273306	0.379657425131346
78500000	-0.889369200444787	0.389709214752166
78750000	-0.884755393014613	0.399719617672786
79000000	-0.88003092324644	0.409690833004332
79250000	-0.875172059438911	0.419604780700498
79500000	-0.870228297862554	0.42944554247938
79750000	-0.865158355409458	0.439238700164892
80000000	-0.859979190784298	0.448985138179831
80250000	-0.854733533708398	0.458646238756271
80500000	-0.849330004483861	0.468247632305311
80750000	-0.843843880938853	0.477778164596168
81000000	-0.838209316644425	0.487265516335489
81250000	-0.832525815045784	0.496661639899589
81500000	-0.826715001603126	0.50600839100712
81750000	-0.820797875597182	0.515283473180383
82000000	-0.814782515525816	0.524486334223908
82250000	-0.80866648464015	0.533615414112594
82500000	-0.802457831966018	0.542680133232514
82750000	-0.796130395355796	0.551662659262849
83000000	-0.789710557971709	0.560583790847503
83250000	-0.783192234074474	0.569425661479192
83500000	-0.776573460623601	0.57818979244215
83750000	-0.769845244667307	0.586851402907705
84000000	-0.763041011756657	0.595480422199482
84250000	-0.756137359955312	0.604008762287361
84500000	-0.749153409502193	0.612450206091099
84750000	-0.742070150659285	0.620811606719088
85000000	-0.734897071112094	0.6290948802587
85250000	-0.727602598191839	0.637281186926797
85500000	-0.720236956735675	0.645388329736127
85750000	-0.712796998641266	0.653435546978908
86000000	-0.705246391119001	0.661357880816223
86250000	-0.697624338540148	0.669234905449089
86500000	-0.689917019624518	0.676964238059649
86750000	-0.682092765020854	0.684668055198553
87000000	-0.6742324074625	0.692239441887709
87250000	-0.666247451265727	0.699730010128395
87500000	-0.658200212157199	0.707145904602897
87750000	-0.650066811606867	0.714447925888548
88000000	-0.641865322889675	0.72167139025642
88250000	-0.633591848510759	0.728764128843673
88500000	-0.625239827555146	0.735797760371199
88750000	-0.616795818960933	0.742734132790014
89000000	-0.608292708057183	0.749564707386751
89250000	-0.599697054661883	0.75629157498607
89500000	-0.591042640836684	0.762936523959761
89750000	-0.58230914081137	0.769467838346081
90000000	-0.573491784120942	0.77589692796136
90250000	-0.564643988143954	0.782263876758867
90500000	-0.555692556005074	0.788475320379331
90750000	-0.546673075954544	0.794620586573985
91000000	-0.537597437853114	0.800647899452591
91250000	-0.528478319696517	0.806563051728828
91500000	-0.519276458212274	0.812372681683863
91750000	-0.510012381107602	0.818088658836477
92000000	-0.500655256615592	0.823702102912196
92250000	-0.491308974900009	0.829202886953018
92500000	-0.481863957096439	0.834602206996654
92750000	-0.472365852229598	0.839863625446551
93000000	-0.462794413043733	0.845057678690653
93250000	-0.453186388786366	0.850117381372486
93500000	-0.443521591172484	0.855093325231889
93750000	-0.433789976180207	0.85994748293363
94000000	-0.424037159095418	0.864665162404556
94250000	-0.414228806159138	0.869316423319668
94500000	-0.404370807961411	0.873838342598759
94750000	-0.394447300166669	0.878240554077036
95000000	-0.384483109698316	0.882510067292699
95250000	-0.374460009593851	0.886704862878589
95500000	-0.364430634400503	0.890777811839443
95750000	-0.354329832995635	0.894724517353573
96000000	-0.344193038219041	0.898573854881168
96250000	-0.334040712322196	0.902287956477265
96500000	-0.323837887820026	0.905932777975137
96750000	-0.31359254375489	0.909391945702105
97000000	-0.303306340964738	0.912769816800605
97250000	-0.292981496790118	0.916030550071784
97500000	-0.282627899510204	0.919192279679995
97750000	-0.272242550383034	0.922214516786281
98000000	-0.261826752484711	0.925135251730449
98250000	-0.251409085020901	0.927933867600672
98500000	-0.240915853604002	0.930606226986433
98750000	-0.230435727129418	0.933175101412985
99000000	-0.219897049624601	0.935604316276701
99250000	-0.209362990231415	0.937933320544276
99500000	-0.19879529631418	0.940149604943364
99750000	-0.188201335916409	0.942243502415779
100000000	-0.177587360274811	0.944199996728629
100250000	-0.166958105358332	0.946050524995401
100500000	-0.156318513107678	0.947799713515412
100750000	-0.145655980728391	0.949394315355708
101000000	-0.13496508380403	0.950866774740473
101250000	-0.12429247811798	0.952272440743332
101500000	-0.113588817874137	0.9535308683017
101750000	-0.102871353815953	0.95466339260665
102000000	-0.09215179852769	0.955692392492581
102250000	-8.14100491371154E-02	0.95657719957213
102500000	-7.06807575187503E-02	0.957346951312374
102750000	-5.99163083546129E-02	0.958013097686206
103000000	-4.92012417378309E-02	0.958562935542331
103250000	-3.84608397574908E-02	0.958955211810397
103500000	-2.77025394680279E-02	0.95925794325582
103750000	-1.69489533830602E-02	0.959423234818608
104000000	-6.17518803435641E-03	0.959489939120216
104250000	4.56072169884811E-03	0.959430718336332
104500000	1.52890658453234E-02	0.95925404417175
104750000	2.60157794511683E-02	0.958947715615687
105000000	3.67803847265435E-02	0.958530762889225
105250000	4.74947025777483E-02	0.957990541329553
105500000	5.82094167272449E-02	0.957325182432644
105750000	6.89166799064784E-02	0.956567507163521
106000000	7.95965905590171E-02	0.955686328135243
106250000	9.02732786154985E-02	0.954667977774158
106500000	0.100958908748695	0.953510784107839
106750000	0.111593012338055	0.952261120308713
107000000	0.122238659785486	0.95089818005187
107250000	0.132858684471945	0.949417063152896
107500000	0.1434477127341	0.947803360947711
107750000	0.154011472833727	0.946073302249924
108000000	0.164570270856122	0.944253295197349
108250000	0.175099605477009	0.942292392052194
108500000	0.185598866021123	0.940223766296488
108750000	0.196067534949934	0.938037246552163
109000000	0.206547101295123	0.93574561432284
109250000	0.216964807897767	0.93333643395319
109500000	0.227354475987656	0.930804176481614
109750000	0.237710502900994	0.92815289412181
110000000	0.248047534971863	0.925396703929533
110250000	0.25834779178493	0.922529223197385
110500000	0.268611734265306	0.919538977653487
110750000	0.278855933179796	0.916419371071947
111000000	0.289038112282465	0.913221046912009
111250000	0.299184736344516	0.909904671858457
111500000	0.309285285648853	0.906452043473543
111750000	0.319368288520701	0.902907868848078
112000000	0.329393294310841	0.899246972429773
112250000	0.339371502736663	0.895479784539894
112500000	0.349328711597462	0.891614687363701
112750000	0.359241216358584	0.887631465994331
113000000	0.369086212762718	0.883526892407975
113250000	0.378886541255482	0.879326398386991
113500000	0.388646288701755	0.875015003571688
113750000	0.39834215527783	0.870599664398082
114000000	0.407999342347687	0.866084563793116
114250000	0.417604681357813	0.861464443183591
114500000	0.427148964103253	0.856732743127012
114750000	0.436650177972833	0.851872148124379
115000000	0.446109193258907	0.846945202965896
115250000	0.455454050255951	0.841906384091604
115500000	0.464787490703582	0.836752149604571
115750000	0.474040264590462	0.831493207126926
116000000	0.483247545029974	0.826151206234764
116250000	0.492383583050002	0.820694911129226
116500000	0.501478113422275	0.815166572149943
116750000	0.51049411599692	0.809491047690157
117000000	0.519434707241278	0.803741122016842
117250000	0.528331373404692	0.797899979169076
117500000	0.537142036334146	0.791958318919333
117750000	0.54590773028796	0.785923256092192
118000000	0.554594182066067	0.779788563537944
118250000	0.563210393764754	0.773554391211847
118500000	0.571748948542754	0.767235871685502
118750000	0.580217638422334	0.760824323692165
119000000	0.588619825422768	0.754320795871705
119250000	0.59696345642948	0.747721031079458
119500000	0.60519837895655	0.741035434969025
119750000	0.613376240809877	0.734240810942495
120000000	0.621474054744687	0.727382313958281
120250000	0.62949782396748	0.720430791898625
120500000	0.637447855702263	0.713383182845108
120750000	0.645296965434396	0.706240035815671
121000000	0.653089788268656	0.699045696562061
121250000	0.660790095605516	0.691737668008987
121500000	0.668413546428244	0.684347338574034
121750000	0.675970589329266	0.676890304230856
122000000	0.683409376411967	0.669337855426815
122250000	0.690766285953835	0.661702267889216
122500000	0.698072534290024	0.654003227980008
122750000	0.705272808642384	0.646214346033882
123000000	0.712364377876799	0.638366420966884
123250000	0.719401705627088	0.630395754282953
123500000	0.726341184521674	0.622395985201647
123750000	0.733187561489033	0.614292404643823
124000000	0.739953796569056	0.606126497938524
124250000	0.746591914134549	0.59787727978211
124500000	0.753191879433485	0.58956765132529
124750000	0.75966361017462	0.58119242780593
125000000	0.766046486213023	0.572752693961538
125250000	0.772322419709443	0.564226363590608
125500000	0.77853081910774	0.555638809716985
125750000	0.784630942594237	0.546984792697958
126000000	0.790629958791529	0.538246718345617
126250000	0.796531125405581	0.52947665921206
126500000	0.802344156902236	0.520623737213408
126750000	0.808048152351155	0.51170015915094
127000000	0.813688787941225	0.502705698327082
127250000	0.819176842853384	0.493692661369798
127500000	0.824604304970284	0.48457770654514
127750000	0.829892914471322	0.475427209399297
128000000	0.835116267621065	0.466234236663816
128250000	0.840219720016939	0.456970428002518
128500000	0.845226039585564	0.447640512982947
128750000	0.850111694858949	0.438268013716743
129000000	0.854929032306451	0.428848614790281
129250000	0.859621790042312	0.419376759474442
129500000	0.864210198142686	0.40981288464606
129750000	0.86867313662686	0.400242387612906
130000000	0.873055688151584	0.390620985153762
130250000	0.877335924051453	0.380944484528667
130500000	0.881487881254377	0.371221682522767
130750000	0.885543548152328	0.361473158284828
131000000	0.889491676079266	0.351651798825068
131250000	0.893310717760586	0.34181067709814
131500000	0.897053050655634	0.331917584234122
131750000	0.900681388323841	0.322001094116998
132000000	0.90419955361005	0.312028035497896
132250000	0.907601929583594	0.302004713927854
132500000	0.91088179872004	0.291977597553605
132750000	0.914065767873053	0.281885268236474
133000000	0.917133888634831	0.271787644425988
133250000	0.920099773211698	0.261629693462183
133500000	0.922926415454897	0.251445575698762
133750000	0.925652879343961	0.241258367841256
134000000	0.928291958311347	0.231007870241153
134250000	0.930782917669764	0.220732938092344
134500000	0.933170444176506	0.210452286877496
134750000	0.93545082657425	0.200142905912966
135000000	0.937627109720315	0.18982020238772
135250000	0.939673097879331	0.179456566997557
135500000	0.941607761831263	0.169074696835745
135750000	0.94342278926254	0.158658132179959
136000000	0.945141126189629	0.148244485441748
136250000	0.946731632475901	0.13779198932578
136500000	0.948222280740948	0.127355191666092
136750000	0.94957993104654	0.116860542618988
137000000	0.950808591780195	0.106375054273931
137250000	0.951946033554092	9.58828015816971E-02
137500000	0.952979721406516	8.53750229101821E-02
137750000	0.953865947892151	7.48696755327279E-02
138000000	0.954656543115466	6.43221291032001E-02
138250000	0.955332949878242	5.37784851536463E-02
138500000	0.955879233066558	4.32187530090463E-02
138750000	0.956315690838079	3.26767822344568E-02
139000000	0.956647177941606	0.02212811285302
139250000	0.956841991928037	1.15878509980965E-02
139500000	0.956915598707712	1.0146637992477E-03
139750000	0.956905482948102	-9.54057291920267E-03
140000000	0.956733677872186	-2.01155774482962E-02
140250000	0.956475400710121	-3.06674872880195E-02
140500000	0.95610413616577	-4.12015007873747E-02
140750000	0.955625990257253	-5.17545719413932E-02
141000000	0.955005334748344	-6.23085716396167E-02
141250000	0.954283461147301	-7.28348871848167E-02
141500000	0.95344162693785	-0.083355920661261
141750000	0.952482997115801	-9.38824809323104E-02
142000000	0.951395568561855	-0.104385294598173
142250000	0.950231307598906	-0.114873924745397
142500000	0.948911962119167	-0.12535737522829
142750000	0.947483628366282	-0.135813409064118
143000000	0.945951194044873	-0.146251123703067
143250000	0.944323940737004	-0.156708519486941
143500000	0.94253885100607	-0.167091131330636
143750000	0.940660088843425	-0.177465007659707
144000000	0.938671566046489	-0.18785498042639
144250000	0.93655714269806	-0.198201192895162
144500000	0.934339661460516	-0.208522321421359
144750000	0.932000831065957	-0.218832504685175
