# Hz S RI R 50
40000000	0.239311989789847	0.933758326945737
40250000	0.249693643492181	0.930982449880913
40500000	0.260059624202724	0.928111123854384
40750000	0.270377893930722	0.92510427512016
41000000	0.280643812267398	0.921991703440402
41250000	0.290904437579804	0.918778632399581
41500000	0.301112347531228	0.915441879369729
41750000	0.311277770572434	0.912001742288335
42000000	0.321398861367383	0.908434220009036
42250000	0.331470630110518	0.904756684562731
42500000	0.341516182787577	0.90100259770022
42750000	0.351529922828396	0.897108798137921
43000000	0.361474648349104	0.893109817251205
43250000	0.371367598793691	0.889015060760691
43500000	0.381240825123412	0.884789668621373
43750000	0.39104503199831	0.880481266957836
44000000	0.400819748356024	0.876029658802716
44250000	0.410511857795802	0.871502195470137
44500000	0.420183300368555	0.866854806530359
44750000	0.429776171494618	0.862110137922743
45000000	0.439347822063233	0.857244008700952
45250000	0.448837713400554	0.852299354875571
45500000	0.458251770140206	0.847236886477533
45750000	0.467634983991163	0.842073076045373
46000000	0.476952157054084	0.836785341104027
46250000	0.486235052137563	0.831444092263729
46500000	0.495425925154884	0.82595080739904
46750000	0.504563975843636	0.820398437375652
47000000	0.513633689835718	0.814727925367542
47250000	0.522638641895282	0.808953590193982
47500000	0.531596622771386	0.80309442467553
47750000	0.54047538071687	0.797124129985141
48000000	0.549277516214895	0.791075831213975
48250000	0.558032741498911	0.784903195371193
48500000	0.566704944203703	0.778661574052391
48750000	0.57530869118596	0.772306636743506
49000000	0.583822929833608	0.765863058775284
49250000	0.592297050460485	0.759313365572153
49500000	0.600675569681758	0.752695544084426
49750000	0.608987092029614	0.745983364385981
50000000	0.617241076536532	0.739177952910654
50250000	0.625378066902764	0.732272542121886
50500000	0.633478507227443	0.725290242266417
50750000	0.64148061383844	0.718214498859049
51000000	0.649390425334204	0.711049389164428
51250000	0.657251939645411	0.703806228263829
51500000	0.665006405221474	0.696474148977709
51750000	0.672698574005134	0.68906133487914
52000000	0.680290970770781	0.681554835464522
52250000	0.687826947801845	0.673977686949481
52500000	0.695234351368199	0.666297056064409
52750000	0.702593205753823	0.658556621910555
53000000	0.70984521278781	0.650735211524726
53250000	0.717001988308142	0.642817926167284
53500000	0.724100228737219	0.634835156895835
53750000	0.731094682917942	0.626785620573013
54000000	0.737996358609193	0.618660990862594
54250000	0.74479999597226	0.610443973722972
54500000	0.751536583778783	0.602149456510577
54750000	0.758170329109084	0.593804725587988
55000000	0.764697071662942	0.585364759124614
55250000	0.771144057669649	0.576869358813774
55500000	0.777508422176305	0.56829504039783
55750000	0.783757913872398	0.559639365532473
56000000	0.789902741576401	0.550943399322304
56250000	0.795969398833139	0.542158645755567
56500000	0.801944213649053	0.533337591389869
56750000	0.807812713112255	0.524414398870749
57000000	0.813567687049628	0.515443028587356
57250000	0.819241959634954	0.506407848861045
57500000	0.82480195245935	0.497313004083518
57750000	0.830276544820241	0.488160338205793
58000000	0.835644030615499	0.478935351529395
58250000	0.840908197700888	0.469681780388215
58500000	0.846077412929835	0.460344868874135
58750000	0.851129904307964	0.45095725918872
59000000	0.856071894201022	0.441512203388347
59250000	0.860920758364538	0.432027234760421
59500000	0.865686088691004	0.422486237082294
59750000	0.870315800099239	0.412888478031231
60000000	0.874858881853152	0.40324254883784
60250000	0.879275776022264	0.393528467039335
60500000	0.883602093090402	0.383788622522513
60750000	0.887805278287938	0.374002227852976
61000000	0.891914312368653	0.364158644996111
61250000	0.895906230381474	0.354255343654308
61500000	0.899800617698564	0.344331295449518
61750000	0.903569975737977	0.334371390026112
62000000	0.907229618192245	0.324358419590645
62250000	0.910790879027747	0.314313528407074
62500000	0.914221511873149	0.304227077314733
62750000	0.917552548289183	0.294077248921756
63000000	0.920781269529704	0.283920156712766
63250000	0.923903935044774	0.273726558366219
63500000	0.926884051659656	0.263504540121145
63750000	0.929775315081658	0.253236101254294
64000000	0.932538987338437	0.242956302897156
64250000	0.935174823067645	0.232610103823071
64500000	0.937730666460131	0.222265070599954
64750000	0.940176452399105	0.211884419725298
65000000	0.942458992219865	0.201471682454364
65250000	0.944666379762829	0.191036910486241
65500000	0.94675082348337	0.180585285525318
65750000	0.948712052278275	0.170100050884317
66000000	0.95056179130283	0.159593447107363
66250000	0.952300005469855	0.149071797664351
66500000	0.953910612276719	0.138541538788502
66750000	0.955394782454287	0.127981607295878
67000000	0.956793525940734	0.117403881702289
67250000	0.958048155097397	0.106824659367392
67500000	0.95922076860136	9.62158940332085E-02
67750000	0.960242285413789	8.55935626240829E-02
68000000	0.961165268568918	7.49704237895005E-02
68250000	0.961956240956669	6.43375405202704E-02
68500000	0.962644191144553	5.36858118387382E-02
68750000	0.963203750031508	4.30259615990634E-02
69000000	0.963648427776405	3.23537105154055E-02
69250000	0.963978833848526	2.16951216950177E-02
69500000	0.964190193429624	1.10582483778284E-02
69750000	0.964287994685029	3.69936280674716E-04
70000000	0.964257091219133	-1.02830331771414E-02
70250000	0.964115959051434	-2.09547594554383E-02
70500000	0.963858110303458	-3.16193421770148E-02
70750000	0.963473690738732	-4.22946121553324E-02
71000000	0.962969186331186	-5.29549208573831E-02
71250000	0.962354759510942	-6.36157218276905E-02
71500000	0.96163160191154	-7.42718485739269E-02
71750000	0.960774115165595	-8.49032836655616E-02
72000000	0.959794902849779	-9.55167379498803E-02
72250000	0.958709519533022	-0.106147318130694
72500000	0.957503390677435	-0.116756725487803
72750000	0.956195680305836	-0.127350724680184
73000000	0.95474080755764	-0.137943623994742
73250000	0.953203341549048	-0.14850062072919
73500000	0.951537179942782	-0.159044014203445
73750000	0.949712138161061	-0.169574943031696
74000000	0.947808538670922	-0.180072004889182
74250000	0.945783412898036	-0.19057488949395
74500000	0.943661607501699	-0.201033982593092
74750000	0.941400540459124	-0.211469573969021
75000000	0.939031780695325	-0.221900170380065
75250000	0.936531269587668	-0.232284769056414
75500000	0.933936400068721	-0.24266413136011
75750000	0.931206968144648	-0.253007093377003
76000000	0.928387452292846	-0.263313289611134
76250000	0.925443251079586	-0.27356121406891
76500000	0.922364018960072	-0.283821008451154
76750000	0.919201962903625	-0.294011700542562
77000000	0.915901606005496	-0.304198178207558
77250000	0.912512930699418	-0.314344485308019
77500000	0.909003493295091	-0.324425725771951
77750000	0.905371447802383	-0.334510915475616
78000000	0.901626291512477	-0.34451816566858
78250000	0.897775529281141	-0.354500190578219
78500000	0.893817898343759	-0.364433510856201
78750000	0.889744616229609	-0.374334933026857
79000000	0.885557814419335	-0.384181765973387
79250000	0.881265221536859	-0.393992041117612
79500000	0.876877536798533	-0.403727472116138
79750000	0.872372723945481	-0.41345272476126
80000000	0.867726945432926	-0.423108013211307
80250000	0.86301322752233	-0.432707341955743
80500000	0.858186232764058	-0.442266225558605
80750000	0.853261431657078	-0.451767653931112
81000000	0.848208580906203	-0.461216555052522
81250000	0.843057799354879	-0.470600413641086
81500000	0.837798140090848	-0.479937091860809
81750000	0.83244220532717	-0.489209575113283
82000000	0.826988153474568	-0.498442125117013
82250000	0.821412319873106	-0.507578916886265
82500000	0.815748270985641	-0.516677378930162
82750000	0.809977109210503	-0.525704487228386
83000000	0.804127355343828	-0.534685919626054
83250000	0.798130789759645	-0.543592128354541
83500000	0.792066402843489	-0.552425382227551
83750000	0.785901815718747	-0.561209052325529
84000000	0.779639178443417	-0.569900765502256
84250000	0.773263848334574	-0.578528647117661
84500000	0.766812532564937	-0.587090224789659
84750000	0.760252094166828	-0.595566361338672
85000000	0.753603497615742	-0.604005456666136
85250000	0.746870941506446	-0.61234955409783
85500000	0.740029520392284	-0.620610623752151
85750000	0.733085694530853	-0.628814007093794
86000000	0.726063821243077	-0.636924689002163
86250000	0.718952263228192	-0.644964219439214
86500000	0.711733036689138	-0.652951591960075
86750000	0.704444159580913	-0.660806889994677
87000000	0.697064407999444	-0.668591596841274
87250000	0.689602609281244	-0.676316573745101
87500000	0.682033185617518	-0.683962364073326
87750000	0.674386727625681	-0.691514501967076
88000000	0.666684742773877	-0.698958503630594
88250000	0.658865983317463	-0.706354258928956
88500000	0.650974146476002	-0.713635876840046
88750000	0.64298577467071	-0.720837866560462
89000000	0.634942081584127	-0.727989111290956
89250000	0.626784066348604	-0.734977172251069
89500000	0.61859984579326	-0.741915519041811
89750000	0.61027734129255	-0.748767372250609
90000000	0.60192180502172	-0.755528522843991
90250000	0.593440577841709	-0.76217248946856
90500000	0.584929638463325	-0.768743170711196
90750000	0.576358759222625	-0.775207701920815
91000000	0.567682026537385	-0.781593326142201
91250000	0.558951085430047	-0.787881819750359
91500000	0.550122510593955	-0.794059111144285
91750000	0.541252678150908	-0.800131399202715
92000000	0.53229332147338	-0.806114911994305
92250000	0.523278651351153	-0.811995171227726
92500000	0.514179581850334	-0.817774829254182
92750000	0.505046703073188	-0.823467087525348
93000000	0.49582982296352	-0.829043094060449
93250000	0.486553830010748	-0.834512137225219
93500000	0.477223103945233	-0.839910701963945
93750000	0.467811710795365	-0.845154029357104
94000000	0.458350323784009	-0.850309727423926
94250000	0.448830715933708	-0.855382659361102
94500000	0.43924323091276	-0.860335191380774
94750000	0.429611269967438	-0.865189818864935
95000000	0.419936214267853	-0.869914941914998
95250000	0.410179820773175	-0.874529610141013
95500000	0.400388842992153	-0.879056597667807
95750000	0.390546288275639	-0.883475453162671
96000000	0.380664399401824	-0.887760527557855
96250000	0.370707647026881	-0.89195708639074
96500000	0.36071594465683	-0.896031952246321
96750000	0.3506939188044	-0.899985897508672
97000000	0.34061001547198	-0.903853030827456
97250000	0.330474795977124	-0.907579273862584
97500000	0.32031047553909	-0.91121166333321
97750000	0.310106547816186	-0.914726370326965
98000000	0.299832818807413	-0.918132179002323
98250000	0.289540369648985	-0.921393853891917
98500000	0.279220915088471	-0.924559472805338
98750000	0.26885209881558	-0.927610073587655
99000000	0.258466368654233	-0.930545323535464
99250000	0.248030947740362	-0.933371703270842
99500000	0.23756420100922	-0.936068646971324
99750000	0.227068503066941	-0.938634438921598
100000000	0.216542751156071	-0.94111011526549
100250000	0.205987306458834	-0.943462630755058
100500000	0.195398945566972	-0.945677751878998
100750000	0.184781388241475	-0.947772727075066
101000000	0.174159847625758	-0.949771074914053
101250000	0.163509441396731	-0.951637254072435
101500000	0.152828591747061	-0.95338294009355
101750000	0.142140646893631	-0.955011231326559
102000000	0.131414197746287	-0.956524151397702
102250000	0.120676333549718	-0.957924813375071
102500000	0.109939140259757	-0.959173639878445
102750000	9.91632920481532E-02	-0.960319223486536
103000000	8.83949725899345E-02	-0.961344588304098
103250000	7.76114834799832E-02	-0.962249379489518
103500000	6.68014132758702E-02	-0.963006116109542
103750000	5.60078895309126E-02	-0.963673621489856
104000000	4.51869672066727E-02	-0.964228597829985
104250000	3.43567018399084E-02	-0.964608834512769
104500000	2.35397023335317E-02	-0.964921299881386
104750000	1.27014151060996E-02	-0.965096319919515
105000000	1.86511354627205E-03	-0.965130821145105
105250000	-8.97552616330488E-03	-0.965061056014542
105500000	-1.98252195525603E-02	-0.964879049447622
105750000	-3.06441340032691E-02	-0.964542535118087
106000000	-4.14840864068422E-02	-0.964110431265672
106250000	-5.22898529691436E-02	-0.963526252046972
106500000	-6.31169176250613E-02	-0.962862439453127
106750000	-7.39284402796126E-02	-0.96203919289065
107000000	-8.47303089564689E-02	-0.96110922604425
107250000	-9.54968024557376E-02	-0.960056537896679
107500000	-0.106305485312126	-0.958853858418739
107750000	-0.11708104788543	-0.957558528863444
108000000	-0.127816665054694	-0.956171711880184
108250000	-0.138570954279601	-0.954616800047205
108500000	-0.149287495436886	-0.952955735100371
108750000	-0.15999878045116	-0.951175263650508
109000000	-0.170669203338118	-0.949258186322861
109250000	-0.1813552287323	-0.947236422296919
109500000	-0.191981746457543	-0.945100124652081
109750000	-0.202589002494454	-0.942816131542563
110000000	-0.213192419638464	-0.940434044040446
110250000	-0.223747703607731	-0.93792041543177
110500000	-0.234290792182929	-0.935302506324473
110750000	-0.244774561271712	-0.932540978085787
111000000	-0.255247187596363	-0.929679075231478
111250000	-0.26572113784114	-0.926684220105113
111500000	-0.276110040812692	-0.923589012199966
111750000	-0.286500101190795	-0.920370491582638
112000000	-0.296830400937863	-0.917014230292515
112250000	-0.307125522597722	-0.913565538803146
112500000	-0.317382368585938	-0.90999251502009
112750000	-0.327598474079403	-0.906281366065135
113000000	-0.337781748703677	-0.902495346613068
113250000	-0.347912101061522	-0.89856015201516
113500000	-0.358003418423169	-0.894543754064611
113750000	-0.36804598390071	-0.890370100676431
114000000	-0.378047797179431	-0.886124351549485
114250000	-0.388000799950378	-0.881742406440226
114500000	-0.3978912335245	-0.877243765471174
114750000	-0.407747148176763	-0.872646972451963
115000000	-0.417535417155241	-0.867912960612363
115250000	-0.427284650141744	-0.863095106319669
115500000	-0.436982007467272	-0.858151586945411
115750000	-0.446589294155514	-0.85311303469004
116000000	-0.456176806422885	-0.847948123593903
116250000	-0.465697864713827	-0.842686711373788
116500000	-0.475147126100832	-0.837307174262784
116750000	-0.484533234459518	-0.831833493023041
117000000	-0.493859367136084	-0.826225961993492
117250000	-0.503124798230276	-0.820549131198053
117500000	-0.512356101759985	-0.814757620142571
117750000	-0.521454463645495	-0.808835921612611
118000000	-0.530546522744965	-0.802836417887439
118250000	-0.539553159970469	-0.7967437117808
118500000	-0.548471503128645	-0.79052158606367
118750000	-0.557349631035071	-0.784221145741081
119000000	-0.566125477748582	-0.777790010111098
119250000	-0.574834999147267	-0.771296100246608
119500000	-0.583482720870708	-0.764658064382373
119750000	-0.592043615443761	-0.757960072674063
120000000	-0.600556313540373	-0.751140350436698
120250000	-0.608965761872896	-0.744248457785431
120500000	-0.617285156297735	-0.737245328856969
120750000	-0.625531607033002	-0.730142803057971
121000000	-0.633705113330516	-0.722962358852171
121250000	-0.641801327068557	-0.715659823745819
121500000	-0.649801086222681	-0.708300273741815
121750000	-0.657732736574361	-0.700845941879003
122000000	-0.665559321247496	-0.693315752605849
122250000	-0.673300416104442	-0.685626799005353
122500000	-0.680986815700847	-0.677910872733691
122750000	-0.688550877051579	-0.67009682775588
123000000	-0.696030057747791	-0.662190663344463
123250000	-0.70343372425606	-0.654230905945778
123500000	-0.710720471375732	-0.646142828469141
123750000	-0.717944524038116	-0.637986965603807
124000000	-0.725059850888718	-0.629741808301101
124250000	-0.732078528934704	-0.621431515600115
124500000	-0.739013693863244	-0.613056994548573
124750000	-0.745841632360784	-0.604568221267088
125000000	-0.752580559074326	-0.596025439276466
125250000	-0.759214085334791	-0.587381367776751
125500000	-0.765738458084218	-0.578703908023963
125750000	-0.772202300054527	-0.569926622831615
126000000	-0.778524021177935	-0.561066351102569
126250000	-0.78477074898237	-0.552150254307848
126500000	-0.790911000039616	-0.543164751038222
126750000	-0.796927436233961	-0.53410409353868
127000000	-0.802875680390327	-0.52496998199001
127250000	-0.808711378957895	-0.515792494213466
127500000	-0.814424075339103	-0.506519650669947
127750000	-0.820030931221815	-0.497192514967336
128000000	-0.825529067967631	-0.487808469535877
128250000	-0.830919473837866	-0.478366867801831
128500000	-0.836229806549572	-0.468856108920437
128750000	-0.841406938474141	-0.459284650845775
129000000	-0.846476294596512	-0.449655753715383
129250000	-0.851440713148733	-0.439976498349602
129500000	-0.856282567269276	-0.430244192229532
129750000	-0.861030706443596	-0.420447310929094
130000000	-0.865669943149413	-0.41058737014674
130250000	-0.870179358410487	-0.400694846454585
130500000	-0.874585080441746	-0.39075234290708
130750000	-0.878870235332149	-0.380760650600835
131000000	-0.883035886097904	-0.370697204316338
131250000	-0.887099600810197	-0.360601206305783
131500000	-0.891048684133614	-0.350476355737509
131750000	-0.8948887670309	-0.3403036045233
132000000	-0.898603913558875	-0.330077289037633
132250000	-0.902187910193023	-0.31979654347723
132500000	-0.905647038794808	-0.309491695810305
132750000	-0.909015464654787	-0.299138177098049
133000000	-0.912265962301983	-0.28875599622595
133250000	-0.915390667419708	-0.278365619837338
133500000	-0.918404059063428	-0.267900532778576
133750000	-0.921280795250655	-0.257428486016526
134000000	-0.924055236936411	-0.246919300971866
134250000	-0.926686266748168	-0.236360456006466
134500000	-0.929224195810765	-0.225787866015991
134750000	-0.931620748440796	-0.21518845484045
135000000	-0.933902555005609	-0.204560356103051
135250000	-0.936050300498515	-0.193905401034655
135500000	-0.938113953450982	-0.18322162205013
135750000	-0.940018087245514	-0.172535232696056
136000000	-0.941798185103358	-0.161821699418027
136250000	-0.943504859816165	-0.151065116228992
136500000	-0.945048941903755	-0.140318483108224
136750000	-0.94648292034295	-0.129558928733299
137000000	-0.947754452229659	-0.118775111899194
137250000	-0.948952186360039	-0.107978797586202
137500000	-0.950016883691158	-9.71782410014097E-02
137750000	-0.950945557977251	-8.63267292829147E-02
138000000	-0.9517451338417	-7.55193386874395E-02
138250000	-0.952464943733542	-6.46924706428266E-02
138500000	-0.953015112904169	-5.38388371786702E-02
138750000	-0.95345706224909	-4.30002492613164E-02
139000000	-0.953762177034205	-3.21544288107216E-02
139250000	-0.953963137674981	-2.12997241696085E-02
139500000	-0.954028603593183	-1.04243134820933E-02
139750000	-0.953966262053708	4.27667592556011E-04
140000000	-0.953817062217139	1.12681189060537E-02
140250000	-0.953516570689106	0.022114378968742
140500000	-0.953073950154822	3.29466957673005E-02
140750000	-0.952539070679097	0.043787621590014
141000000	-0.951859587416206	5.46110838868705E-02
141250000	-0.951082614284701	6.54257515144312E-02
141500000	-0.950157989980306	7.62260772367063E-02
141750000	-0.949113879181274	8.70162821584371E-02
142000000	-0.947958170099072	9.78108360292868E-02
142250000	-0.946695332168928	0.108572732160993
142500000	-0.945275506677758	0.119311094706709
142750000	-0.943747298367566	0.130032185200115
143000000	-0.942072564416995	0.140753949199401
143250000	-0.940306976405541	0.151456480388687
143500000	-0.938425786846488	0.16213706174326
143750000	-0.936420553884385	0.17276757297685
144000000	-0.934276980750101	0.183387714797931
144250000	-0.932007694019581	0.194001631161295
144500000	-0.929638808726978	0.204541563038304
