# Hz S RI R 50
40000000	-0.637171800853884	-0.751901521971537
40250000	-0.647757513119257	-0.74251400098462
40500000	-0.658215701616498	-0.732990585106541
40750000	-0.668521544967739	-0.723301562275993
41000000	-0.67870631531827	-0.713474997048158
41250000	-0.688722100385965	-0.703509149925394
41500000	-0.698598650503786	-0.6933930826457
41750000	-0.708349291201111	-0.683139856822589
42000000	-0.717909951215117	-0.672751049411393
42250000	-0.727348371864739	-0.662236064681596
42500000	-0.736621695737059	-0.651547640349286
42750000	-0.745735090724431	-0.640777287873767
43000000	-0.754706024611557	-0.629860929016192
43250000	-0.763495574697377	-0.618811539741897
43500000	-0.772126054134183	-0.607648666205537
43750000	-0.780604709202972	-0.596352462040379
44000000	-0.788919960194428	-0.584945467278327
44250000	-0.797053827703069	-0.573432552098416
44500000	-0.8050379851014	-0.561790230637591
44750000	-0.812843351958171	-0.550036385052181
45000000	-0.820474224860559	-0.538184011619997
45250000	-0.827919752528079	-0.526216546888635
45500000	-0.83521206321327	-0.514156372398595
45750000	-0.842324113692048	-0.501972176175131
46000000	-0.849236540164708	-0.489702039676756
46250000	-0.855997520067099	-0.477364739117175
46500000	-0.86256308909774	-0.464891389032039
46750000	-0.868949710352143	-0.452339500798341
47000000	-0.875151066980304	-0.439708056003439
47250000	-0.881166926957719	-0.426979231795411
47500000	-0.887015475990745	-0.414179881257235
47750000	-0.892669219509151	-0.40129888644288
48000000	-0.898124935718319	-0.38834103163608
48250000	-0.903396035862081	-0.375304317846986
48500000	-0.908476995329103	-0.362205827432973
48750000	-0.913378093635588	-0.349029665182143
49000000	-0.918073257455086	-0.335780904193383
49250000	-0.922589812962671	-0.32248661426129
49500000	-0.926914158347293	-0.309120898255588
49750000	-0.931031525196053	-0.295700263153861
50000000	-0.934957639931469	-0.282223865229877
50250000	-0.938680233933864	-0.268699103321164
50500000	-0.942227252946312	-0.255125887576828
50750000	-0.945571294311776	-0.241502837521474
51000000	-0.948709865046941	-0.227845049718996
51250000	-0.95166369500689	-0.214140283692882
51500000	-0.954401390507988	-0.200391902393405
51750000	-0.956959214547762	-0.186627742725712
52000000	-0.959303892771525	-0.172818388960059
52250000	-0.961466858322715	-0.158976948083243
52500000	-0.963411060387979	-0.145128153324033
52750000	-0.965147158468151	-0.131253108629044
53000000	-0.966698556661469	-0.117347469608029
53250000	-0.968041708012475	-0.103414241274855
53500000	-0.969217003103939	-8.94973532428061E-02
53750000	-0.970173457836005	-7.55578548621227E-02
54000000	-0.970920486772893	-6.16017336387802E-02
54250000	-0.971465104737228	-4.76435635685429E-02
54500000	-0.971799338331082	-3.36799345889493E-02
54750000	-0.971949679331377	-1.97314128714427E-02
55000000	-0.971903345002291	-5.76673701528623E-03
55250000	-0.971659187745895	8.18373871333907E-03
55500000	-0.971211706190319	2.21052550890388E-02
55750000	-0.970561481497118	3.60278087155477E-02
56000000	-0.96970650050488	4.99425561941792E-02
56250000	-0.968656630932397	6.38517814526266E-02
56500000	-0.967415420281892	7.77078080656981E-02
56750000	-0.965962241919943	9.15604376222818E-02
57000000	-0.964317155877928	0.105382721354822
57250000	-0.962460935404578	0.11917241976405
57500000	-0.960430503942115	0.132922158804467
57750000	-0.958190220069619	0.146636163687504
58000000	-0.955769811077255	0.160330458663417
58250000	-0.953141984127877	0.173973559762572
58500000	-0.950350621789974	0.187574853795152
58750000	-0.947330178060397	0.201127626113295
59000000	-0.944124829884138	0.214640045402338
59250000	-0.940723756890367	0.228091335526868
59500000	-0.937146382515179	0.241477369190142
59750000	-0.933369769634447	0.254824874104742
60000000	-0.9294117487897	0.268096721058524
60250000	-0.925251390105522	0.281306403551129
60500000	-0.920916047525198	0.294484588149416
60750000	-0.916386408403047	0.307573449484523
61000000	-0.911675208090119	0.320591695425364
61250000	-0.906811647074284	0.33352599685314
61500000	-0.901723993546609	0.346398995879803
61750000	-0.89645829368893	0.359170647724171
62000000	-0.891030208184862	0.37188112017686
62250000	-0.885400981317348	0.38449956566695
62500000	-0.879628355314758	0.397055818662342
62750000	-0.873657980029233	0.409476945658809
63000000	-0.867519200673179	0.421851397231394
63250000	-0.861204408094346	0.434112895257323
63500000	-0.854707605538184	0.446276439573764
63750000	-0.848056980175625	0.45834226413564
64000000	-0.841227720585646	0.470327398769198
64250000	-0.834233041967664	0.482206919900316
64500000	-0.827082718531679	0.493948456325117
64750000	-0.819778944301	0.505613998336961
65000000	-0.812287707282616	0.517158869755122
65250000	-0.804625336658432	0.528591998814049
65500000	-0.796827144611454	0.539927869757078
65750000	-0.788870864798524	0.551112640202312
66000000	-0.780747639225627	0.562196768293738
66250000	-0.772502202668755	0.573150566782523
66500000	-0.764081638784014	0.58402320535077
66750000	-0.755495584991309	0.59472681483857
67000000	-0.746774379595741	0.605326826697165
67250000	-0.737928848544161	0.615791943399079
67500000	-0.728919088253234	0.62612696898391
67750000	-0.719743694708192	0.636322744500114
68000000	-0.710475164888153	0.646370667454997
68250000	-0.701050182107992	0.656293541080644
68500000	-0.691472485514318	0.666091464137746
68750000	-0.681769140479492	0.675760892431924
69000000	-0.671948892177335	0.685277140467587
69250000	-0.661977512403548	0.694605989161345
69500000	-0.651905651827033	0.70383113958715
69750000	-0.64168309696205	0.712917159787023
70000000	-0.631341034901308	0.721833254583693
70250000	-0.620882472007123	0.730609337309317
70500000	-0.610313282461354	0.739233716538686
70750000	-0.599621882826313	0.747707612168471
71000000	-0.588799068839726	0.756003776763773
71250000	-0.577879164777195	0.764170813148583
71500000	-0.566858021311831	0.772157479088552
71750000	-0.555723164526139	0.779987853210056
72000000	-0.544479878345872	0.787678795967476
72250000	-0.533131516745676	0.795186225496353
72500000	-0.521668812864487	0.802536943286458
72750000	-0.510138652950869	0.809731203088666
73000000	-0.49847839237051	0.816733540097644
73250000	-0.486746671808761	0.823589839113213
73500000	-0.47493214680095	0.830275160042189
73750000	-0.463022183990743	0.83678578758126
74000000	-0.451034753657011	0.843125459890555
74250000	-0.438926122764336	0.849280151857966
74500000	-0.426773533781649	0.855296840188201
74750000	-0.414528114969911	0.861103477955472
75000000	-0.40217946549071	0.866754088161149
75250000	-0.38979092218583	0.87223066115078
75500000	-0.377336207184156	0.877519947396041
75750000	-0.364786584809798	0.88264761469056
76000000	-0.352216594934328	0.887572999219373
76250000	-0.339540206906512	0.892334178263675
76500000	-0.326808346964698	0.896911012315702
76750000	-0.314033095859647	0.901301570289486
77000000	-0.301189714606245	0.905534230771238
77250000	-0.288306673293184	0.909565087484503
77500000	-0.27534089544591	0.91340255493856
77750000	-0.262348115158569	0.917081352664055
78000000	-0.249324238571237	0.920562574406303
78250000	-0.236234042591687	0.923860742228602
78500000	-0.223101818955032	0.926980620482611
78750000	-0.20995869802846	0.929897892018299
79000000	-0.196764126046759	0.932657069306225
79250000	-0.183531153747134	0.935188482779541
79500000	-0.170279325713297	0.937568928166399
79750000	-0.157006567814973	0.939743647792846
80000000	-0.143684419886654	0.941739520175439
80250000	-0.130359371699434	0.943556230482828
80500000	-0.117004566781686	0.945175098479845
80750000	-0.103631855199302	0.946621675260166
81000000	-9.02403340631119E-02	0.947828851374401
81250000	-7.68785069178937E-02	0.948889760155293
81500000	-6.34644499256875E-02	0.949777836555669
81750000	-5.00745972653805E-02	0.950460840644901
82000000	-3.66575653201912E-02	0.950964980492317
82250000	-2.32375912760984E-02	0.951253040614615
82500000	-9.81935134672204E-03	0.95137984160179
82750000	3.58335240736347E-03	0.951307752282609
83000000	1.69883558645366E-02	0.951069381076289
83250000	3.03811443228126E-02	0.950602768389167
83500000	4.37709541558325E-02	0.949966837986747
83750000	5.71258673552038E-02	0.949142596380112
84000000	7.04639952962948E-02	0.948140361240896
84250000	8.38200900937141E-02	0.946957165791704
84500000	9.71158310199147E-02	0.945585224914705
84750000	0.11039409291232	0.944016577450616
85000000	0.123648421685418	0.942288840977726
85250000	0.136883996370407	0.940344185434205
85500000	0.150064094601321	0.938234312044442
85750000	0.163234559309101	0.935948984570609
86000000	0.176336338776284	0.933459506452109
86250000	0.189443372160605	0.930786109325571
86500000	0.202482198303442	0.927958638920166
86750000	0.215468745057337	0.924909772392067
87000000	0.228389804488274	0.921711021965883
87250000	0.241305291587591	0.918335096864364
87500000	0.254173301193792	0.914768410217255
87750000	0.266946979771933	0.91102401522458
88000000	0.279694160919208	0.907106890229986
88250000	0.292360686490393	0.903023634416738
88500000	0.304976353963655	0.898761998526479
88750000	0.317541604684521	0.894315164176952
89000000	0.330017947429228	0.889704772774622
89250000	0.342450824649703	0.884916714785707
89500000	0.354772184802257	0.879964462191241
89750000	0.367051641849936	0.874833589881551
90000000	0.379238960658502	0.869518396691854
90250000	0.391391249203388	0.8640646516299
90500000	0.4034083799228	0.858441011556394
90750000	0.415369639208006	0.852632910296194
91000000	0.427225995639486	0.84667041125299
91250000	0.439027490353497	0.840553414537804
91500000	0.450717621979977	0.834278520264741
91750000	0.462303682159531	0.827825837600131
92000000	0.473820458848135	0.82121328817072
92250000	0.485232471634569	0.814453490458138
92500000	0.496560924102049	0.807530387113174
92750000	0.507765652164756	0.800468834509616
93000000	0.518901381191303	0.793242261837594
93250000	0.529900124007298	0.785849683645126
93500000	0.540791359361374	0.778338345568996
93750000	0.551605642296643	0.770634510713413
94000000	0.562288329178326	0.762819987618659
94250000	0.572872477764061	0.75484217173896
94500000	0.583326510610194	0.746731925143339
94750000	0.593671960829524	0.738474125031494
95000000	0.603892406587025	0.730061508605346
95250000	0.614023171112396	0.721508563280798
95500000	0.624003389357419	0.712842875388597
95750000	0.63386178131885	0.704019869668691
96000000	0.64360240283459	0.695072086647993
96250000	0.653214314567598	0.685999762402369
96500000	0.662718943938869	0.67678662291675
96750000	0.672042325103562	0.667442827461415
97000000	0.681269736763204	0.657973124826738
97250000	0.690358499278098	0.648370313314994
97500000	0.699309350247278	0.638657290247409
97750000	0.708114745276446	0.628810489364695
98000000	0.716800199053428	0.618850622299238
98250000	0.725338728432461	0.60878006590949
98500000	0.733728344522619	0.598576568375864
98750000	0.741993513786173	0.588271214908525
99000000	0.750084944399503	0.577852758754162
99250000	0.758052126084503	0.567328197824855
99500000	0.765856573225301	0.556696024671717
99750000	0.773534902764711	0.545946199042523
100000000	0.781028633729396	0.535103821161989
100250000	0.788391859396554	0.524144828743527
100500000	0.795596398146319	0.513095132852306
100750000	0.802659472757467	0.501946725504052
101000000	0.809532282927351	0.490714150517722
101250000	0.816287943018576	0.479370188883828
101500000	0.822863645869454	0.467941267409451
101750000	0.829281562592134	0.456422448267081
102000000	0.835550730487727	0.444834274159532
102250000	0.841629269115383	0.433136983751097
102500000	0.847569394783216	0.421386789547293
102750000	0.853336050288839	0.409521956303042
103000000	0.858965022887797	0.397600130092141
103250000	0.864374538847497	0.385627782278405
103500000	0.869657874290459	0.373536311450638
103750000	0.874740089046927	0.3613803281009
104000000	0.879677702156481	0.349159658718571
104250000	0.884438562393391	0.336881303676654
104500000	0.889034789495345	0.324553326763151
104750000	0.893445817383005	0.312158115796791
105000000	0.89769316344094	0.299667431986655
105250000	0.901751889289531	0.287166367585391
105500000	0.905669323851753	0.274576909332384
105750000	0.909384724440502	0.261950344764581
106000000	0.912941467373727	0.249265288837424
106250000	0.91630334377563	0.236557164721528
106500000	0.919492709239459	0.223776346101169
106750000	0.922520972192159	0.210979248050028
107000000	0.925356511578277	0.198118181513108
107250000	0.928004457348607	0.185227306892296
107500000	0.930495473609158	0.172283816392746
107750000	0.932776970147029	0.159335053256102
108000000	0.934915346842876	0.146356242132199
108250000	0.936857235524061	0.133340797446529
108500000	0.938609423314951	0.120301672554714
108750000	0.94019274587077	0.107244107165687
109000000	0.941579872244347	9.41476983212274E-02
109250000	0.942794018386601	8.10283222952518E-02
109500000	0.943842805815055	6.79220020523734E-02
109750000	0.944686428992384	5.48044892755094E-02
110000000	0.945364594168778	0.041640338818046
110250000	0.945827948165458	2.85080607936385E-02
110500000	0.946144838951505	0.015355525600447
110750000	0.946240901385084	2.18595816319586E-03
111000000	0.946196339522792	-1.09753192313415E-02
111250000	0.945959728684029	-2.41211075414322E-02
111500000	0.945517564550254	-3.72759769965791E-02
111750000	0.944916880393634	-5.04212422592867E-02
112000000	0.944110892337389	-6.35641153595512E-02
112250000	0.943143783712461	-7.66799057437877E-02
112500000	0.941988115860369	-8.97879737437681E-02
112750000	0.940627445366526	-0.10290613948427
113000000	0.939122376921392	-0.115959520539082
113250000	0.937413663871573	-0.129020669172762
113500000	0.935542653095789	-0.142032600706663
113750000	0.93346190882994	-0.15502502436118
114000000	0.931222207144125	-0.16800291338899
114250000	0.92880040941166	-0.180943773620332
114500000	0.926207342992723	-0.193861843389581
114750000	0.923404636867032	-0.206711142431091
115000000	0.920431368042778	-0.219549659399403
115250000	0.917304011223422	-0.232325990951163
115500000	0.913983584205754	-0.245064867597454
115750000	0.910481891003387	-0.257755239175491
116000000	0.906803697676551	-0.270397846279219
116250000	0.902973261980438	-0.282992993911658
116500000	0.898926010408594	-0.295540210864302
116750000	0.894718133004859	-0.308017148707143
117000000	0.890364600477481	-0.320443228042634
117250000	0.885803828546511	-0.332798751504035
117500000	0.881111604963835	-0.345123809090686
117750000	0.8761941555441	-0.357344731259898
118000000	0.871141213379623	-0.369506802869142
118250000	0.865916714505833	-0.381602524545331
118500000	0.860512482749473	-0.393621687319363
118750000	0.854959900397433	-0.405554813122807
119000000	0.849231503515923	-0.417442295116997
119250000	0.843326789562253	-0.42922137843908
119500000	0.837264655344116	-0.440926572871441
119750000	0.831033878296014	-0.452543608117151
120000000	0.824655544511039	-0.464088490440564
120250000	0.818116863760251	-0.475523580710031
120500000	0.811390886875756	-0.486887761104171
120750000	0.804500305584905	-0.498132660452097
121000000	0.797496256796635	-0.509302047469169
121250000	0.790309025346604	-0.520380874489174
121500000	0.782968654358632	-0.531330270022048
121750000	0.775497136080357	-0.542191504090189
122000000	0.767862256459942	-0.552936886735532
122250000	0.760059851691659	-0.56358134163809
122500000	0.752131398668305	-0.574152020137472
122750000	0.744048557868637	-0.584573552969829
123000000	0.73581849814542	-0.594890007496744
123250000	0.727437395439815	-0.605087537589976
123500000	0.718894802643696	-0.615190447016419
123750000	0.710253540201635	-0.625140396615395
124000000	0.701426326235636	-0.635017192481083
124250000	0.692490574452355	-0.644707053669104
124500000	0.683426586791571	-0.654323720998627
124750000	0.674208533033184	-0.663797210121749
125000000	0.664880027123262	-0.673136553255335
125250000	0.655418102969594	-0.682341300840492
125500000	0.645782096633249	-0.691406883101949
125750000	0.63607332308187	-0.700388913859082
126000000	0.626199677956828	-0.709180850927955
126250000	0.616220098990895	-0.717851794784008
126500000	0.606128429278204	-0.726390630489385
126750000	0.595891682117553	-0.734762475468602
127000000	0.585536005768621	-0.743027221564251
127250000	0.575114960593992	-0.751115127760507
127500000	0.564520503935103	-0.75909216924092
127750000	0.553844677764308	-0.766866957669835
128000000	0.543042042077112	-0.774532263735556
128250000	0.532143384430221	-0.782050049135191
128500000	0.521133283573544	-0.789402633491832
128750000	0.510030487326364	-0.796584489896324
129000000	0.498819074796497	-0.803636352260141
129250000	0.487504166912995	-0.810518673956272
129500000	0.476074266128285	-0.817245098841172
129750000	0.464577703944808	-0.823815722316161
130000000	0.452995852752346	-0.830224324709601
130250000	0.441294020881727	-0.836472094823305
130500000	0.429537331774848	-0.842538057763603
130750000	0.41766213209783	-0.848453918641207
131000000	0.405707227859831	-0.854198509301547
131250000	0.393690449616973	-0.859788273103323
131500000	0.38159905958669	-0.865191413824078
131750000	0.369419593637448	-0.870439963520313
132000000	0.357159732984264	-0.875499884735424
132250000	0.344811066631897	-0.880397375956881
132500000	0.332408064566563	-0.885113699765137
132750000	0.31993660779403	-0.889668170304192
133000000	0.307423384311556	-0.894040380873244
133250000	0.294821286481232	-0.898239317066341
133500000	0.282159675531006	-0.902253398664416
133750000	0.269452739837645	-0.90606305902117
134000000	0.256680629743722	-0.909747917654773
134250000	0.243851985669069	-0.913216157751238
134500000	0.230998702534581	-0.916508893275943
134750000	0.218086334800487	-0.919622559552928
135000000	0.205133268285394	-0.922575682984379
135250000	0.192122265825107	-0.925317103271306
135500000	0.179082314460899	-0.927883454519723
135750000	0.165987422035894	-0.930260375984968
136000000	0.152886127111405	-0.932455107738118
136250000	0.139735552836891	-0.934482439794522
136500000	0.126567813881607	-0.936314417211931
136750000	0.113363973188035	-0.937922859887032
137000000	0.100124717445012	-0.939384097772084
137250000	8.69021183179524E-02	-0.940669625048585
137500000	7.36533554590438E-02	-0.941729906751371
137750000	6.03556490226406E-02	-0.942631602180292
138000000	4.70524508423618E-02	-0.943318716834268
138250000	3.37596070698573E-02	-0.943834975330109
138500000	2.04426541469332E-02	-0.944161515951162
138750000	7.13624031593567E-03	-0.944294311126238
139000000	-6.18720907218892E-03	-0.944243811696844
139250000	-1.94853598708892E-02	-0.94401875578705
139500000	-3.28201475374762E-02	-0.943580021581966
139750000	-4.61466538708728E-02	-0.942961068093044
140000000	-5.94205336453316E-02	-0.942145595474392
140250000	-0.072727587322742	-0.94115549701066
140500000	-8.60038382263717E-02	-0.939965643420049
140750000	-9.92629316785715E-02	-0.938600850424273
141000000	-0.112518205234323	-0.937022746621575
141250000	-0.125736262571711	-0.935287336226108
141500000	-0.138908921159436	-0.933328148979546
141750000	-0.152089930143653	-0.931211043381147
142000000	-0.165229493839333	-0.928892133802268
142250000	-0.178338609223644	-0.926405278761832
142500000	-0.191407593423439	-0.923695676153471
142750000	-0.20444304683127	-0.92082452493876
143000000	-0.217447678169632	-0.917771254961745
143250000	-0.230404176777268	-0.914514044988661
143500000	-0.243297056846201	-0.911110398277218
143750000	-0.256141866081657	-0.907508473008317
144000000	-0.268959052684882	-0.903700612412346
144250000	-0.281720490186359	-0.899717448190834
144500000	-0.294410169122942	-0.895570149658765
144750000	-0.307039576597429	-0.891217669198474
