# Hz S RI R 50
40000000	0.638574110242098	0.708502070354085
40250000	0.648471054293683	0.699451648880119
40500000	0.658224866035355	0.690273972417785
40750000	0.667851870282545	0.680936479074321
41000000	0.677341784893627	0.671479809344653
41250000	0.686705313175029	0.661890571481794
41500000	0.695923221347261	0.652171176752598
41750000	0.705000773346546	0.642329936279665
42000000	0.713958379903435	0.632366270834106
42250000	0.722744458854138	0.622266758491932
42500000	0.731443256341465	0.612058276061265
42750000	0.739952434215974	0.601721356174495
43000000	0.748326190449216	0.591273951044916
43250000	0.756534059514606	0.580713392217345
43500000	0.764632444276544	0.57002440953939
43750000	0.772547735271539	0.559252540063668
44000000	0.780338994495181	0.548347825669291
44250000	0.787947183345256	0.537345725535782
44500000	0.795412790989574	0.526256913993427
44750000	0.802722417031861	0.515039086008189
45000000	0.809882161915738	0.503708845994902
45250000	0.816871980355403	0.492302740152401
45500000	0.823699237524183	0.480804031627531
45750000	0.830371749434595	0.469218435661686
46000000	0.836879219373379	0.457515248882602
46250000	0.84323848648014	0.445736594561188
46500000	0.849408322353213	0.433867109838091
46750000	0.855413657839984	0.421935861915495
47000000	0.86127008569148	0.40989292602013
47250000	0.866939736526847	0.397774824857567
47500000	0.872470134145284	0.385583940419536
47750000	0.877780483516225	0.373316007262313
48000000	0.882955470608978	0.360990695669344
48250000	0.887937281105647	0.348577651973675
48500000	0.892760034549669	0.336098519441293
48750000	0.897389208298637	0.32355642508089
49000000	0.901856917486958	0.310960218844601
49250000	0.906133678343188	0.298266346870486
49500000	0.910264627428435	0.285554740758521
49750000	0.914195474795194	0.272778961029336
50000000	0.917951852385092	0.259942500318231
50250000	0.921513970364521	0.247037204584361
50500000	0.924928388986267	0.234113398047924
50750000	0.928124222412923	0.2211305723582
51000000	0.93114830723031	0.20809863485975
51250000	0.934001373124239	0.195026148064247
51500000	0.936677126499382	0.181917218430487
51750000	0.939161695909981	0.168778951244773
52000000	0.941446165893549	0.155597545359777
52250000	0.943577082436394	0.142389028575073
52500000	0.945483823976924	0.129164764138271
52750000	0.947239698760455	0.115888669551409
53000000	0.948789010351291	0.102593847391867
53250000	0.95015967640268	8.92958153572317E-02
53500000	0.95133915937931	7.59589139027196E-02
53750000	0.95234832203288	6.26337559589243E-02
54000000	0.953173631761136	4.92776242813902E-02
54250000	0.953793958108839	3.59134068337614E-02
54500000	0.954226026242547	2.25151392398797E-02
54750000	0.954483939654064	9.15756427174997E-03
55000000	0.954535131623999	-4.2365710211804E-03
55250000	0.954399796963466	-1.76312789970144E-02
55500000	0.954089404581283	-3.10145926173398E-02
55750000	0.95357887726072	-4.43889443760192E-02
56000000	0.952900702251608	-5.77537118434002E-02
56250000	0.952014984820208	-0.071109239304387
56500000	0.950979490915666	-8.44650311113323E-02
56750000	0.94970729609503	-9.77939268136399E-02
57000000	0.948263401724642	-0.111108015442073
57250000	0.9466509921645	-0.124397587041907
57500000	0.944827065000956	-0.137674026673376
57750000	0.94282458064951	-0.150924496490705
58000000	0.940649685226767	-0.164149143690071
58250000	0.938288858750735	-0.177319193753031
58500000	0.935720224613296	-0.190481594799682
58750000	0.932977316166105	-0.203603426758192
59000000	0.930048660882782	-0.216660227460378
59250000	0.926950779342825	-0.229702618901212
59500000	0.923660354706706	-0.242710943288156
59750000	0.920201572305708	-0.255650533960875
60000000	0.916533618806054	-0.268558814630403
60250000	0.91268124906864	-0.281415116418587
60500000	0.908681628372327	-0.294189941929751
60750000	0.90448626362382	-0.306938914798609
61000000	0.900109399231845	-0.319599429568543
61250000	0.895530558910741	-0.332239152008718
61500000	0.890811985434633	-0.344803813416471
61750000	0.885920366443779	-0.357278963331624
62000000	0.880821583604059	-0.369688979896
62250000	0.87556548356603	-0.382048322408031
62500000	0.870128029962684	-0.394306753359811
62750000	0.864503555593857	-0.406509821941762
63000000	0.858731672867565	-0.418621001493812
63250000	0.852794647965912	-0.430668840609773
63500000	0.846679285943314	-0.44263191177438
63750000	0.840363074542444	-0.454489943873686
64000000	0.833919849744227	-0.466274695798969
64250000	0.827276896155809	-0.477957298412938
64500000	0.820501105381474	-0.48955667515832
64750000	0.813555289140146	-0.501053384123519
65000000	0.806430996921594	-0.512441482001222
65250000	0.799149367134488	-0.523755672003782
65500000	0.791721643082923	-0.534945586654243
65750000	0.784114959449546	-0.546043400129249
66000000	0.776366632714359	-0.557047329289193
66250000	0.768449883822739	-0.567912145051314
66500000	0.760407875627296	-0.578689177082874
66750000	0.752188659089451	-0.589330468444507
67000000	0.743817448822965	-0.599863740069386
67250000	0.735296125673688	-0.610286433923951
67500000	0.726642755462528	-0.620616054486894
67750000	0.71780163006472	-0.630779768004717
68000000	0.708859272854442	-0.640846143080297
68250000	0.699759077675766	-0.650754135993355
68500000	0.690533426800957	-0.660564874135544
68750000	0.68115162457172	-0.670234368644407
69000000	0.671624866628094	-0.679766705317773
69250000	0.661969373519969	-0.689174519008352
69500000	0.652198611013223	-0.698429494582693
69750000	0.642271432451921	-0.707557565306936
70000000	0.632246999825154	-0.716544776118656
70250000	0.622075898670432	-0.725392800621331
70500000	0.611784357401041	-0.734091122667937
70750000	0.601353172720846	-0.7426571586374
71000000	0.590776763443171	-0.751076194512203
71250000	0.580137020239896	-0.75932190680522
71500000	0.569344438412096	-0.767424050739511
71750000	0.558433501404256	-0.775389076867664
72000000	0.547436852898557	-0.783186722785379
72250000	0.536321139765148	-0.790838152844039
72500000	0.525064722278774	-0.798305569525299
72750000	0.513753930257601	-0.805657480726681
73000000	0.502275253802789	-0.812813012139455
73250000	0.490735771936396	-0.819828748861369
73500000	0.479104264980094	-0.826687936793944
73750000	0.467343579207759	-0.833338840562601
74000000	0.455532057279101	-0.8398305443401
74250000	0.443575633002229	-0.846182737136414
74500000	0.431557054791905	-0.852358399155391
74750000	0.419464103581128	-0.858352513166416
75000000	0.407236145898397	-0.864205417213734
75250000	0.394963292184747	-0.869859453508126
75500000	0.382581040446736	-0.875327148685141
75750000	0.370132044509538	-0.880638064875178
76000000	0.357620700593121	-0.885752426109225
76250000	0.345028379679494	-0.890710437681854
76500000	0.332368743338759	-0.895468411609492
76750000	0.319617636969885	-0.900056373201225
77000000	0.306811327449664	-0.90444649307185
77250000	0.293963921851792	-0.908689436201416
77500000	0.281051643308319	-0.912737858322592
77750000	0.268054515480734	-0.916586446359959
78000000	0.255027833077179	-0.920255881149559
78250000	0.241950703895853	-0.923760095576362
78500000	0.228791181339036	-0.927051268721929
78750000	0.215600910838249	-0.930172511438742
79000000	0.202372135159471	-0.93309455001424
79250000	0.189101978493447	-0.935831416791257
79500000	0.175795686374866	-0.938386843095112
79750000	0.162446648743124	-0.940734136459408
80000000	0.149042495556241	-0.94289589402898
80250000	0.135638865400666	-0.944865792165552
80500000	0.122186245253613	-0.94663470930659
80750000	0.108727530851572	-0.948230083014086
81000000	9.52139577055295E-02	-0.949629092912038
81250000	8.17047156129998E-02	-0.950840997123863
81500000	6.81759694927185E-02	-0.951850300848477
81750000	5.46261376215304E-02	-0.952660514526158
82000000	4.10641431704796E-02	-0.953278898559019
82250000	2.75063789651182E-02	-0.953699029047396
82500000	1.39239625663374E-02	-0.953956750259138
82750000	3.61951931047464E-04	-0.953979292141737
83000000	-1.32364825790531E-02	-0.953843580857706
83250000	-2.68051300877756E-02	-0.953475019730093
83500000	-4.03757502134843E-02	-0.9529323680251
83750000	-5.39607129185846E-02	-0.952195867553085
84000000	-6.75026557972048E-02	-0.951263370440798
84250000	-8.10319352629928E-02	-0.950133531325918
84500000	-9.45396340198745E-02	-0.948806256858098
84750000	-0.108047253910268	-0.947273782310948
85000000	-0.121542882963806	-0.945584300287047
85250000	-0.135001204680423	-0.943698729614414
85500000	-0.148421366126246	-0.941593985903994
85750000	-0.16182246060952	-0.939304281767051
86000000	-0.175217332209251	-0.936823435811773
86250000	-0.188551654327362	-0.934152125901679
86500000	-0.20183322447898	-0.931273451699774
86750000	-0.215084265218407	-0.928236885090256
87000000	-0.228280133332783	-0.924984140028732
87250000	-0.241460644830461	-0.921553095796974
87500000	-0.254559106194624	-0.917914699298041
87750000	-0.267627924301111	-0.914086488054168
88000000	-0.280622021303391	-0.910098502472422
88250000	-0.293568427827019	-0.90592966598268
88500000	-0.306463036335661	-0.901540761147812
88750000	-0.319271790370979	-0.896988452449008
89000000	-0.332032726358043	-0.89224116139983
89250000	-0.344709829164521	-0.887313983560618
89500000	-0.357324747160827	-0.882218113874322
89750000	-0.369859350524609	-0.876923489546
90000000	-0.382332573390929	-0.871462149869178
90250000	-0.394718541616181	-0.865795476411799
90500000	-0.407011842029158	-0.859973545171029
90750000	-0.419236616653584	-0.85398078860108
91000000	-0.431364509712497	-0.847804574761566
91250000	-0.443408517712989	-0.841439785188397
91500000	-0.455366831942608	-0.834926847746641
91750000	-0.467218357520747	-0.828227268674438
92000000	-0.478979589722439	-0.821354194425063
92250000	-0.490619854553529	-0.814322388049064
92500000	-0.50217744409214	-0.807117998596722
92750000	-0.513625420436828	-0.799735268117812
93000000	-0.524974998491215	-0.79221047126098
93250000	-0.536210815636665	-0.784498380630783
93500000	-0.547347651523386	-0.776664537262526
93750000	-0.558346708860765	-0.768628780796892
94000000	-0.569221023859803	-0.76046263366626
94250000	-0.58000988767234	-0.752135121267022
94500000	-0.590653371862041	-0.743634941056736
94750000	-0.601174576890985	-0.735013327285162
95000000	-0.611582288128684	-0.726207087907322
95250000	-0.621864726807112	-0.717277475509483
95500000	-0.632007407767038	-0.708181343805677
95750000	-0.642025404178053	-0.698965987956174
96000000	-0.65189202341253	-0.689595496237135
96250000	-0.661621742660043	-0.680061369259703
96500000	-0.671228112764034	-0.670408702099154
96750000	-0.680683570272634	-0.660634387064348
97000000	-0.690022445007143	-0.650705805200705
97250000	-0.699191468098074	-0.640625960216016
97500000	-0.708220532210804	-0.630446658638448
97750000	-0.717103139103377	-0.620132064161847
98000000	-0.725830110737476	-0.609691759830901
98250000	-0.734411053815963	-0.599105401376098
98500000	-0.742845591875144	-0.588421869110129
98750000	-0.751096639539878	-0.577602908327766
99000000	-0.759217097555036	-0.566685582944828
99250000	-0.767179486356992	-0.555629612763096
99500000	-0.774959107560035	-0.544475900141622
99750000	-0.782595357331807	-0.533221941645509
100000000	-0.790052955267202	-0.521839213065446
100250000	-0.797362026086272	-0.510342643173553
100500000	-0.804495998055711	-0.498772702982345
100750000	-0.811450739593119	-0.487085916314864
101000000	-0.818261081308255	-0.47528462511133
101250000	-0.824869421595083	-0.463415518687315
101500000	-0.831325503441157	-0.451433075122347
101750000	-0.837617437442276	-0.439374130471637
102000000	-0.84372627294694	-0.427232857708442
102250000	-0.849647487721025	-0.414977741542475
102500000	-0.855390645498027	-0.402659513407456
102750000	-0.860956214602838	-0.390262064900743
103000000	-0.866346322352308	-0.37777790913599
103250000	-0.871560124515697	-0.365229143369358
103500000	-0.876575863931713	-0.35259864441256
103750000	-0.8814101684568	-0.339901212323373
104000000	-0.886088930151165	-0.327124360024962
104250000	-0.890555261731879	-0.314311394110002
104500000	-0.894844663023008	-0.301414335605897
104750000	-0.898933074211004	-0.288472072316925
105000000	-0.902856936209027	-0.275457324677148
105250000	-0.906580482970728	-0.2624153114427
105500000	-0.910126999419857	-0.249293394194233
105750000	-0.91347197216558	-0.236144766480534
106000000	-0.916622195580202	-0.222948705434152
106250000	-0.91958213466424	-0.209711187680163
106500000	-0.922359278681417	-0.196409525496128
106750000	-0.924930672625407	-0.183092382834764
107000000	-0.927336306504407	-0.169730539295071
107250000	-0.92953823681486	-0.156354529272784
107500000	-0.931510763753455	-0.142930570488572
107750000	-0.933324760047388	-0.12948893425944
108000000	-0.934958090418243	-0.116050537381078
108250000	-0.936376625545473	-0.102556416328441
108500000	-0.937605559625991	-8.90543683707799E-02
108750000	-0.938629161963127	-7.55405073998404E-02
109000000	-0.939476460497392	-6.20294807540923E-02
109250000	-0.940103892525759	-4.85027185235234E-02
109500000	-0.940551458446646	-3.49468001289183E-02
109750000	-0.940794547369879	-2.14231774401358E-02
110000000	-0.940854935265117	-7.88274932537664E-03
110250000	-0.940734493697538	5.64537933535354E-03
110500000	-0.940388764265721	1.91830180875523E-02
110750000	-0.939863120472632	0.03270040924059
111000000	-0.939139909098823	4.62160697009178E-02
111250000	-0.938217094493382	5.97097112935557E-02
111500000	-0.9371024741034	7.31857043622802E-02
111750000	-0.935810510922657	8.66550313795829E-02
112000000	-0.934286484147838	0.100068222567311
112250000	-0.932619749034293	0.113487103810405
112500000	-0.930742463162047	0.126866478776309
112750000	-0.928678942149209	0.140204145255127
113000000	-0.926397951039639	0.153532717187806
113250000	-0.9239438726309	0.166811405272282
113500000	-0.921310492885704	0.180060548220272
113750000	-0.918461935883352	0.19324352364934
114000000	-0.915444571533405	0.20640265298401
114250000	-0.912230568019259	0.219502977306178
114500000	-0.908844593587881	0.232542964859292
114750000	-0.905257696640781	0.245555152891939
115000000	-0.901489841472685	0.258499938037903
115250000	-0.897526133476063	0.271384612977926
115500000	-0.893388095654276	0.284217571426617
115750000	-0.889066926561059	0.296956091784226
116000000	-0.884560734034157	0.309659352723866
116250000	-0.879875013523155	0.322304749081359
116500000	-0.875030500943928	0.334849434696545
116750000	-0.87000274562043	0.347318137993133
117000000	-0.864762461683507	0.359722628152524
117250000	-0.859379513248828	0.372043085586714
117500000	-0.853800113085253	0.384300657189619
117750000	-0.848077736189288	0.396438210417355
118000000	-0.84214989432172	0.408526953358159
118250000	-0.836071573551361	0.42049377078485
118500000	-0.829825256493161	0.432395541419572
118750000	-0.823392986598224	0.4442012524745
119000000	-0.8168102206564	0.455863511388972
119250000	-0.810073031141269	0.467492091254697
119500000	-0.803125076275802	0.478975842400297
119750000	-0.796059241032988	0.490386983530298
120000000	-0.788805042334553	0.501678288667158
120250000	-0.781419673802379	0.512874142375619
120500000	-0.773876278641953	0.523917859299255
120750000	-0.766151230743828	0.534895615162563
121000000	-0.758295692745026	0.545740413526685
121250000	-0.750255001171999	0.556458593801357
121500000	-0.742116428463513	0.567091893548517
121750000	-0.73380572645086	0.577582222172535
122000000	-0.725364345272984	0.587953835728165
122250000	-0.71671846631807	0.598170810026051
122500000	-0.707989848117537	0.608303257210522
122750000	-0.699103247440841	0.618297265948698
123000000	-0.690062793170629	0.628133641103069
123250000	-0.68091690293375	0.637884561756628
123500000	-0.671606926497285	0.647451288548929
123750000	-0.662165491406271	0.656909692778458
124000000	-0.652612663587379	0.666220892986991
124250000	-0.642906547580243	0.67539424690241
124500000	-0.633116016518782	0.684463605659141
124750000	-0.623160698524562	0.693325175303119
125000000	-0.613098204245899	0.70207780856487
125250000	-0.602906471332855	0.710657960638392
125500000	-0.592610643784435	0.71913344874598
125750000	-0.582189938464901	0.727421029417965
126000000	-0.571654996600895	0.735569554875176
126250000	-0.560998687883914	0.743546151301311
126500000	-0.550226467333478	0.751398728639195
126750000	-0.539373687443635	0.759092148710431
127000000	-0.528400007393471	0.766609278126815
127250000	-0.517342576339448	0.773992663860802
127500000	-0.506144563412942	0.781202074527635
127750000	-0.494871916058059	0.788226988496865
128000000	-0.483537694065986	0.795102740123084
128250000	-0.472081544126908	0.801827508479394
128500000	-0.46053884199421	0.808380028725466
128750000	-0.448899195688384	0.814767083997988
129000000	-0.437182422228525	0.820972665144627
129250000	-0.425385831826181	0.827038051807894
129500000	-0.413511079622415	0.832925226414137
129750000	-0.401515218398266	0.838629381913485
130000000	-0.389460493601061	0.844153218740912
130250000	-0.37734885261174	0.849530248591176
130500000	-0.365167949894083	0.854737566244303
130750000	-0.352934392352058	0.859736860795542
131000000	-0.340600655691722	0.86457637845629
131250000	-0.328199751021608	0.869229908638841
131500000	-0.315778597105644	0.873734595398674
131750000	-0.303279553226574	0.878038590932578
132000000	-0.290733145146122	0.882171299216417
132250000	-0.278094149067896	0.886151492752224
132500000	-0.265445092579965	0.889874130634736
132750000	-0.252725845290147	0.893464354338745
133000000	-0.23995897642156	0.896877892328001
133250000	-0.227187101497444	0.900123509093063
133500000	-0.214342487219833	0.903178455477018
133750000	-0.20146877699967	0.906031503721693
134000000	-0.188549820837172	0.908719001006776
134250000	-0.175608890215157	0.911197732818049
134500000	-0.162634834631406	0.91351786849832
134750000	-0.149631412283741	0.915651011846876
135000000	-0.136611482614363	0.917593645224405
135250000	-0.123577480574279	0.91934887207036
135500000	-0.110495636725593	0.920922821822723
135750000	-9.74014552635723E-02	0.92231685097673
136000000	-8.43265260396148E-02	0.92350135475807
136250000	-7.11802365359161E-02	0.924549719889413
136500000	-5.80815105951294E-02	0.925392177131539
136750000	-4.49471284598014E-02	0.926042548250643
137000000	-3.18228932004595E-02	0.92648913234733
137250000	-1.86918494452705E-02	0.926794864365395
137500000	-5.56040254934015E-03	0.926881651732911
137750000	7.56536273463843E-03	0.926771898856659
138000000	2.06629836948009E-02	0.926503998777105
138250000	3.37940797106361E-02	0.926064760976289
138500000	0.046903874870212	0.925428037145571
138750000	5.99798113258973E-02	0.92460433910932
139000000	7.30300816828613E-02	0.923585664578704
139250000	8.60920369041667E-02	0.922383567781424
139500000	9.91268354317744E-02	0.92099000142408
139750000	0.112114417045849	0.919449372633504
140000000	0.125112294769455	0.917707637276027
140250000	0.138053937412743	0.915777400954588
140500000	0.150953350849379	0.913678273415894
140750000	0.163857005661286	0.911404188130624
141000000	0.176694257435407	0.908937543330501
141250000	0.189500723366644	0.906290597597552
141500000	0.202242228476209	0.90348350101397
141750000	0.214974107396375	0.900471424723902
142000000	0.227657746409894	0.897294014065781
142250000	0.240268719981403	0.89396711459602
142500000	0.252845963114194	0.890430828362353
142750000	0.265355440226496	0.886723325831851
143000000	0.277793884728759	0.882826739001399
143250000	0.290216153279653	0.878787913619249
143500000	0.302546146696179	0.874566075245844
143750000	0.314822782649627	0.870169142693175
144000000	0.327030568011472	0.865604256150068
144250000	0.339180661051012	0.860877994438391
144500000	0.351229186658503	0.855972898772344
