# Hz S RI R 50
40000000	1.56414116154529E-02	-8.91199557191368E-03
40250000	1.55571598888526E-02	-9.05218993505932E-03
40500000	1.54713251237079E-02	-9.1923701114588E-03
40750000	1.53840885334208E-02	-9.33178721253917E-03
41000000	1.52914863534935E-02	-9.47028504892305E-03
41250000	1.51987528155212E-02	-9.60807368819632E-03
41500000	1.51049750674337E-02	-9.74351811067602E-03
41750000	1.50071593503343E-02	-9.8795876852096E-03
42000000	1.49099682805593E-02	-1.00122546108502E-02
42250000	1.48067745158853E-02	-1.01446398935885E-02
42500000	0.014702780938158	-1.02753044946502E-02
42750000	0.014598870534724	-0.010404890561651
43000000	1.44929037085848E-02	-1.05340910505001E-02
43250000	1.43825172566641E-02	-1.06587514012878E-02
43500000	1.42715564725712E-02	-0.010785337011442
43750000	1.41567664376304E-02	-1.09093585114783E-02
44000000	1.40423757784122E-02	-1.10320543093032E-02
44250000	1.39259067779874E-02	-0.011153346410114
44500000	1.38059797280635E-02	-1.12726631966675E-02
44750000	1.36855883239912E-02	-1.13898931720042E-02
45000000	1.35629433101002E-02	-1.15060855753433E-02
45250000	1.34379112451913E-02	-1.16206185358129E-02
45500000	1.33113641746026E-02	-1.17357065057973E-02
45750000	1.31821416445949E-02	-1.18459747957508E-02
46000000	1.30522345980088E-02	-0.011956135361299
46250000	1.29214875228101E-02	-1.20639493105445E-02
46500000	1.27884653477845E-02	-1.21707875203147E-02
46750000	1.26533175956367E-02	-1.22752125651696E-02
47000000	1.25179182268618E-02	-0.012376849301607
47250000	1.23782737093176E-02	-1.24789045084728E-02
47500000	1.22379809492784E-02	-1.25762199600281E-02
47750000	1.20960516923731E-02	-1.26737873575678E-02
48000000	1.19533942410372E-02	-1.27703744799812E-02
48250000	1.18079512760654E-02	-1.28638499696099E-02
48500000	1.16618273207268E-02	-1.29542797879831E-02
48750000	1.15143189293811E-02	-1.30442284870103E-02
49000000	1.13647063600822E-02	-1.31301652424269E-02
49250000	1.12150364822522E-02	-1.32160243882999E-02
49500000	1.10632962122625E-02	-1.32988997629222E-02
49750000	1.09099320631227E-02	-1.33802450073627E-02
50000000	1.07543886210096E-02	-1.34600807671227E-02
50250000	0.010598508148808	-1.35351178538506E-02
50500000	1.04410799120218E-02	-1.36118148025236E-02
50750000	1.02822022205353E-02	-1.36839151460591E-02
51000000	1.01250357812922E-02	-1.37546937937464E-02
51250000	9.9631249215168E-03	-1.38242363633118E-02
51500000	9.80089929185381E-03	-1.38893702292346E-02
51750000	9.63811362604688E-03	-1.39531646761825E-02
52000000	9.47198400340834E-03	-1.40147883495851E-02
52250000	9.30701571932828E-03	-1.40744017234198E-02
52500000	9.14107855333872E-03	-1.41334552929577E-02
52750000	8.97262098382704E-03	-0.014187133946463
53000000	8.80484989470225E-03	-1.42396347907654E-02
53250000	8.63584010950269E-03	-1.42900857373182E-02
53500000	8.46609127809965E-03	-1.43370715357858E-02
53750000	8.29544881734841E-03	-0.014383125176758
54000000	8.12288698943811E-03	-1.44264333418339E-02
54250000	7.95104402353703E-03	-1.44658595158283E-02
54500000	7.7759434629633E-03	-1.45051654297581E-02
54750000	7.60245960170317E-03	-1.45408607542274E-02
55000000	7.42706829177439E-03	-1.45744131052367E-02
55250000	7.25203885811468E-03	-1.46063417830831E-02
55500000	7.07687138965354E-03	-1.46342185472359E-02
55750000	6.8995054958568E-03	-1.46592729845554E-02
56000000	6.72190793163485E-03	-1.46838055706063E-02
56250000	6.54365376760952E-03	-1.47047220473549E-02
56500000	6.3670997157586E-03	-1.47237043298736E-02
56750000	6.18808330935094E-03	-1.47424655185934E-02
57000000	6.00761854968927E-03	-1.47541034917792E-02
57250000	5.82813448061307E-03	-1.47662247015531E-02
57500000	5.64912058702569E-03	-1.47735674061769E-02
57750000	5.47001697985267E-03	-1.47810262085379E-02
58000000	5.28809313258966E-03	-1.47841382837813E-02
58250000	5.10838756558836E-03	-1.47863926961347E-02
58500000	4.92645164188084E-03	-1.47841968576982E-02
58750000	4.7459106908325E-03	-1.47797237420273E-02
59000000	4.56557580661146E-03	-1.47743188857309E-02
59250000	4.38455022649295E-03	-1.47655678210919E-02
59500000	4.20338371535892E-03	-1.47527638637296E-02
59750000	4.02163753208933E-03	-1.47377946412163E-02
60000000	3.84108357951154E-03	-1.47222033572721E-02
60250000	3.65818359062146E-03	-1.47021658986914E-02
60500000	3.47834767141591E-03	-1.46792160481853E-02
60750000	3.29954380141714E-03	-0.014656952398364
61000000	3.12010360260871E-03	-1.46305108148251E-02
61250000	2.93757193997038E-03	-0.014600172133609
61500000	2.75720395085778E-03	-1.45690976744107E-02
61750000	2.57763482536775E-03	-1.45336991707446E-02
62000000	2.39882340577368E-03	-1.44966651143995E-02
62250000	2.21932240680338E-03	-1.44584712992584E-02
62500000	2.04077299013374E-03	-1.44136921067293E-02
62750000	1.86120023295813E-03	-1.43694628576925E-02
63000000	1.68442319479024E-03	-1.43224679469658E-02
63250000	1.50771110726234E-03	-1.42730184653596E-02
63500000	1.33052759910976E-03	-1.42215356895908E-02
63750000	1.1550081305886E-03	-1.41643849729939E-02
64000000	9.77639648887334E-04	-1.41068008552438E-02
64250000	8.04268081295027E-04	-1.40479620847486E-02
64500000	6.29502740015258E-04	-0.013986808623347
64750000	4.55246274947075E-04	-1.39205074484288E-02
65000000	2.84010609984042E-04	-1.38539800306866E-02
65250000	1.12034204792471E-04	-1.37850730485087E-02
65500000	-5.82353677157711E-05	-1.37109379475099E-02
65750000	-2.29705734731853E-04	-1.36369453089522E-02
66000000	-3.99567843605829E-04	-1.35603659944915E-02
66250000	-5.67852098841032E-04	-1.34813167722554E-02
66500000	-7.35297567685777E-04	-1.33986681283955E-02
66750000	-9.0114417545124E-04	-1.33143202972424E-02
67000000	-1.0668622721843E-03	-1.32269613144719E-02
67250000	-1.23155266509361E-03	-1.31381161679203E-02
67500000	-1.39462983672618E-03	-0.013047713653904
67750000	-1.55663113662965E-03	-1.29536396496351E-02
68000000	-1.71789851321885E-03	-0.012857798224715
68250000	-1.87727707397898E-03	-1.27573135364081E-02
68500000	-2.0388840446817E-03	-0.012656126357622
68750000	-2.19535172899484E-03	-1.25524633934722E-02
69000000	-2.34999464093501E-03	-1.24472693615651E-02
69250000	-2.50686581929243E-03	-0.012337838001502
69500000	-2.65970460815434E-03	-1.22290825759263E-02
69750000	-2.81005611462695E-03	-1.21172910311092E-02
70000000	-2.9591797277945E-03	-1.20028734292106E-02
70250000	-3.10928658882356E-03	-1.18869040989482E-02
70500000	-3.25663058217267E-03	-1.17657510831113E-02
70750000	-3.40343602399979E-03	-1.16463929874729E-02
71000000	-3.54775418513556E-03	-1.15222459083346E-02
71250000	-3.68837895847268E-03	-1.13969218756418E-02
71500000	-3.83080487990691E-03	-1.12715462200807E-02
71750000	-3.96929723438326E-03	-1.11418950620088E-02
72000000	-4.10917306028953E-03	-1.10107913116789E-02
72250000	-4.2426637893262E-03	-1.08768102789151E-02
72500000	-4.37825980631282E-03	-1.07413523568028E-02
72750000	-4.51001457356394E-03	-1.06038750629702E-02
73000000	-4.63947657750047E-03	-1.04650519481526E-02
73250000	-4.76941031597238E-03	-1.03239282962853E-02
73500000	-4.89464400404013E-03	-1.01805317502858E-02
73750000	-5.02031860539196E-03	-1.00360889320858E-02
74000000	-5.1449471712639E-03	-9.8894065689795E-03
74250000	-5.26375651394792E-03	-9.74251019678844E-03
74500000	-5.38381120387524E-03	-9.59024942463565E-03
74750000	-5.50057250188802E-03	-9.43739451240885E-03
75000000	-5.61587883400658E-03	-9.28466015843393E-03
75250000	-5.72933325128263E-03	-9.12923369657704E-03
75500000	-5.84044793508831E-03	-8.9702539700614E-03
75750000	-0.005949304496472	-8.81250668098205E-03
76000000	-6.05587774132476E-03	-8.65221211563769E-03
76250000	-6.16071451632938E-03	-8.49002546039807E-03
76500000	-6.26389255009776E-03	-8.32602004616564E-03
76750000	-6.36447145808436E-03	-8.15987349671204E-03
77000000	-6.46109593287494E-03	-7.99221085065915E-03
77250000	-6.55700588979089E-03	-7.8231499650767E-03
77500000	-6.65116262787308E-03	-7.65505484176854E-03
77750000	-6.74384023386501E-03	-7.48257669964224E-03
78000000	-6.83200758888297E-03	-7.31073252595731E-03
78250000	-6.91773896180854E-03	-7.13600343235065E-03
78500000	-7.00270279245101E-03	-6.96025923292551E-03
78750000	-7.08458562510664E-03	-6.78348357451542E-03
79000000	-7.16450333450235E-03	-6.60543067251398E-03
79250000	-7.24132075213355E-03	-6.42497826396633E-03
79500000	-7.31625818094551E-03	-6.24556612683219E-03
79750000	-7.3898220547493E-03	-6.06351769372516E-03
80000000	-7.45916267510848E-03	-5.88152171323447E-03
80250000	-7.52505413365945E-03	-5.69628901170517E-03
80500000	-7.59092371657913E-03	-5.51063394961764E-03
80750000	-7.65449131126057E-03	-5.3250888346031E-03
81000000	-7.71367286915837E-03	-5.13786525671829E-03
81250000	-7.77073160321266E-03	-4.9509206669602E-03
81500000	-7.82520657544943E-03	-4.76089874726449E-03
81750000	-7.87660088895172E-03	-4.56928822298882E-03
82000000	-7.92767765456153E-03	-4.37732319092236E-03
82250000	-7.97284345836632E-03	-4.18827522305744E-03
82500000	-8.01757577626374E-03	-3.99557449734749E-03
82750000	-8.05840627039735E-03	-3.80181607766336E-03
83000000	-8.09824078462209E-03	-3.60803799116745E-03
83250000	-8.13418335332323E-03	-3.41338800345226E-03
83500000	-8.16782717175059E-03	-3.21794889763099E-03
83750000	-0.008197749298597	-3.02125153004171E-03
84000000	-8.22682093066416E-03	-2.82593991369384E-03
84250000	-8.25124187976622E-03	-2.62651310229237E-03
84500000	-8.27514522028437E-03	-2.42930538989947E-03
84750000	-8.2951847899728E-03	-2.23109519337927E-03
85000000	-8.31375799411207E-03	-2.03327054092595E-03
85250000	-8.3285524394265E-03	-1.83299733806828E-03
85500000	-0.008339590603472	-1.63243842001576E-03
85750000	-8.34806588441021E-03	-1.43371019319691E-03
86000000	-8.35568399296075E-03	-1.23195012552796E-03
86250000	-8.35980678818972E-03	-1.03296837022115E-03
86500000	-8.36037428597036E-03	-8.31864742366036E-04
86750000	-8.35824197667048E-03	-6.30582464592304E-04
87000000	-8.35483043235161E-03	-4.29149353323298E-04
87250000	-8.34608568138838E-03	-2.28904679538943E-04
87500000	-0.008334221460328	-2.61366024707663E-05
87750000	-8.32228582715452E-03	1.74199164180477E-04
88000000	-8.30779828913054E-03	3.74717649229076E-04
88250000	-8.28846253819256E-03	5.75605161390232E-04
88500000	-8.26648765985934E-03	7.77226339573327E-04
88750000	-8.24296815183476E-03	9.79321560508559E-04
89000000	-8.21676952121899E-03	1.17867810667856E-03
89250000	-8.1870446437697E-03	1.38058971886376E-03
89500000	-8.1553813743191E-03	1.58048678070558E-03
89750000	-8.11813592422582E-03	1.77928327084218E-03
90000000	-8.08126607645056E-03	1.97932675892775E-03
90250000	-8.03997989770063E-03	2.17994453077496E-03
90500000	-7.99622888825166E-03	2.38005269570837E-03
90750000	-7.9490238625236E-03	2.57724994869409E-03
91000000	-7.90072868003849E-03	2.77640515669016E-03
91250000	-7.84794127384014E-03	2.97202892778548E-03
91500000	-7.79417825929982E-03	3.17006451435165E-03
91750000	-7.73619484988049E-03	3.36736637352879E-03
92000000	-7.67645004404079E-03	3.56205602551489E-03
92250000	-7.61178810022179E-03	3.75683569206889E-03
92500000	-7.54727600952788E-03	3.95215281131149E-03
92750000	-7.47705400841876E-03	4.14723359956479E-03
93000000	-7.40764761876315E-03	4.34047050586027E-03
93250000	-0.007333065556406	4.53211705179085E-03
93500000	-7.25581580205566E-03	4.72533449992667E-03
93750000	-7.17620991341898E-03	4.91565483571147E-03
94000000	-7.09457414057679E-03	5.1051148522678E-03
94250000	-7.00954174121991E-03	5.29341203509767E-03
94500000	-6.92171886550563E-03	5.4815790489654E-03
94750000	-6.83234055920459E-03	5.66733554663318E-03
95000000	-6.73941223573152E-03	5.85271909807554E-03
95250000	-6.64274329260078E-03	6.03899486013536E-03
95500000	-6.5460268551261E-03	6.22100645174102E-03
95750000	-6.44641865558161E-03	6.40359207713821E-03
96000000	-6.34355055073267E-03	6.58497354172223E-03
96250000	-6.23617028772905E-03	6.76645056251581E-03
96500000	-6.12838383141877E-03	0.00694471807246
96750000	-6.0180261338886E-03	7.12073659661438E-03
97000000	-5.90440234431645E-03	7.29678292248993E-03
97250000	-5.78905173989876E-03	7.47271495213121E-03
97500000	-5.66951689101562E-03	7.64659500000375E-03
97750000	-5.55081450835156E-03	7.81720325611152E-03
98000000	-5.42709856919705E-03	7.98693139112296E-03
98250000	-5.30014208948998E-03	8.15514395151898E-03
98500000	-5.17357203105431E-03	8.32387707369012E-03
98750000	-5.04070680184071E-03	8.48854385514362E-03
99000000	-4.90996024291019E-03	8.65247216254344E-03
99250000	-4.77438497014881E-03	8.81495204774046E-03
99500000	-4.63737853693215E-03	8.97780339772349E-03
99750000	-4.49648621778125E-03	9.13627477792939E-03
100000000	-4.35409072767893E-03	9.29294970041698E-03
100250000	-4.20965596854511E-03	9.44680583016092E-03
100500000	-4.06298547704482E-03	9.60176232860594E-03
100750000	-3.91364548826398E-03	9.75215822231137E-03
101000000	-3.76306934334807E-03	9.90414752213675E-03
101250000	-3.60964286323567E-03	1.00505092026441E-02
101500000	-3.45472341327931E-03	1.01973909392296E-02
101750000	-3.29630406671641E-03	1.03411335756861E-02
102000000	-3.1370669631492E-03	1.04849512201638E-02
102250000	-2.97467164089421E-03	1.06229460723726E-02
102500000	-2.81178298801755E-03	1.07620919234917E-02
102750000	-2.6449727276739E-03	1.08973203960233E-02
103000000	-2.47651653459018E-03	1.10322660704798E-02
103250000	-2.30671483161847E-03	1.11633752516352E-02
103500000	-2.13446059902448E-03	1.12937980728283E-02
103750000	-1.96029997686158E-03	1.14202721940923E-02
104000000	-1.78573641559341E-03	1.15464180760233E-02
104250000	-1.60821468298007E-03	1.16691865655692E-02
104500000	-1.42945959850986E-03	1.17898863479822E-02
104750000	-1.24705567177199E-03	1.19090546553609E-02
105000000	-1.0635186602641E-03	1.20239378257194E-02
105250000	-8.81454091686013E-04	1.21398277725755E-02
105500000	-6.9591936292458E-04	1.22488341402638E-02
105750000	-5.06575189936172E-04	1.23588337459293E-02
106000000	-3.17226156143365E-04	1.24659318273209E-02
106250000	-1.25478881926049E-04	1.25700957696988E-02
106500000	6.90613331062298E-05	1.26720738650649E-02
106750000	2.62106907617674E-04	1.27717626988318E-02
107000000	4.58486060965996E-04	1.28672039428345E-02
107250000	6.56728811534319E-04	1.29606129606668E-02
107500000	8.56567333281924E-04	1.30526122285494E-02
107750000	1.05604049110626E-03	1.31417244174342E-02
108000000	1.25797750244577E-03	1.32294089037061E-02
108250000	1.46076231285041E-03	1.33145009684305E-02
108500000	1.66557526786292E-03	1.33949656832376E-02
108750000	1.87054841507349E-03	1.34727309995188E-02
109000000	2.07765401632931E-03	1.35492750142768E-02
109250000	2.28550940797765E-03	1.36216993805589E-02
109500000	2.49540487709942E-03	1.36932117621454E-02
109750000	2.70640637240672E-03	1.37613500589505E-02
110000000	2.91816065641079E-03	1.38257854200962E-02
110250000	3.12982122953144E-03	1.38883842113997E-02
110500000	3.34488305776609E-03	1.39458170205234E-02
110750000	3.55852720305065E-03	1.40034741317041E-02
111000000	3.77666108802864E-03	1.40573654472384E-02
111250000	3.99265113853362E-03	0.014109917942953
111500000	4.2108742735171E-03	1.41559070586443E-02
111750000	4.43117318713899E-03	1.42029377546897E-02
112000000	4.64838770724444E-03	1.42453661239264E-02
112250000	4.86805219246691E-03	1.42842159779376E-02
112500000	5.08824013007465E-03	1.43226519910906E-02
112750000	5.3107135488341E-03	1.43587000567556E-02
113000000	5.5346954170418E-03	0.014387086642911
113250000	5.75651103701358E-03	1.44153431653358E-02
113500000	5.97923976273133E-03	1.44415966149626E-02
113750000	6.20491968417801E-03	1.44628008764043E-02
114000000	6.42881668782142E-03	1.44812519404107E-02
114250000	6.65370184319448E-03	1.44985216298947E-02
114500000	6.87944761761367E-03	1.45107360938386E-02
114750000	7.10465368027003E-03	1.45207720971987E-02
115000000	7.33220262132506E-03	1.45300735238451E-02
115250000	7.55832623094639E-03	1.45325264909225E-02
115500000	7.78619822842187E-03	1.45370644299703E-02
115750000	8.01316782624485E-03	1.45343966958592E-02
116000000	8.23896442957421E-03	1.45303600403117E-02
116250000	8.46696648550038E-03	1.45227507994307E-02
116500000	8.69447383268834E-03	1.45134014121744E-02
116750000	8.92302517896647E-03	1.44984349114162E-02
117000000	9.15004116606821E-03	1.44842553808476E-02
117250000	9.3771016028352E-03	1.44642826671194E-02
117500000	9.60390223902398E-03	1.44403377967536E-02
117750000	9.83187593318259E-03	1.44163428033834E-02
118000000	0.010061537898144	1.43876460589147E-02
118250000	1.02873073713474E-02	1.43560587332176E-02
118500000	1.05152293338546E-02	1.43219438254099E-02
118750000	1.07402926182533E-02	1.42867865192165E-02
119000000	1.09689088874962E-02	1.42454409654554E-02
119250000	1.11967058915752E-02	1.42017162670536E-02
119500000	1.14208762488713E-02	1.41552829127182E-02
119750000	1.16484659048901E-02	1.41055990019749E-02
120000000	1.18721531999889E-02	1.40552876687146E-02
120250000	1.20974449368753E-02	1.39980091983655E-02
120500000	0.01232125062468	1.39399677754818E-02
120750000	1.25432849570253E-02	1.38792646686352E-02
121000000	1.27680752501801E-02	1.38156962496448E-02
121250000	1.29900955947759E-02	1.37479411654434E-02
121500000	1.32104232828784E-02	1.36773702642404E-02
121750000	1.34336829280934E-02	1.36048321726085E-02
122000000	1.36545073356955E-02	1.35294654774703E-02
122250000	1.38726790135247E-02	0.013449919281139
122500000	1.40917170929587E-02	1.33682734801083E-02
122750000	1.43098033714638E-02	1.32838253582235E-02
123000000	1.45276466750139E-02	1.31973277648981E-02
123250000	1.47437080257843E-02	1.31064898142985E-02
123500000	1.49586683873092E-02	1.30130834961002E-02
123750000	1.51730405829582E-02	1.29183508434624E-02
124000000	1.53850951700643E-02	1.28187200169982E-02
124250000	0.015599266451988	0.012716388772537
124500000	1.58092291587702E-02	1.26122132811379E-02
124750000	1.60179764378443E-02	1.25040724651258E-02
125000000	0.01622654219625	1.23955490312805E-02
125250000	1.64332257270357E-02	1.22827465502454E-02
125500000	1.66406512377972E-02	1.21667085446693E-02
125750000	1.68441319297076E-02	1.20478799614596E-02
126000000	1.70486403758525E-02	0.011926951185676
126250000	1.72491374247858E-02	1.18021513712282E-02
126500000	1.74508642911282E-02	1.16770506838023E-02
126750000	1.76499323846872E-02	1.15463187994359E-02
127000000	1.78479524560062E-02	1.14125916713881E-02
127250000	1.80440763156101E-02	1.12804973722679E-02
127500000	1.82394652540149E-02	1.11436326210154E-02
127750000	1.84316488680219E-02	1.10031113122449E-02
128000000	1.86239713580571E-02	1.08610458062335E-02
128250000	1.88124169413484E-02	1.07151382177189E-02
128500000	1.89999314570518E-02	1.05667445534361E-02
128750000	1.91877148614714E-02	1.04180823793277E-02
129000000	1.93712372266624E-02	1.02642248442479E-02
129250000	1.95551901100386E-02	1.01112852382142E-02
129500000	1.97342169165811E-02	9.95306431612133E-03
129750000	1.99129738424819E-02	9.7925435219903E-03
130000000	2.00920556124333E-02	9.6299639071355E-03
130250000	0.020268723762139	9.46606962370581E-03
130500000	2.04410665228972E-02	9.2980524056897E-03
130750000	2.06111050983045E-02	9.12945924693787E-03
131000000	0.020779962035488	8.9558625926779E-03
131250000	2.09495244915702E-02	8.78284582725855E-03
131500000	2.11130562013551E-02	8.60690670115212E-03
131750000	2.12782591667452E-02	8.42946103394203E-03
132000000	2.14406432679801E-02	8.24763540832251E-03
132250000	2.15996160292217E-02	8.06430874809396E-03
132500000	0.021756482803238	7.87947387517842E-03
132750000	2.19097416720092E-02	7.69336593527794E-03
133000000	0.02206515648234	7.50294792465342E-03
133250000	2.22142365761092E-02	7.31176452991382E-03
133500000	2.23612765278145E-02	7.11901013265921E-03
133750000	2.25048212837028E-02	6.92412108922057E-03
134000000	2.26492669759142E-02	6.72623461743324E-03
