# Hz S RI R 50
40000000	8.37209513622734E-03	-1.52442908629658E-02
40250000	8.21271804610981E-03	-1.52701421946607E-02
40500000	8.05447415033265E-03	-1.52950546687841E-02
40750000	7.89558256519722E-03	-1.53169417515046E-02
41000000	7.73484168598784E-03	-1.53360930011413E-02
41250000	7.57430282263155E-03	-1.53555471469815E-02
41500000	7.41517003478716E-03	-1.53720644560786E-02
41750000	7.25559691884013E-03	-1.53856374872578E-02
42000000	7.09616401513101E-03	-1.53999094707583E-02
42250000	6.93290905981889E-03	-1.54098885577134E-02
42500000	6.77048237310504E-03	-0.015419187786591
42750000	6.61130048313426E-03	-1.54266659158825E-02
43000000	6.45050883490182E-03	-1.54318503419276E-02
43250000	6.28964046393829E-03	-1.54341879018698E-02
43500000	6.12687868812471E-03	-1.54367494223275E-02
43750000	5.96500142601116E-03	-1.54351585356047E-02
44000000	5.80406828361018E-03	-1.54323695294655E-02
44250000	5.64076616066629E-03	-0.015430004085726
44500000	5.47959874288574E-03	-1.54232403770685E-02
44750000	5.31782768943077E-03	-1.54137116965526E-02
45000000	5.15497431230894E-03	-1.54055214076339E-02
45250000	4.99427647523306E-03	-1.53925712216008E-02
45500000	4.83214886527879E-03	-1.53799144431478E-02
45750000	4.67101432520901E-03	-1.53636335594816E-02
46000000	4.50979536829137E-03	-1.53472690504554E-02
46250000	4.34857145746558E-03	-1.53274434975134E-02
46500000	4.1882730990954E-03	-1.53072033509269E-02
46750000	4.02695777096129E-03	-1.52834550182377E-02
47000000	3.86711605849329E-03	-1.52574812513025E-02
47250000	3.70598851636179E-03	-1.52319748414428E-02
47500000	3.5454054243181E-03	-1.52015546382022E-02
47750000	3.38651607594962E-03	-1.51718985687984E-02
48000000	3.22713505717337E-03	-1.51395285492154E-02
48250000	3.06724914069547E-03	-1.51055906933818E-02
48500000	2.90756908092247E-03	-1.50684916974006E-02
48750000	2.7492662872809E-03	-1.50306669961361E-02
49000000	2.59160305292485E-03	-1.49899903563361E-02
49250000	2.43522005972019E-03	-1.49478100743556E-02
49500000	2.27657695544965E-03	-1.49035741880816E-02
49750000	2.12004684161216E-03	-1.48588780265542E-02
50000000	1.96489542407618E-03	-1.48105059726381E-02
50250000	1.80712838207577E-03	-1.47605156419181E-02
50500000	1.65252694344977E-03	-1.47107473772894E-02
50750000	1.49729777119051E-03	-1.46573246383147E-02
51000000	1.34576257214332E-03	-0.014602621166554
51250000	1.19096054945763E-03	-0.014547016371684
51500000	1.03691615083614E-03	-1.44875038687022E-02
51750000	8.85043142228499E-04	-1.44275437283626E-02
52000000	7.33883490701196E-04	-1.43642444260701E-02
52250000	5.82206333189001E-04	-1.43019150146627E-02
52500000	4.32821052191833E-04	-1.42366743218509E-02
52750000	2.82846191113722E-04	-1.41673101634394E-02
53000000	1.34245301772371E-04	-1.40987007236568E-02
53250000	-1.46592537941553E-05	-1.40286890533772E-02
53500000	-1.60110389318238E-04	-1.39556251374338E-02
53750000	-3.07330816784099E-04	-1.38806159528953E-02
54000000	-4.52241659269144E-04	-1.38041088843218E-02
54250000	-5.98073498885682E-04	-1.37257532672972E-02
54500000	-7.41920758628171E-04	-1.36463252536317E-02
54750000	-8.84231956559523E-04	-1.35650528791891E-02
55000000	-1.02569966599191E-03	-1.34810513560888E-02
55250000	-1.16651205261753E-03	-1.33971118104588E-02
55500000	-1.30727310503951E-03	-1.33099402595629E-02
55750000	-1.4453743553503E-03	-1.32203026227762E-02
56000000	-1.58499178767507E-03	-1.31303039239726E-02
56250000	-1.72008334240764E-03	-1.30390318723662E-02
56500000	-1.85693307655891E-03	-1.29452740311834E-02
56750000	-1.99128394608983E-03	-0.012853336061509
57000000	-2.12524888659908E-03	-1.27538606901373E-02
57250000	-2.25795246245908E-03	-1.26564786237381E-02
57500000	-2.38945952308259E-03	-1.25569429390232E-02
57750000	-2.51883805507503E-03	-1.24561835451751E-02
58000000	-2.64925142632519E-03	-1.23531082810863E-02
58250000	-2.77804300788332E-03	-0.012249020731221
58500000	-2.90402907754041E-03	-1.21428272018896E-02
58750000	-3.02943125388381E-03	-1.20342222183031E-02
59000000	-3.1528871969629E-03	-1.19255861080381E-02
59250000	-3.27664413698109E-03	-1.18158178726446E-02
59500000	-0.003399800987776	-1.17032084008201E-02
59750000	-3.52030017990384E-03	-1.15882439268611E-02
60000000	-3.63870861613852E-03	-1.14744502333488E-02
60250000	-3.75748057800992E-03	-0.011357552314002
60500000	-3.87328479273482E-03	-1.12388264396007E-02
60750000	-3.98722469401384E-03	-1.11212712018797E-02
61000000	-4.10077584902941E-03	-1.10001605044682E-02
61250000	-4.21384723038552E-03	-1.08787548116631E-02
61500000	-4.32489576067452E-03	-1.07551854588083E-02
61750000	-4.43393194359358E-03	-1.06306914326902E-02
62000000	-4.54076854059599E-03	-1.05048694488613E-02
62250000	-4.64908930117265E-03	-1.03771324662529E-02
62500000	-4.7527302269023E-03	-0.01024694811034
62750000	-4.85764405150432E-03	-1.01183482173897E-02
63000000	-4.9589639995481E-03	-9.98718304765807E-03
63250000	-5.05903008964812E-03	-9.85445045425363E-03
63500000	-5.15685910276096E-03	-9.72205668623504E-03
63750000	-5.25482081070427E-03	-9.58582824031689E-03
64000000	-5.35261247051011E-03	-9.44875698949749E-03
64250000	-5.44632506104886E-03	-9.31289268867904E-03
64500000	-5.53820949986206E-03	-9.17416265116482E-03
64750000	-5.62945134924085E-03	-9.0349820171197E-03
65000000	-5.71731255092525E-03	-8.89403119388525E-03
65250000	-5.80400125736569E-03	-8.75319567195411E-03
65500000	-5.89047500992693E-03	-8.60901639040488E-03
65750000	-0.005974823239704	-8.46582925683669E-03
66000000	-6.05780816641576E-03	-8.32073389703584E-03
66250000	-6.13866053636167E-03	-8.17616847039694E-03
66500000	-6.21764625823519E-03	-8.02862195838668E-03
66750000	-6.29484665887366E-03	-7.87981208641113E-03
67000000	-6.37113736879539E-03	-7.72978129801439E-03
67250000	-6.4448349807609E-03	-7.58140127881687E-03
67500000	-6.5173437222673E-03	-7.43145902546535E-03
67750000	-6.58763978799333E-03	-7.27862692450643E-03
68000000	-0.006656766694658	-7.12836939384508E-03
68250000	-6.7232538699926E-03	-6.97174924844286E-03
68500000	-6.78812962333024E-03	-6.81857037244149E-03
68750000	-6.8514057117055E-03	-6.66482806533316E-03
69000000	-6.91120464744776E-03	-6.50777789942925E-03
69250000	-6.97183542650803E-03	-6.34998889347633E-03
69500000	-7.02907996523914E-03	-6.19499030871467E-03
69750000	-7.08368440676978E-03	-6.03543946362975E-03
70000000	-7.13701651365908E-03	-5.87861484573891E-03
70250000	-7.18962316866369E-03	-5.71802651577204E-03
70500000	-7.24057602106764E-03	-5.55778878984775E-03
70750000	-7.28917418727222E-03	-5.39751974087275E-03
71000000	-7.33610822893141E-03	-5.2345387701029E-03
71250000	-7.37819021151104E-03	-5.07343053053398E-03
71500000	-7.42228636558111E-03	-4.91144840091296E-03
71750000	-7.46122783906228E-03	-4.7483219000543E-03
72000000	-7.50115973598938E-03	-4.58531541978054E-03
72250000	-7.53765560721017E-03	-4.42054105937276E-03
72500000	-7.57269433805221E-03	-4.25627518069987E-03
72750000	-7.60527070653907E-03	-4.09123003868006E-03
73000000	-0.007634656048469	-3.9248777616324E-03
73250000	-7.66397409600447E-03	-3.75868130167976E-03
73500000	-0.007690048028009	-3.59275132245955E-03
73750000	-7.71634590951229E-03	-3.42678218897866E-03
74000000	-7.73953352396368E-03	-3.26025775219867E-03
74250000	-7.75899349835025E-03	-3.09335416409149E-03
74500000	-7.77866457803226E-03	-2.92461963141391E-03
74750000	-7.79482511075566E-03	-2.75615712395928E-03
75000000	-7.8107166045052E-03	-2.59031662236219E-03
75250000	-7.82305786382865E-03	-2.41993509293282E-03
75500000	-7.83379057461649E-03	-2.25051662008625E-03
75750000	-7.84275819846256E-03	-2.08340416373222E-03
76000000	-7.84953053333322E-03	-1.91420261011547E-03
76250000	-7.85482555014774E-03	-1.74592440717674E-03
76500000	-7.85706570436545E-03	-1.57606545227095E-03
76750000	-7.85771522419509E-03	-1.40670563073176E-03
77000000	-7.85570960204625E-03	-1.23628119614728E-03
77250000	-7.85161872217414E-03	-1.06626510409994E-03
77500000	-7.84783767839273E-03	-8.98621394818657E-04
77750000	-7.83951365601738E-03	-7.28796797506744E-04
78000000	-7.83109293941671E-03	-5.60315320306238E-04
78250000	-7.82005542196547E-03	-3.89471319872149E-04
78500000	-7.80568433114515E-03	-2.20289314926115E-04
78750000	-7.79064557804966E-03	-5.14154524987678E-05
79000000	-7.77337204519564E-03	1.17576847216656E-04
79250000	-7.75332819545679E-03	2.87409524217183E-04
79500000	-7.73148276687791E-03	4.5545337008892E-04
79750000	-7.7091547024165E-03	6.23737069977293E-04
80000000	-7.6826888197009E-03	7.91956248840474E-04
80250000	-7.65444783889967E-03	9.60949275221668E-04
80500000	-7.62595130882858E-03	1.12912296895375E-03
80750000	-7.59393764050825E-03	1.29612623466495E-03
81000000	-7.56165418230205E-03	1.46320676462715E-03
81250000	-7.52396076529464E-03	1.6303626213896E-03
81500000	-7.48676105436118E-03	1.79753336308971E-03
81750000	-7.44712103331215E-03	1.96359307293728E-03
82000000	-7.40712210860034E-03	2.13091706266117E-03
82250000	-7.36062242151098E-03	2.29453949872375E-03
82500000	-7.3164135365948E-03	2.45843672173576E-03
82750000	-7.26868154882074E-03	2.62333295752111E-03
83000000	-7.21809904346986E-03	2.7875265548821E-03
83250000	-7.16615211445385E-03	2.95023691407998E-03
83500000	-7.11264678201817E-03	3.11393141170036E-03
83750000	-7.0565601815707E-03	3.27613045736615E-03
84000000	-6.99990727771219E-03	3.43780090857219E-03
84250000	-6.93945190570311E-03	3.59887902773542E-03
84500000	-6.87759937070082E-03	3.7595401262949E-03
84750000	-6.81569186408299E-03	3.9198534861549E-03
85000000	-6.7490871268827E-03	4.07797095254788E-03
85250000	-6.68317648721962E-03	4.23634281157648E-03
85500000	-6.61306635268931E-03	4.39583533741931E-03
85750000	-6.54233861730437E-03	4.55168851994962E-03
86000000	-6.46886908887026E-03	4.7088333061669E-03
86250000	-6.39489597988848E-03	0.004862734824882
86500000	-6.31836788345254E-03	5.01697455798638E-03
86750000	-6.23892547472777E-03	5.17232166310507E-03
87000000	-6.15884470194601E-03	5.32554228272009E-03
87250000	-6.07558000685948E-03	5.47592465952853E-03
87500000	-5.98961656237247E-03	5.62802132626317E-03
87750000	-5.9041876960308E-03	5.77823302269202E-03
88000000	-5.81778844697041E-03	5.92690837472626E-03
88250000	-5.72720395384548E-03	6.07468580195398E-03
88500000	-5.6357864081987E-03	6.22283456256474E-03
88750000	-5.54275377076199E-03	6.36904241940065E-03
89000000	-5.4469796909412E-03	0.006513537727447
89250000	-0.005349196238115	6.65851585535292E-03
89500000	-5.25146825580944E-03	6.80115752638903E-03
89750000	-5.14912043413593E-03	6.94254539731257E-03
90000000	-5.04772463545431E-03	7.08344758958119E-03
90250000	-4.9442977462785E-03	7.22190567143151E-03
90500000	-4.8386097486887E-03	7.36175443383117E-03
90750000	-4.73099253067696E-03	7.49852149950346E-03
91000000	-4.62214957459459E-03	7.63591491059642E-03
91250000	-4.5102262237568E-03	7.76965385408501E-03
91500000	-4.39841525234359E-03	7.9050077490899E-03
91750000	-4.28406345048579E-03	8.03674437449465E-03
92000000	-4.16964339547412E-03	8.16724041227457E-03
92250000	-4.05008412018085E-03	8.29742480139443E-03
92500000	-3.93123565857471E-03	8.42611624564533E-03
92750000	-3.8117259734781E-03	8.55485857730677E-03
93000000	-3.68960854540582E-03	8.67899799140646E-03
93250000	-3.56479481798805E-03	8.80321702574092E-03
93500000	-3.44014400649963E-03	8.92783252132551E-03
93750000	-3.31337371609989E-03	9.05105538970233E-03
94000000	-3.18490658116036E-03	9.16891690779271E-03
94250000	-3.05490241991144E-03	9.28745706668063E-03
94500000	-2.92475590954289E-03	9.4060563562653E-03
94750000	-2.79148272484812E-03	9.51994510725865E-03
95000000	-2.65532666623993E-03	9.63483298656896E-03
95250000	-2.52034511657625E-03	9.74924221510483E-03
95500000	-2.38341290042912E-03	9.86022670012266E-03
95750000	-2.24618534612722E-03	9.96909186409033E-03
96000000	-2.10549887909362E-03	1.00781508102812E-02
96250000	-1.96381436779087E-03	1.01862250670091E-02
96500000	-1.82245876862085E-03	1.02907687555403E-02
96750000	-1.67814620914429E-03	1.03931559660434E-02
97000000	-1.53163187607955E-03	1.04946084148226E-02
97250000	-1.38632484954347E-03	1.05955293575341E-02
97500000	-1.23704059915269E-03	1.06941232058736E-02
97750000	-1.08965615449955E-03	1.07904794368066E-02
98000000	-9.37977894453101E-04	1.08865131420607E-02
98250000	-7.86004012521256E-04	1.09791545026259E-02
98500000	-6.34643227933816E-04	1.10710978557652E-02
98750000	-4.79320255406665E-04	1.11600900090597E-02
99000000	-3.24699045827614E-04	1.12491529664205E-02
99250000	-1.69646178973216E-04	1.13348926282385E-02
99500000	-1.16921965922179E-05	1.14215248550227E-02
99750000	1.48269210184612E-04	1.15042744755782E-02
100000000	3.07765339762826E-04	1.15848394192028E-02
100250000	4.66646214750998E-04	1.16628382838184E-02
100500000	6.29226159380017E-04	1.17419175040003E-02
100750000	7.92876293510344E-04	1.18168637510309E-02
101000000	9.54096778603015E-04	1.18920232582258E-02
101250000	1.11913617155522E-03	1.19626183955869E-02
101500000	1.28529112708547E-03	1.20332768095946E-02
101750000	1.45294721661534E-03	1.21019279556323E-02
102000000	1.61939217603127E-03	1.21691279345932E-02
102250000	1.78894126337635E-03	1.22311449597764E-02
102500000	1.95642204963789E-03	0.01229455190612
102750000	2.12883221524422E-03	1.23550067843592E-02
103000000	2.30055218601845E-03	1.24136188220573E-02
103250000	2.47094455055151E-03	1.24712771959029E-02
103500000	2.64362001992569E-03	0.01252499609192
103750000	2.81773288771845E-03	1.25778182520516E-02
104000000	2.99160546263184E-03	1.26289618782588E-02
104250000	3.16539269644667E-03	1.26785634660181E-02
104500000	3.34046322286796E-03	1.27249806833547E-02
104750000	3.51565197933157E-03	1.27693335930693E-02
105000000	3.69580093766805E-03	0.012811233553883
105250000	3.8699811832845E-03	1.28528103563362E-02
105500000	4.04742931602674E-03	1.28885480493452E-02
105750000	4.22775634634705E-03	1.29259177938368E-02
106000000	4.40734938855105E-03	1.29630580900389E-02
106250000	4.58672858160957E-03	1.29944543447124E-02
106500000	4.76783453120521E-03	1.30248954254185E-02
106750000	4.94727136325914E-03	1.30550924476609E-02
107000000	5.12893962810014E-03	1.30798156510561E-02
107250000	5.3104294966035E-03	1.31041620261381E-02
107500000	5.49384088279276E-03	1.31251484379224E-02
107750000	5.67623332507991E-03	1.31465108821333E-02
108000000	5.85949325129945E-03	1.31651695003927E-02
108250000	6.04148654920052E-03	1.31811426957974E-02
108500000	6.22556806807231E-03	1.31943337363577E-02
108750000	6.40841001493956E-03	1.32067726082489E-02
109000000	6.59392834555966E-03	1.32150810857944E-02
109250000	6.77627736263434E-03	1.32210877263437E-02
109500000	6.96175921947749E-03	1.32279296200193E-02
109750000	7.1475179634399E-03	1.32321904371842E-02
110000000	7.33085041643911E-03	0.013232205453506
110250000	7.51656849951896E-03	1.32312665183152E-02
110500000	7.7026255715739E-03	1.32265941706252E-02
110750000	7.8861126758673E-03	1.32216455392327E-02
111000000	8.07367886473125E-03	1.32148958726204E-02
111250000	8.25894643217752E-03	1.32051493319528E-02
111500000	8.44419670355652E-03	1.31933147682756E-02
111750000	8.63044446439757E-03	1.31783587123845E-02
112000000	8.81667735708189E-03	1.31619228257463E-02
112250000	9.00095757041612E-03	1.31447236273423E-02
112500000	9.18752207854348E-03	0.013123778119988
112750000	9.37142999057018E-03	1.31036625703206E-02
113000000	9.55860480307221E-03	1.30766156867156E-02
113250000	9.74287259545667E-03	1.30502362111262E-02
113500000	9.92725337353624E-03	1.30217099449579E-02
113750000	1.01130648649258E-02	1.29905256644778E-02
114000000	1.02980332142855E-02	1.29573152786999E-02
114250000	1.04815436600605E-02	1.29213338024759E-02
114500000	0.010665889056689	1.28836588675143E-02
114750000	1.08509183934965E-02	1.28449230055117E-02
115000000	1.10346266979651E-02	1.28032415637201E-02
115250000	1.12172216642699E-02	1.27582197979186E-02
115500000	1.14003706173438E-02	1.27124267845508E-02
115750000	1.15824315050775E-02	0.012663286375805
116000000	1.17638972962416E-02	0.012612963385604
116250000	1.19462345606739E-02	1.25619093751334E-02
116500000	1.21271366179597E-02	1.25071362174776E-02
116750000	1.23094072050485E-02	1.24486591516584E-02
117000000	1.24877401568252E-02	1.23921190749718E-02
117250000	1.26682486393153E-02	1.23311605068545E-02
117500000	1.28476728304484E-02	1.22669693741773E-02
117750000	1.30253217615569E-02	1.22025120377691E-02
118000000	1.32058837953982E-02	1.21353248460513E-02
118250000	1.33823638879528E-02	1.20661756581731E-02
118500000	0.01355858551294	1.19954270087966E-02
118750000	1.37322937252129E-02	1.19241482323715E-02
119000000	1.39098528303349E-02	1.18464354224745E-02
119250000	0.014086799299286	1.17698028253999E-02
119500000	1.42586511761555E-02	1.16889629071356E-02
119750000	1.44332382849564E-02	1.16079832223038E-02
120000000	1.46031727270341E-02	0.01152562986124
120250000	1.47764392870723E-02	1.14391282960013E-02
120500000	1.49465869897293E-02	1.13507907690386E-02
120750000	1.51168589651418E-02	1.12620006314671E-02
121000000	1.52853017842926E-02	1.11717775180423E-02
121250000	0.015454027004778	1.10767165916284E-02
121500000	1.56193353231616E-02	1.09822735001101E-02
121750000	1.57878291904536E-02	1.08849553625241E-02
122000000	1.59537877586231E-02	1.07858280291921E-02
122250000	1.61169460335034E-02	1.06833904674879E-02
122500000	1.62800407776566E-02	1.05804260009872E-02
122750000	1.64433097065336E-02	1.04744530092537E-02
123000000	1.66046131125315E-02	1.03694682648161E-02
123250000	1.67655243991376E-02	1.02606281346342E-02
123500000	0.016923704736786	1.01485888885066E-02
123750000	1.70827192745805E-02	1.00365869649852E-02
124000000	1.72376174466081E-02	9.92159357086995E-03
124250000	1.73944605715046E-02	9.80409865269734E-03
124500000	1.75481618612219E-02	9.68741448443165E-03
124750000	0.017701359316007	9.56716885024631E-03
125000000	1.78538768824743E-02	9.44535517275299E-03
125250000	1.80050517163863E-02	9.32341761393079E-03
125500000	1.81551162316974E-02	9.19625534763138E-03
125750000	1.83028908688917E-02	9.06900344295466E-03
126000000	1.84502512501713E-02	8.94044295560422E-03
126250000	1.85949363255388E-02	8.80873528695377E-03
126500000	1.87399112730027E-02	8.67743864430455E-03
126750000	1.88829136770552E-02	8.54204284299824E-03
127000000	1.90250015158851E-02	8.40468059670482E-03
127250000	0.019164322267458	8.26880195222686E-03
127500000	1.93030153445567E-02	8.13059445239634E-03
127750000	1.94397504745662E-02	7.98882682474337E-03
128000000	1.95794069993011E-02	7.84659149148971E-03
128250000	1.97133153701122E-02	7.70255069069463E-03
128500000	1.98442776386591E-02	7.55594349675276E-03
128750000	0.019977360714977	7.41088530636396E-03
129000000	0.020108193755115	7.25987373567336E-03
129250000	2.02373325464729E-02	7.11002969684935E-03
129500000	2.03608729631027E-02	6.95929806335024E-03
129750000	0.020487216359626	6.80489537962596E-03
130000000	2.06117931606283E-02	6.64892101848957E-03
130250000	2.07339250851703E-02	6.4953244334488E-03
130500000	0.020853340994139	6.33605293707989E-03
130750000	2.09718734684191E-02	6.17480466811232E-03
131000000	2.10894696750967E-02	6.0144007837759E-03
131250000	2.12060613353177E-02	5.85272439934453E-03
131500000	2.13178010714174E-02	5.69032192890272E-03
131750000	2.14311634719385E-02	5.52484086533543E-03
132000000	2.15406395681395E-02	5.35799275862404E-03
132250000	2.16495422596218E-02	5.19121675947951E-03
132500000	2.17557685467616E-02	5.0205643811907E-03
132750000	2.18599352091625E-02	4.85097618520991E-03
133000000	2.19654798030423E-02	4.6799155913421E-03
133250000	2.20649587213332E-02	4.50610941730716E-03
133500000	0.022164483188674	4.33190868500551E-03
133750000	2.22619433835577E-02	4.15775561829671E-03
134000000	2.23573763072688E-02	3.97947488291833E-03
134250000	2.24516634487932E-02	3.80244221123826E-03
