# Hz S RI R 50
40000000	-0.226233880633773	-0.967309990396388
40250000	-0.237187833938776	-0.964564789370062
40500000	-0.248095545233759	-0.961726616965528
40750000	-0.258965380133706	-0.95873967343394
41000000	-0.269831546931948	-0.955644381176775
41250000	-0.280614846340056	-0.952411127938944
41500000	-0.291378366561532	-0.949045565598601
41750000	-0.30211490594003	-0.945565260150268
42000000	-0.312799365996066	-0.941963926500437
42250000	-0.323429745398928	-0.938239563243522
42500000	-0.334039432512447	-0.934382196655812
42750000	-0.344621641166398	-0.930429463432412
43000000	-0.355112837737349	-0.926353764564238
43250000	-0.36555144562035	-0.922124482487534
43500000	-0.375982147226832	-0.917814787593857
43750000	-0.386356970371864	-0.913371974968149
44000000	-0.396666739136927	-0.908787071357658
44250000	-0.406925486452599	-0.904124791518596
44500000	-0.417131064225064	-0.899334586055234
44750000	-0.427285852261282	-0.894421054772732
45000000	-0.437362133308269	-0.889388052886439
45250000	-0.447385998350781	-0.884236983033406
45500000	-0.457370117314174	-0.878996793895082
45750000	-0.467288221987914	-0.873613164996613
46000000	-0.477135060144365	-0.868139952238529
46250000	-0.486893745854852	-0.862550454651032
46500000	-0.496633743266615	-0.856839219920767
46750000	-0.506274818736138	-0.851033486764303
47000000	-0.515857925964022	-0.845102630978813
47250000	-0.525378768401051	-0.839037060093451
47500000	-0.534824408569968	-0.832917349135669
47750000	-0.544205736163595	-0.826666952350198
48000000	-0.553498419926236	-0.820300731376
48250000	-0.562747305311011	-0.813842875294492
48500000	-0.571893684100431	-0.807273784098465
48750000	-0.580952747790411	-0.800592050030439
49000000	-0.589949152512574	-0.793828027610763
49250000	-0.598874014049963	-0.78694877532681
49500000	-0.607715842012658	-0.779975135129281
49750000	-0.61647025057779	-0.772878511203927
50000000	-0.625149734584288	-0.765717950251313
50250000	-0.633735678166269	-0.758434777543981
50500000	-0.64224781321888	-0.751058116048617
50750000	-0.650680598266472	-0.743591354570805
51000000	-0.659011802033376	-0.736038808299019
51250000	-0.667250618745427	-0.728373393501852
51500000	-0.675422837555815	-0.720615078405096
51750000	-0.683490856180806	-0.712769039510216
52000000	-0.691454296521857	-0.704837832629002
52250000	-0.699353469363451	-0.696814533367668
52500000	-0.707143569720986	-0.688710510861327
52750000	-0.714832534427806	-0.680491364600363
53000000	-0.722436574500617	-0.672208262309155
53250000	-0.72995184565361	-0.663827014722594
53500000	-0.737359952668069	-0.655388172434926
53750000	-0.744658910918727	-0.646841088136249
54000000	-0.751884826214717	-0.638211324917989
54250000	-0.759008438230001	-0.629501033231332
54500000	-0.766019043365023	-0.620702286800633
54750000	-0.772922156031419	-0.611841364846034
55000000	-0.779722680335656	-0.602907005861039
55250000	-0.786437152121907	-0.593876455612986
55500000	-0.793034823730712	-0.584805057853259
55750000	-0.799517855469842	-0.575655312802565
56000000	-0.805922360116575	-0.566393797266378
56250000	-0.812200775478377	-0.557078240499311
56500000	-0.818374921370868	-0.547703238133674
56750000	-0.82443916847252	-0.538250302453972
57000000	-0.830393097773599	-0.528737094328751
57250000	-0.836240817790247	-0.519148742394781
57500000	-0.841972837128897	-0.509502515764824
57750000	-0.847589512209391	-0.499791201887044
58000000	-0.853099395643936	-0.490004868131349
58250000	-0.858504419982138	-0.480168974014272
58500000	-0.863809638278188	-0.470291262410677
58750000	-0.868968595581551	-0.46032513045705
59000000	-0.874024354824636	-0.450330053779034
59250000	-0.878981181460227	-0.440267566034173
59500000	-0.883784175940819	-0.430130050284802
59750000	-0.888492734435205	-0.419950434760323
60000000	-0.893094324898877	-0.409724470040902
60250000	-0.897545828509331	-0.399459231939102
60500000	-0.901911610205526	-0.389119044693945
60750000	-0.906158508936446	-0.378753180598019
61000000	-0.910259970288792	-0.368340366056696
61250000	-0.914269027085417	-0.357892455029759
61500000	-0.918142514858582	-0.347376266060974
61750000	-0.921895196799298	-0.33681893721948
62000000	-0.925533575661045	-0.32623987133555
62250000	-0.929047105490728	-0.315601353473626
62500000	-0.932442056342348	-0.304939505466825
62750000	-0.935692339717735	-0.294250041748146
63000000	-0.938846398944498	-0.28351342513365
63250000	-0.941870520683596	-0.272737031296266
63500000	-0.944761156852307	-0.261929488610675
63750000	-0.947526972505872	-0.25111834983848
64000000	-0.950189736113127	-0.240252064015909
64250000	-0.952706766997283	-0.229357729057903
64500000	-0.955108232120776	-0.218449092931165
64750000	-0.957378931386125	-0.207509980736506
65000000	-0.95952457770367	-0.196550459811574
65250000	-0.96155014955067	-0.185554090142474
65500000	-0.96343520414348	-0.174550033985112
65750000	-0.965210613104317	-0.163524941531672
66000000	-0.966878610544163	-0.152490349061614
66250000	-0.968372262158211	-0.141441820628974
66500000	-0.969785222464601	-0.130359657094751
66750000	-0.971043917390034	-0.119298459006983
67000000	-0.972196053996693	-0.108175281919219
67250000	-0.973213024340983	-9.70832012360431E-02
67500000	-0.97408807944363	-8.59620438034202E-02
67750000	-0.974844041527368	-7.48275892320264E-02
68000000	-0.975468536411533	-6.37172220717617E-02
68250000	-0.975990128344485	-5.25969502749072E-02
68500000	-0.976348610960412	-4.14490379363688E-02
68750000	-0.976615461970187	-3.03091957608096E-02
69000000	-0.976739419082588	-1.91800125481553E-02
69250000	-0.976725200624887	-8.04896831592124E-03
69500000	-0.976602179962191	3.07531547899636E-03
69750000	-0.976338080341651	1.42104751078102E-02
70000000	-0.975953459123098	2.53389711279405E-02
70250000	-0.975464334589984	0.036440507429087
70500000	-0.974828346037607	4.75593247783678E-02
70750000	-0.974070530900729	0.058656006142039
71000000	-0.973170313028903	6.97369048052825E-02
71250000	-0.972175725536736	8.07931524893482E-02
71500000	-0.971027637894233	9.18450290784427E-02
71750000	-0.969756712302286	0.102886091968845
72000000	-0.968375460467822	0.113906804937853
72250000	-0.966870563743326	0.124920649480564
72500000	-0.965217490647207	0.135869746362031
72750000	-0.963465815951195	0.1468547055433
73000000	-0.961566436413907	0.157801394966302
73250000	-0.959553750220386	0.168690153476491
73500000	-0.957422433026536	0.179595694334402
73750000	-0.955176441118639	0.190449455366276
74000000	-0.952792808578442	0.201248738883708
74250000	-0.950283789905716	0.212058206599391
74500000	-0.947659140880256	0.222825544466123
74750000	-0.944923968292439	0.233558274478877
75000000	-0.942045074681067	0.24427375200293
75250000	-0.939061890870761	0.254942452323157
75500000	-0.935951401714357	0.265553447859435
75750000	-0.932731669210332	0.276141993871232
76000000	-0.929381702829112	0.286693912431446
76250000	-0.925904123593519	0.297199451604199
76500000	-0.922345619567109	0.307659013889869
76750000	-0.918618876257791	0.318074151457358
77000000	-0.914807014983167	0.3284519203268
77250000	-0.910890711845652	0.338778848417132
77500000	-0.906833564392761	0.349080247294923
77750000	-0.90267161307138	0.359319853632935
78000000	-0.89840692942699	0.369489356347307
78250000	-0.893985518163673	0.379652307391706
78500000	-0.889498946375175	0.389708458558514
78750000	-0.884888801903572	0.399718543735873
79000000	-0.880156076224608	0.409683840438425
79250000	-0.875309910450627	0.419605786722046
79500000	-0.870347705285406	0.42944004904889
79750000	-0.865288293526187	0.439265522294054
80000000	-0.860109300899464	0.449001088238089
80250000	-0.854816114389986	0.458649210533245
80500000	-0.849449226832733	0.46827403363517
80750000	-0.843971777510389	0.477820911532311
81000000	-0.838347385056322	0.48730818781252
81250000	-0.832626159705016	0.496685816968248
81500000	-0.82682017771657	0.506033903712418
81750000	-0.820904758155546	0.515319477465132
82000000	-0.814893370219837	0.524536448054219
82250000	-0.808770872824807	0.533650253969319
82500000	-0.802549673008548	0.542730358027186
82750000	-0.796238075902625	0.551712437848607
83000000	-0.789813426623243	0.560658933043471
83250000	-0.783289476587433	0.569492157519018
83500000	-0.776665046769507	0.578264248947667
83750000	-0.769929332600685	0.586924326189693
84000000	-0.763133519186673	0.595554467076447
84250000	-0.7562209334135	0.604078856337283
84500000	-0.749246498023012	0.612527023490203
84750000	-0.742147400739434	0.62089088784503
85000000	-0.734976616688591	0.6291691310241
85250000	-0.727673512926959	0.637397215624797
85500000	-0.720311341122403	0.645471335873262
85750000	-0.712871551078045	0.653550674405949
86000000	-0.705306558981086	0.661450883994141
86250000	-0.697677583008234	0.669343913485842
86500000	-0.689987454434247	0.677098057076546
86750000	-0.682154611110247	0.684776188119643
87000000	-0.674295264297356	0.692353771230952
87250000	-0.666313498396716	0.699853681297571
87500000	-0.658256841128723	0.70727726748507
87750000	-0.650129991940241	0.714560679196148
88000000	-0.641924039939716	0.721798480736052
88250000	-0.633635228185268	0.728916143814432
88500000	-0.62528199584743	0.735935146717637
88750000	-0.616833865149079	0.74289179679916
89000000	-0.608321178494002	0.749722830842364
89250000	-0.599724235511615	0.75646547387346
89500000	-0.591065783522685	0.763091789550049
89750000	-0.582344693622976	0.76961184510277
90000000	-0.573506198337854	0.77607304398038
90250000	-0.564645797256236	0.78241568285074
90500000	-0.555725825402093	0.788616410218537
90750000	-0.546672609455594	0.794770859843838
91000000	-0.537607339302058	0.800780762498369
91250000	-0.528474880922506	0.806726052846822
91500000	-0.519270161132304	0.812549746788
91750000	-0.509994901801247	0.818243202515381
92000000	-0.500659449210643	0.823863252003839
92250000	-0.49127917759958	0.829373790781594
92500000	-0.481845487015972	0.834769768609065
92750000	-0.472347147661061	0.840060970604656
93000000	-0.46277214798617	0.845250237712023
93250000	-0.453147459670542	0.850292544985985
93500000	-0.443481070161569	0.855254988756058
93750000	-0.433754915076512	0.860123661510987
94000000	-0.423983909588952	0.864877956748995
94250000	-0.414174397628924	0.869494216925574
94500000	-0.404287780211903	0.874004537408947
94750000	-0.394398875898774	0.878409597658652
95000000	-0.384412302827621	0.88271003939941
95250000	-0.374396035212707	0.88689194274161
95500000	-0.364344949129222	0.890958735671673
95750000	-0.354240361397688	0.894901574752431
96000000	-0.344124931033663	0.898754464113268
96250000	-0.333941440455544	0.902476404683606
96500000	-0.323747814603077	0.906096890439612
96750000	-0.313501788921161	0.909589997668482
97000000	-0.303210502605788	0.912951558751468
97250000	-0.292861563542835	0.916220922278231
97500000	-0.2825083673593	0.919369245610043
97750000	-0.272122683066089	0.922395822904803
98000000	-0.26172230428584	0.925308418288534
98250000	-0.251267726778804	0.928086675427417
98500000	-0.240793336407101	0.930788681118446
98750000	-0.230300438682212	0.933337619082679
99000000	-0.219769296274723	0.935779274223662
99250000	-0.209228374919304	0.938094847002238
99500000	-0.1986469952362	0.940300897519784
99750000	-0.188056755145568	0.94240514708232
100000000	-0.177460156638123	0.944384095781957
100250000	-0.166802347373388	0.946227497082384
100500000	-0.156144623017456	0.94796628375924
100750000	-0.145501219012926	0.949565663059035
101000000	-0.134806738106652	0.951035199988154
101250000	-0.124107240512151	0.952424545019305
101500000	-0.113408548059049	0.953683879239753
101750000	-0.102687430527404	0.954816712199422
102000000	-9.19680099677408E-02	0.955850734518982
102250000	-0.081221137856176	0.95672497842727
102500000	-7.04969930136033E-02	0.957485401284216
102750000	-5.97356183989888E-02	0.958152554449569
103000000	-4.90015573552823E-02	0.958695198710778
103250000	-3.82589067125319E-02	0.95909512828871
103500000	-2.74957132677327E-02	0.959393526315274
103750000	-1.67390561324899E-02	0.959542427881897
104000000	-5.96075586179807E-03	0.959614167156588
104250000	4.77134660525883E-03	0.959567300127967
104500000	1.54999197200634E-02	0.959383633876823
104750000	2.62383075821664E-02	0.959066164073206
105000000	3.69998748887686E-02	0.958630706066852
105250000	0.0477115999341	0.958094179178042
105500000	5.84298967280806E-02	0.95744215702547
105750000	6.91511729176411E-02	0.956659915621297
106000000	7.98172020463851E-02	0.955768852090304
106250000	9.04957302079898E-02	0.954736592161824
106500000	0.101178412502377	0.953604643535867
106750000	0.111811054218475	0.952352483585253
107000000	0.122457607530977	0.950976782043382
107250000	0.133070272888884	0.949503820788577
107500000	0.143678292325991	0.947867442443184
107750000	0.154258206226059	0.946159908967912
108000000	0.164800048179408	0.944329238415911
108250000	0.175336975067376	0.942357128156033
108500000	0.185830766489292	0.940286224722618
108750000	0.19630764578832	0.938100741298059
109000000	0.206771555841174	0.935795338691403
109250000	0.217207508425199	0.933385696961134
109500000	0.227599117789047	0.930850227050252
109750000	0.237945082609854	0.928190732617804
110000000	0.248290846584024	0.925445029725937
110250000	0.258581472767484	0.922547934260542
110500000	0.268837314873076	0.919566088219582
110750000	0.279099839602275	0.916454986198388
111000000	0.289266578604528	0.913254757552009
111250000	0.299420241982029	0.909931382547419
111500000	0.309530762218492	0.906462112863563
111750000	0.319602052935596	0.902934175027802
112000000	0.329633812918035	0.899261928351046
112250000	0.339621589028468	0.89548505479535
112500000	0.349570563962301	0.891615493896794
112750000	0.359481528809263	0.887632252537974
113000000	0.369323643926618	0.883511224803796
113250000	0.379132823255677	0.879311025521857
113500000	0.388883248072037	0.875004412441535
113750000	0.398573149548722	0.870574571254503
114000000	0.408246107706847	0.866068341555331
114250000	0.41783353279997	0.861427078444493
114500000	0.427397576481966	0.856709307692647
114750000	0.43689489911644	0.851849335810257
115000000	0.44634030042035	0.846917504241614
115250000	0.455691166817618	0.841857472001431
115500000	0.465014091341927	0.836707999047322
115750000	0.474272162714021	0.831444847300603
116000000	0.483479829291716	0.826096703449354
116250000	0.492621947819537	0.820636675700283
116500000	0.50170957395142	0.815093934080947
116750000	0.510730262227471	0.809429380867158
117000000	0.519671511364175	0.803680728359838
117250000	0.528562182885979	0.797828437990951
117500000	0.537374988534457	0.791880278971954
117750000	0.546128315030803	0.785845816070766
118000000	0.554810953448733	0.779697953636199
118250000	0.56341537205405	0.773477403453806
118500000	0.571961506646142	0.767142715909543
118750000	0.580414198945872	0.760734280637285
119000000	0.588838257643618	0.754247763538108
119250000	0.597164143813012	0.747620049964119
119500000	0.605401536606089	0.740931363957121
119750000	0.61357291633423	0.73414574206733
120000000	0.621661192576963	0.727285126602005
120250000	0.629692208604778	0.720323809319264
120500000	0.637637994479621	0.713277230123103
120750000	0.645483176129269	0.706125029593056
121000000	0.653264720494495	0.69892563841197
121250000	0.660961485551833	0.691621499085696
121500000	0.668591658067241	0.684237062000531
121750000	0.676136868074874	0.676763658801659
122000000	0.683578907002381	0.669205261313516
122250000	0.69092443621792	0.661586370605223
122500000	0.698216257953175	0.653877203055381
122750000	0.705425169839774	0.646080686171618
123000000	0.712510222034679	0.638241574010009
123250000	0.719548032854755	0.63026565214324
123500000	0.726477025678474	0.622264260817064
123750000	0.733309797666861	0.614164580486252
124000000	0.740081732747737	0.605994408564374
124250000	0.746718863272024	0.59775549176828
124500000	0.753304720414211	0.58944230488448
124750000	0.759785266924045	0.581060457918422
125000000	0.766149456833257	0.572619528451911
125250000	0.772426162979145	0.564100817878185
125500000	0.778635737722115	0.555504290691691
125750000	0.78472721343112	0.546851185464005
126000000	0.79072641400759	0.538110454439875
126250000	0.796625431903146	0.529338788509359
126500000	0.802425741689083	0.520490935384748
126750000	0.808117291505792	0.511570136567824
127000000	0.813747263600699	0.502578040936943
127250000	0.819239292885288	0.493568504076063
127500000	0.824657157814271	0.484451013522207
127750000	0.82994581318678	0.475305479965055
128000000	0.835160248394322	0.466117335207226
128250000	0.840272260004038	0.456843922786618
128500000	0.845262038763906	0.447521424953459
128750000	0.850153737609498	0.438155359492712
129000000	0.85495261788096	0.42873259898417
129250000	0.859651009149708	0.419255649106808
129500000	0.864230183666105	0.409709126539501
129750000	0.868693506420871	0.400135846924162
130000000	0.873064281704785	0.390514315348703
130250000	0.877333784398382	0.380851986742142
130500000	0.881499892644922	0.37112363059991
130750000	0.885547525704661	0.361378096474812
131000000	0.88948758043483	0.351558258736371
131250000	0.893309640728387	0.341716557165537
131500000	0.897043968943517	0.331846567629593
131750000	0.900655161925891	0.321919172788782
132000000	0.904167844767513	0.311951837218424
132250000	0.907571592761507	0.301935631095393
132500000	0.910860060183304	0.291898488335763
132750000	0.914010712210796	0.281823012328909
133000000	0.917091132365516	0.271725826485419
133250000	0.920047989705773	0.261570889281283
133500000	0.922886759425448	0.251411162907765
133750000	0.925597520407268	0.241202783060701
134000000	0.928228826534523	0.230973124888551
134250000	0.930720353353907	0.220719589208081
134500000	0.933110833069891	0.210425481502711
134750000	0.935391947772275	0.200124123028647
135000000	0.937544720589491	0.189806072545391
135250000	0.939611646466359	0.179446485176303
135500000	0.941539406746074	0.169066121864837
135750000	0.943350667335901	0.158647764821657
136000000	0.945057470450379	0.14826617311947
136250000	0.946650783771183	0.137799526043092
136500000	0.948149494997321	0.127368205989681
136750000	0.949497026253724	0.11686788107245
137000000	0.950742923736514	0.106407447339561
137250000	0.951876548182137	9.59227801708907E-02
137500000	0.952884671765827	8.54133649575118E-02
137750000	0.953781351937143	7.49177697757742E-02
138000000	0.954583101843902	6.43700435697637E-02
138250000	0.955246495767429	5.38494305329337E-02
138500000	0.955787620820727	4.32986749873212E-02
138750000	0.956229552581295	3.27539951855979E-02
139000000	0.956565903993745	2.22209320504907E-02
139250000	0.956734607096576	1.16630249787997E-02
139500000	0.956829861523548	1.11719529256785E-03
139750000	0.956802495934799	-9.42807918058007E-03
140000000	0.956640348034701	-2.00010640632478E-02
140250000	0.956393935808911	-3.05393885979554E-02
140500000	0.956035575354504	-4.10956548092599E-02
140750000	0.955531036526803	-5.16253822104279E-02
141000000	0.954936823357588	-6.21671581513046E-02
141250000	0.954183605175773	-7.26945141629645E-02
141500000	0.953365534822421	-8.31909319710643E-02
141750000	0.952392992062259	-0.093716526587176
142000000	0.951314979438942	-0.104217617592717
142250000	0.950140669072995	-0.114705873800619
142500000	0.94884440993489	-0.125184481262696
142750000	0.947406671277695	-0.135619955356231
143000000	0.945886100488816	-0.146048787345915
143250000	0.944235885973832	-0.15650136410471
143500000	0.94246396477438	-0.166894095826083
143750000	0.940582229238686	-0.177256943504669
144000000	0.938592662349238	-0.187646979408903
144250000	0.93649985169394	-0.197990601216952
144500000	0.934287615812483	-0.20829510115752
144750000	0.931946243963553	-0.218585535244929
