# Hz S RI R 50
40000000	0.239460662598874	0.933707949641408
40250000	0.249844885425632	0.930937778216329
40500000	0.260188028904592	0.928068995260034
40750000	0.270524500865978	0.925061086628252
41000000	0.280781107644898	0.921959759137249
41250000	0.291030867868366	0.918754180322731
41500000	0.301252388655363	0.915410226474752
41750000	0.311393669059175	0.911940392717686
42000000	0.321540209483076	0.90840432704325
42250000	0.331596686496154	0.904743235552264
42500000	0.341654953054017	0.90096006209997
42750000	0.351666364255174	0.897071474080741
43000000	0.361617180503377	0.893073589109
43250000	0.371519554907759	0.88896937878965
43500000	0.381377409548824	0.884757393588858
43750000	0.39118839945147	0.880440090160599
44000000	0.400953372735276	0.875993276671437
44250000	0.410638232502818	0.871446010818212
44500000	0.420306638691114	0.86682978848519
44750000	0.429917902633889	0.86207017732529
45000000	0.439466616364985	0.857211030627219
45250000	0.448983431687347	0.852268340590086
45500000	0.458393903028476	0.847183983004053
45750000	0.467774827624669	0.84203949293055
46000000	0.477082597220374	0.836747822229219
46250000	0.486381718395329	0.831407131856196
46500000	0.495559791994089	0.825911346108544
46750000	0.50470661264134	0.820351168845033
47000000	0.513772972240325	0.814682695834762
47250000	0.522780691253075	0.808905905312587
47500000	0.531735136384236	0.80302781605767
47750000	0.540610151513435	0.797073835065306
48000000	0.549420749886531	0.791012210948694
48250000	0.558170090410417	0.784851544946064
48500000	0.566842878644481	0.778603237022859
48750000	0.575453409053634	0.772258944692101
49000000	0.583963670243459	0.765814713732098
49250000	0.592437321746043	0.759254618036934
49500000	0.60081947851474	0.752653927955542
49750000	0.609125997966388	0.745924990681352
50000000	0.617369034119696	0.739133328410983
50250000	0.625521540763927	0.732223558977707
50500000	0.633610809549768	0.725230287776702
50750000	0.641612530459146	0.718169884129714
51000000	0.64953255821766	0.711007003413353
51250000	0.657387362065433	0.703740768767126
51500000	0.665149585890999	0.696417508614198
51750000	0.672824960023542	0.689004381719168
52000000	0.680429347847866	0.681482970639242
52250000	0.687955366615622	0.673923506436973
52500000	0.695369448885929	0.666240425491512
52750000	0.702720931957612	0.658489848693224
53000000	0.709965164722836	0.650663238288504
53250000	0.717128979235589	0.642764411722913
53500000	0.724233632477617	0.634772527024555
53750000	0.731229273134042	0.626717933521115
54000000	0.738114343529364	0.618592914857075
54250000	0.744929526605344	0.61037016624794
54500000	0.751669537840013	0.602077722835478
54750000	0.758297349060678	0.593730497145204
55000000	0.764829840943156	0.585288292844347
55250000	0.771283037199945	0.576793204157534
55500000	0.777643720379168	0.568214767023098
55750000	0.783882473024649	0.559564430324376
56000000	0.790027362290922	0.550869006453507
56250000	0.796092915443262	0.542091800338529
56500000	0.802075754417252	0.533249466289112
56750000	0.807925740749907	0.524334468931156
57000000	0.813693426833271	0.515361474486528
57250000	0.819358792967762	0.506337775987707
57500000	0.824916605778457	0.497233648771113
57750000	0.830396574847961	0.488074568023211
58000000	0.835770324579091	0.478865592144054
58250000	0.841032161443117	0.469599957068039
58500000	0.846188987611136	0.460271942259004
58750000	0.851250502572176	0.450866975839056
59000000	0.856182899086563	0.441432879660584
59250000	0.861035568830938	0.431940170324912
59500000	0.865789715298998	0.422395476806396
59750000	0.870426548195669	0.412802081204874
60000000	0.87496743569597	0.403150357710488
60250000	0.879386076874758	0.393442186397176
60500000	0.88369987495146	0.383695565234523
60750000	0.887911777361108	0.373902303714698
61000000	0.892012416452551	0.364076804100726
61250000	0.895994052339934	0.354170283359105
61500000	0.899901009271905	0.344241744452664
61750000	0.903669627407879	0.334287418458807
62000000	0.907341207494249	0.324275323905045
62250000	0.910890169594192	0.314211697306305
62500000	0.91432302236427	0.304128404188146
62750000	0.917643763183042	0.29398867388015
63000000	0.92087272140595	0.283837262601875
63250000	0.923991534127214	0.273644382333213
63500000	0.926974882565991	0.263420278859488
63750000	0.929869328820474	0.253141804037075
64000000	0.932625667317066	0.242849166265386
64250000	0.935268054291689	0.23251111735866
64500000	0.93780978007603	0.222174073487751
64750000	0.940239004752345	0.211778859921481
65000000	0.942548097456344	0.201388218640462
65250000	0.944743271070922	0.190940301116427
65500000	0.946823863180581	0.18049223788361
65750000	0.948781642826022	0.170007751605079
66000000	0.950630753380269	0.159496991395651
66250000	0.952368721049768	0.148984166396186
66500000	0.953982639703276	0.138452852891269
66750000	0.955468957889851	0.127903258259222
67000000	0.956853109032259	0.11731679768546
67250000	0.958116344914002	0.106722942500609
67500000	0.959281624085327	9.61168900754165E-02
67750000	0.960303503941019	8.55010884197306E-02
68000000	0.961219623355168	7.48718007823949E-02
68250000	0.96201802299669	6.42408141022217E-02
68500000	0.962696435823676	5.36042355040122E-02
68750000	0.963247177064869	4.29472423010002E-02
69000000	0.9636984762024	3.22834185659319E-02
69250000	0.964016741715202	2.16187960927095E-02
69500000	0.964229737308271	0.010962842242451
69750000	0.964323096487163	2.87716922593743E-04
70000000	0.96429492475836	-1.03662141828427E-02
70250000	0.964161130722102	-2.10462725046633E-02
70500000	0.963902388514454	-3.16944282444591E-02
70750000	0.963509666721094	-4.23802245460436E-02
71000000	0.963013571514413	-5.30454309931376E-02
71250000	0.962396822398033	-6.36907272384222E-02
71500000	0.96165271463094	-7.43408989895651E-02
71750000	0.96082095246183	-8.49661141998038E-02
72000000	0.959844629921748	-9.56003385437559E-02
72250000	0.958746385172216	-0.10621730375352
72500000	0.957521980689166	-0.116826813620155
72750000	0.95621989415751	-0.127412252173168
73000000	0.954769782933989	-0.138009445738008
73250000	0.953225531739416	-0.148573573361745
73500000	0.951551950568869	-0.159108600374966
73750000	0.949744208998494	-0.169651765405708
74000000	0.94784174427281	-0.18012779401497
74250000	0.945810868531389	-0.190636075953818
74500000	0.943670495174204	-0.201098450976322
74750000	0.94142004138449	-0.211544838614188
75000000	0.939035333867664	-0.221951192763954
75250000	0.936541685697396	-0.232337068973744
75500000	0.933937048398811	-0.24271730151552
75750000	0.931235991634065	-0.253051959084102
76000000	0.928391638014604	-0.26335853863049
76250000	0.925422157760972	-0.273621913752631
76500000	0.922361894986658	-0.283862909648828
76750000	0.919191043385303	-0.294058394975707
77000000	0.915904946989526	-0.304247494292299
77250000	0.91251551340895	-0.31438195413561
77500000	0.908986514371128	-0.324467656361654
77750000	0.905367091989587	-0.334531295021375
78000000	0.901621445839329	-0.34454492616157
78250000	0.89777745786262	-0.354533927440941
78500000	0.89381168637747	-0.364469157369462
78750000	0.889753021949649	-0.374361496911403
79000000	0.885562234652491	-0.384211698638157
79250000	0.881277288197089	-0.394005735100973
79500000	0.876872705403681	-0.403764805408644
79750000	0.872374699872987	-0.413475432511501
80000000	0.867731158790265	-0.423114689878326
80250000	0.863024563732809	-0.432718383245599
80500000	0.858165381024237	-0.442280679203442
80750000	0.853253135041611	-0.451779303547644
81000000	0.848214084752741	-0.461227066233362
81250000	0.843055761539935	-0.470605433411542
81500000	0.837803337240317	-0.479936601224821
81750000	0.83244750585132	-0.489208470377111
82000000	0.826997483220138	-0.498440395749622
82250000	0.821416409892236	-0.507584176978819
82500000	0.815752136573736	-0.516678986860941
82750000	0.809967580987827	-0.525698560887914
83000000	0.804108328722621	-0.53467376831038
83250000	0.798140896098123	-0.543582473695519
83500000	0.792064979757737	-0.552409818485821
83750000	0.785903094736554	-0.56117384827204
84000000	0.779639172151517	-0.569864106473474
84250000	0.773275865918997	-0.578496920176782
84500000	0.766815394518291	-0.587062778946115
84750000	0.760248288764509	-0.595544188344211
85000000	0.753607077459631	-0.603961955308778
85250000	0.746858531289576	-0.612319671198954
85500000	0.740046690896643	-0.620566382007096
85750000	0.733091707960613	-0.628782600194266
86000000	0.726079215433927	-0.636886891410152
86250000	0.718954836310682	-0.644929158977356
86500000	0.711739522829029	-0.652891626645376
86750000	0.704456228891247	-0.660761420816457
87000000	0.697079981762686	-0.668558015861722
87250000	0.689631076983939	-0.676267149967303
87500000	0.682062212664167	-0.683885116398452
87750000	0.674420165029229	-0.691463001341942
88000000	0.666695616356908	-0.698912685117858
88250000	0.658901528542843	-0.70628822251454
88500000	0.651004338943955	-0.713579484889188
88750000	0.643015039728849	-0.720788390364807
89000000	0.634967030878911	-0.727900638780593
89250000	0.626828778119627	-0.73491434019111
89500000	0.618622738745107	-0.741845632409203
89750000	0.610319555889623	-0.748704002287164
90000000	0.601953525802291	-0.755460504527042
90250000	0.593480541992514	-0.762108793118113
90500000	0.584987437696674	-0.768679362663568
90750000	0.576410345629669	-0.775142316825046
91000000	0.56773569124513	-0.781527004499432
91250000	0.55899108457257	-0.787801982338864
91500000	0.550184537989208	-0.793984766085532
91750000	0.541301945565194	-0.800066387299278
92000000	0.532369108275574	-0.806035888095499
92250000	0.523351195933002	-0.811918518436102
92500000	0.514252064635883	-0.81769186582411
92750000	0.505100848004002	-0.823396956391653
93000000	0.495898376218252	-0.828968415499863
93250000	0.486613578665896	-0.834455522633877
93500000	0.477286824031606	-0.839826093540939
93750000	0.467885179981583	-0.845086695952888
94000000	0.458407901566698	-0.850244834520953
94250000	0.448904490518431	-0.855306454903936
94500000	0.439344230902827	-0.860254881283927
94750000	0.429709209411228	-0.865102102011347
95000000	0.420038744362341	-0.869839155801362
95250000	0.4102846530841	-0.874456334886925
95500000	0.400474860823296	-0.878977185428292
95750000	0.39064404043281	-0.883385636345202
96000000	0.380769999063704	-0.887685844257046
96250000	0.370815578619902	-0.891877822461431
96500000	0.360810364233531	-0.895956225108078
96750000	0.350798029880215	-0.899918501976306
97000000	0.340729056115368	-0.903766262067403
97250000	0.330576169011324	-0.907499958029379
97500000	0.320421967066357	-0.911153007503465
97750000	0.310226278462483	-0.914653229022075
98000000	0.299965744061702	-0.918048429778185
98250000	0.289655591743984	-0.921322815329037
98500000	0.279349996107564	-0.924499157853158
98750000	0.268974378803314	-0.927538745615339
99000000	0.258573185763831	-0.93046754297189
99250000	0.248147736799736	-0.933286370323051
99500000	0.237698910111338	-0.93597890494047
99750000	0.22721532439374	-0.938567148955146
100000000	0.216683728220417	-0.941036379365656
100250000	0.206119771814309	-0.943383203005412
100500000	0.19554274955951	-0.945610177004218
100750000	0.184931545432894	-0.947714508043281
101000000	0.174305535154537	-0.949703078621733
101250000	0.16365407819778	-0.951574069761592
101500000	0.152974436007292	-0.953321435749793
101750000	0.14228931406594	-0.954954921747028
102000000	0.131575482317742	-0.956472543469073
102250000	0.120840977788778	-0.957859954938316
102500000	0.110106183068266	-0.959123594408625
102750000	9.93408579182054E-02	-0.960274804540602
103000000	8.85565900587327E-02	-0.961291170947635
103250000	7.77833333103657E-02	-0.962196001200254
103500000	6.69579299898905E-02	-0.962972265112097
103750000	5.61814279602684E-02	-0.96363553786411
104000000	4.53562678744433E-02	-0.964188469670774
104250000	3.45235519096995E-02	-0.964592321444474
104500000	2.37146557083625E-02	-0.964889962472377
104750000	1.28753001734116E-02	-0.965050590361338
105000000	2.0452773364104E-03	-0.965104259698496
105250000	-8.77972460603599E-03	-0.965025470282898
105500000	-1.96341529852451E-02	-0.964863450076851
105750000	-3.04468200443377E-02	-0.96451037236189
106000000	-4.12857043487367E-02	-0.96408639665863
106250000	-5.20978161100303E-02	-0.963502389764406
106500000	-6.29199988055559E-02	-0.962849045179203
106750000	-0.073747548630467	-0.962018030480948
107000000	-0.084544213983159	-0.961108769732407
107250000	-9.53140772862896E-02	-0.960061061873927
107500000	-0.106117927250204	-0.958867817437714
107750000	-0.116898450675664	-0.957570220412916
108000000	-0.127615392841111	-0.95618311645726
108250000	-0.138379653090501	-0.954616913324966
108500000	-0.149092781718509	-0.952970239796911
108750000	-0.159793436976664	-0.951181248751224
109000000	-0.170482982131349	-0.949269119901437
109250000	-0.181146556694394	-0.947261370099332
109500000	-0.191800151061846	-0.945114315132123
109750000	-0.202395980095629	-0.942845380517561
110000000	-0.213001279812386	-0.940460402324038
110250000	-0.223544568996288	-0.937947398108381
110500000	-0.234090304761593	-0.935354224566087
110750000	-0.244592205639519	-0.932571581457235
111000000	-0.255047169947696	-0.929728153188034
111250000	-0.265526107979151	-0.92673600778349
111500000	-0.275928030834356	-0.923643303217109
111750000	-0.286312864359411	-0.920411844097516
112000000	-0.296649733225376	-0.917077269919132
112250000	-0.306938280716629	-0.913616100609175
112500000	-0.317199336635656	-0.91005375090529
112750000	-0.327425322452231	-0.906343383972147
113000000	-0.337599366812822	-0.902558821890695
113250000	-0.347730276508943	-0.898629632535896
113500000	-0.357826836817742	-0.894615685477397
113750000	-0.367872350043189	-0.890451640260408
114000000	-0.377866835605907	-0.8861986287515
114250000	-0.387830399317471	-0.881826829747158
114500000	-0.397728548365164	-0.877332540839204
114750000	-0.407585334452329	-0.872733131733383
115000000	-0.41737900122295	-0.868015677860234
115250000	-0.427134852490277	-0.86318191317249
115500000	-0.436814497312174	-0.85824356681936
115750000	-0.446438260714842	-0.853217388297204
116000000	-0.456036695465891	-0.848051260290775
116250000	-0.465546014992731	-0.842785700679535
116500000	-0.475002054641987	-0.837420320622542
116750000	-0.484396643023822	-0.831944547915371
117000000	-0.493731897177902	-0.826344259727034
117250000	-0.502997840202553	-0.820674743130388
117500000	-0.512229294110838	-0.814859492245421
117750000	-0.521350188709446	-0.808956758680734
118000000	-0.530427186568828	-0.802950248326297
118250000	-0.539430675588615	-0.79685809832594
118500000	-0.548369560831074	-0.790638684497811
118750000	-0.557236979576054	-0.784343151493923
119000000	-0.566020473288759	-0.77790826127693
119250000	-0.574733806903513	-0.771410933757249
119500000	-0.583384400117469	-0.764777561375132
119750000	-0.591945932528648	-0.758089055248189
120000000	-0.600456287770007	-0.751261477989932
120250000	-0.608888656646372	-0.744376249951952
120500000	-0.617197151718042	-0.737362007021665
120750000	-0.62545781237082	-0.730279825908267
121000000	-0.633633000781131	-0.723087113409337
121250000	-0.641728199144803	-0.715796276368343
121500000	-0.649737858959594	-0.708428022363622
121750000	-0.657663247027136	-0.700984162372484
122000000	-0.6655034383248	-0.693441558005776
122250000	-0.673240512228241	-0.685756633427902
122500000	-0.680928136245047	-0.678041170024796
122750000	-0.688498119195449	-0.670236743612019
123000000	-0.695978064619849	-0.662301030384017
123250000	-0.703384686783346	-0.654352552479906
123500000	-0.71069011885338	-0.646262198930589
123750000	-0.717905419428171	-0.638114968390876
124000000	-0.725037226197282	-0.62988098467869
124250000	-0.732060257438945	-0.62156050380355
124500000	-0.738985184331211	-0.613181705834283
124750000	-0.745819646356259	-0.604689504254744
125000000	-0.752577277819677	-0.596139421247484
125250000	-0.759220527007185	-0.587500627671235
125500000	-0.765744410076991	-0.578815865449808
125750000	-0.772201701455852	-0.570032906752659
126000000	-0.778531638137325	-0.56117640847319
126250000	-0.784772155680573	-0.552257352551188
126500000	-0.790928089036235	-0.54326951477616
126750000	-0.796949478696586	-0.534206084679901
127000000	-0.802896184187738	-0.525071999226417
127250000	-0.808733123396651	-0.515895854024323
127500000	-0.81445822234837	-0.506610849186205
127750000	-0.820059222639961	-0.49728178830025
128000000	-0.825571044604514	-0.48791065972774
128250000	-0.830971563741539	-0.478456800447821
128500000	-0.836271318436659	-0.468940889214851
128750000	-0.841457365742806	-0.459367341193866
129000000	-0.846521251465266	-0.449736471625672
129250000	-0.851495949660993	-0.440053629545799
129500000	-0.856341366915183	-0.430323191145786
129750000	-0.861090965816339	-0.420524034931404
130000000	-0.865732157321759	-0.410655298847257
130250000	-0.870252408450344	-0.40076179775213
130500000	-0.874666590827327	-0.390814804117446
130750000	-0.878948328763579	-0.380819349557987
131000000	-0.883122960664893	-0.370756783119721
131250000	-0.887184264333464	-0.360648246549264
131500000	-0.891137053649858	-0.350518273880536
131750000	-0.894980084982673	-0.340336519448049
132000000	-0.898686617721742	-0.330103704815664
132250000	-0.902293345813687	-0.319840855052735
132500000	-0.905759174364459	-0.309517348830637
132750000	-0.909121720810272	-0.299162812589779
133000000	-0.912385487274629	-0.288778937683612
133250000	-0.915502384777423	-0.278372592631584
133500000	-0.9185181120409	-0.267912190780287
133750000	-0.921394083108027	-0.257422570345396
134000000	-0.924165343556729	-0.246913803024355
134250000	-0.926791920384179	-0.236347644428377
134500000	-0.929337654320509	-0.225775094588889
134750000	-0.931731887634177	-0.215171390068082
135000000	-0.934032928095009	-0.204538230859631
135250000	-0.936173873326859	-0.19388762660861
135500000	-0.938234632382843	-0.183195498068936
135750000	-0.940143924676719	-0.172481652560013
136000000	-0.941925660989766	-0.161771090784531
136250000	-0.943632095908652	-0.151022859255203
136500000	-0.945183484184928	-0.14027891521126
136750000	-0.946604260049507	-0.129485780676531
137000000	-0.947897324758162	-0.118689468616846
137250000	-0.949102019556436	-0.107907291305081
137500000	-0.950153260604614	-9.71056443596946E-02
137750000	-0.951076650813682	-8.62513691355589E-02
138000000	-0.951873696654465	-0.075413345347313
138250000	-0.952593671904313	-0.064595007847069
138500000	-0.953153182164924	-5.37486533760931E-02
138750000	-0.95359907761997	-4.28929049703071E-02
139000000	-0.953904376186197	-3.20365740956258E-02
139250000	-0.954099977602251	-2.11696387699364E-02
139500000	-0.954173643821514	-1.03156038930545E-02
139750000	-0.954111112805842	5.6439442511285E-04
140000000	-0.953950356847267	1.13999305791701E-02
140250000	-0.953644967937245	2.22633448897706E-02
140500000	-0.953208661387928	3.30830355679918E-02
140750000	-0.952673056369513	4.39423294422038E-02
141000000	-0.951989785403123	5.47787348280342E-02
141250000	-0.951212948441471	0.065604915954709
141500000	-0.950282074380134	7.64008886669473E-02
141750000	-0.94924974176138	8.72168127991061E-02
142000000	-0.948078366434462	9.80125215262575E-02
142250000	-0.946817274568787	0.108779505466327
142500000	-0.945403541501134	0.119528991633654
142750000	-0.943863513576587	0.130262650741828
143000000	-0.942197739338617	0.140980283184374
143250000	-0.940424554782952	0.15168840590121
143500000	-0.938535529012425	0.16236032296125
143750000	-0.936520538381053	0.173027125146232
144000000	-0.934370961290247	0.183631127646108
144250000	-0.932121253853022	0.194257058451461
144500000	-0.929743364177878	0.204807834682157
