# Hz S RI R 50
40000000	-0.306179079776466	-0.898078673584771
40250000	-0.404066377701029	-0.856930151777507
40500000	-0.496689828394474	-0.804859464712455
40750000	-0.582789179037322	-0.742533341038515
41000000	-0.661189150596145	-0.67078646037276
41250000	-0.730825529815268	-0.590655586677832
41500000	-0.790795018401048	-0.503171168509756
41750000	-0.840325781649793	-0.409567782441382
42000000	-0.878782963007267	-0.311144656904478
42250000	-0.905737921838369	-0.209223957919567
42500000	-0.920903321666441	-0.105169076523866
42750000	-0.924186760856767	-4.25145481652462E-04
43000000	-0.915652274535014	0.103679655900527
43250000	-0.895502326776464	0.205762549772972
43500000	-0.864165995980252	0.304541723391204
43750000	-0.822138657876647	0.398816557773389
44000000	-0.770110073612504	0.487454096562895
44250000	-0.708827097746598	0.569376763892628
44500000	-0.639181498116911	0.64368002856777
44750000	-0.562117682641526	0.709579744509429
45000000	-0.478670141036158	0.766377648316084
45250000	-0.389908648972413	0.813473209483239
45500000	-0.296938112386451	0.850483776216031
45750000	-0.200916394823755	0.877070857063617
46000000	-0.102975206749137	0.893084621065719
46250000	-4.23274650957535E-03	0.898460955167088
46500000	9.41800610973529E-02	0.893156569696776
46750000	0.191123439301738	0.877463788288969
47000000	0.285582466227145	0.851575476796001
47250000	0.376526338709425	0.815851777714541
47500000	0.462986339631035	0.770778305019963
47750000	0.544010589378773	0.716897190961568
48000000	0.618782757665202	0.654828341278404
48250000	0.68649917566996	0.585248757648699
48500000	0.746457096872696	0.508946490055961
48750000	0.798006010627364	0.42677101060969
49000000	0.840593827166931	0.33958217009561
49250000	0.87374698576635	0.2482891986431
49500000	0.89709811396382	0.153940856074452
49750000	0.910333881434795	5.74864722685233E-02
50000000	0.91327872350094	-3.99726729436529E-02
50250000	0.905827662591228	-0.137423209534318
50500000	0.888006148900736	-0.233766776183736
50750000	0.859926912674995	-0.32790630642602
51000000	0.82177722335938	-0.418733016523771
51250000	0.773998000071578	-0.505261007266968
51500000	0.716960009658803	-0.58645321974881
51750000	0.651273244674005	-0.661224263891777
52000000	0.577592198654129	-0.728702468672671
52250000	0.496688509787116	-0.788006474183076
52500000	0.409470748378275	-0.838263226034471
52750000	0.31690592333558	-0.878825080163956
53000000	0.220078789912012	-0.909074190717877
53250000	0.120145696002183	-0.928529324452456
53500000	1.83151704913594E-02	-0.936807329680319
53750000	-8.41747880505081E-02	-0.933691543300876
54000000	-0.185979128052461	-0.919125048544923
54250000	-0.285818174691344	-0.893174275170113
54500000	-0.382354979684388	-0.856084636840309
54750000	-0.474338728723463	-0.808222072187927
55000000	-0.560475243891608	-0.750201585349412
55250000	-0.639648613940633	-0.682701048927297
55500000	-0.710763309937078	-0.606567219141253
55750000	-0.7728214049922	-0.522791292637235
56000000	-0.824999912643594	-0.432473498833438
56250000	-0.866582099629193	-0.336793489727486
56500000	-0.897019049934577	-0.237053964391625
56750000	-0.915897899967637	-0.134590721618722
57000000	-0.923020261844333	-0.030778265614791
57250000	-0.918319817000618	7.30131877597299E-02
57500000	-0.901948459912701	0.175400505144119
57750000	-0.874123570404063	0.275031725840868
58000000	-0.835347718610086	0.370666144260103
58250000	-0.786187478277908	0.461028678021362
58500000	-0.72739174993535	0.545056335478807
58750000	-0.659761111751246	0.621670143440568
59000000	-0.584278565120461	0.690017258887665
59250000	-0.501962777094631	0.749275781912187
59500000	-0.413920974519021	0.798855561234382
59750000	-0.321283125880161	0.838231084453481
60000000	-0.225261798315074	0.867032524144175
60250000	-0.127036889379349	0.885032502175074
60500000	-2.78323595881841E-02	0.892103781261781
60750000	7.11800804093573E-02	0.888336076055952
61000000	0.168818786742828	0.873889277906733
61250000	0.263997691034251	0.84898201133409
61500000	0.355597248796134	0.814056109339347
61750000	0.442630549828888	0.769611712654556
62000000	0.524131275326454	0.716177267949443
62250000	0.599226285728856	0.654477458696571
62500000	0.667103518543143	0.585259760840585
62750000	0.727098514116407	0.509308839774232
63000000	0.778539275867549	0.427545657099517
63250000	0.820914229769494	0.340873767978664
63500000	0.853778675332696	0.250313218867434
63750000	0.876811623769841	0.156783118549679
64000000	0.889730941122453	6.13908843430598E-02
64250000	0.892446900183863	-3.48455530101187E-02
64500000	0.884909332119667	-0.130851932533967
64750000	0.867177658737694	-0.225569103479637
65000000	0.839441428571451	-0.31795018720613
65250000	0.801933131058325	-0.406983829621457
65500000	0.755076031410303	-0.491605625369978
65750000	0.699333055766825	-0.570878924680885
66000000	0.635283135701186	-0.643898808369122
66250000	0.563591074841868	-0.70974637835874
66500000	0.485044706159529	-0.767645897420178
66750000	0.400475903422136	-0.816854853722275
67000000	0.310828984112937	-0.856755329105195
67250000	0.217103237148816	-0.886786003149605
67500000	0.120395922450626	-0.906512417191249
67750000	2.17975708537309E-02	-0.915582767046368
68000000	-7.74626924495078E-02	-0.913825033020658
68250000	-0.176243582847895	-0.901155149858586
68500000	-0.273309895285196	-0.877631376504559
68750000	-0.367472044875733	-0.843446938477145
69000000	-0.45750633424015	-0.798962573863628
69250000	-0.542296964859245	-0.744602320424239
69500000	-0.620684620777173	-0.681037317673524
69750000	-0.691663806039101	-0.608968229805909
70000000	-0.754282726914751	-0.529286400340192
70250000	-0.807694398504422	-0.44296015487161
70500000	-0.851158871071215	-0.351048095044815
70750000	-0.884086633031399	-0.254746189167422
71000000	-0.905987100016611	-0.155256578308103
71250000	-0.916616137843595	-0.053930831930969
71500000	-0.915760485241421	4.79779048841204E-02
71750000	-0.903451307030756	0.149168138250498
72000000	-0.879855778392563	0.248286175034647
72250000	-0.845301742432112	0.34407038643573
72500000	-0.800221651334897	0.435222865835939
72750000	-0.74530040266589	0.52067842268062
73000000	-0.681181545624506	0.599302207919618
73250000	-0.608826985908477	0.670091862185583
73500000	-0.529139558204707	0.732250483555931
73750000	-0.443190284820053	0.784978099276986
74000000	-0.352119105897772	0.827700919066763
74250000	-0.25707455326575	0.859925684371555
74500000	-0.159313776197441	0.881349716762098
74750000	-6.00670275611367E-02	0.891745586371822
75000000	3.94964077211076E-02	0.8911170071121
75250000	0.138081098430076	0.879503993914898
75500000	0.23452162874573	0.857187075738196
75750000	0.327684957917668	0.824481393274728
76000000	0.416421062021484	0.78186842762583
76250000	0.499733805554942	0.729906344598383
76500000	0.576692059874878	0.669328284783231
76750000	0.646406746473923	0.600883338026843
77000000	0.708128373909073	0.525428426557606
77250000	0.761164790993791	0.44389285254353
77500000	0.804945095314544	0.357241654023674
77750000	0.839018195334065	0.266487910381328
78000000	0.863038232388662	0.172759795445426
78250000	0.876760248530648	7.70918993919137E-02
78500000	0.880060494993207	-1.93835273663689E-02
78750000	0.8729370057024	-0.115546172043841
79000000	0.855489648566294	-0.210335494898628
79250000	0.827924434401592	-0.302636613104511
79500000	0.790586919356379	-0.391399214217518
79750000	0.743880625419255	-0.475634086850062
80000000	0.688346886629389	-0.554339848386875
80250000	0.62462901730658	-0.626605665787273
80500000	0.553428543857218	-0.691633697490842
80750000	0.475554057436967	-0.748645008681705
81000000	0.391912422397913	-0.796919326833489
81250000	0.303464937010014	-0.835905105077706
81500000	0.211193378386483	-0.865110214982792
81750000	0.116177111741079	-0.884173119624669
82000000	1.94831293095544E-02	-0.892800570911748
82250000	-7.76802368369526E-02	-0.890870163580418
82500000	-0.174230302482646	-0.878369022700244
82750000	-0.268960948272853	-0.855363749584772
83000000	-0.360779190179516	-0.822120541394397
83250000	-0.448534643102504	-0.778962608600522
83500000	-0.531184590537762	-0.726382579191389
83750000	-0.607697075282141	-0.66494796495842
84000000	-0.677091153038226	-0.595416519517218
84250000	-0.73850095567084	-0.518566385049223
84500000	-0.791166027028523	-0.435335998792604
84750000	-0.834388709559131	-0.346683038227226
85000000	-0.867624442435422	-0.253732614998326
85250000	-0.890421282865158	-0.15757118353402
85500000	-0.902459579111648	-0.059414868203262
85750000	-0.903605960619441	3.95308394120188E-02
86000000	-0.8937953659022	0.138073709118669
86250000	-0.873122368804919	0.234942173429858
86500000	-0.841871371100658	0.328942865251409
86750000	-0.800406869749806	0.418932862594314
87000000	-0.749257883322646	0.503753688483645
87250000	-0.689019722099739	0.582416515692513
87500000	-0.62048925683662	0.653881022381197
87750000	-0.54450901180778	0.717281164777752
88000000	-0.462039412805929	0.771877006500117
88250000	-0.374077106996387	0.816998736989772
88500000	-0.281790605612024	0.85207651454173
88750000	-0.186253459196261	0.876743802295316
89000000	-8.86825887840814E-02	0.890685947058812
89250000	9.75191540871249E-03	0.893759413022137
89500000	0.107783928365554	0.885982743948733
89750000	0.204295740275654	0.867466549259071
90000000	0.298044024772292	0.838484292106692
90250000	0.387966465145687	0.799392865290551
90500000	0.472880948750935	0.750735113709155
90750000	0.551865870164449	0.693072731587064
91000000	0.623983615381896	0.627161153046687
91250000	0.688329535509487	0.553822843920997
91500000	0.744186025246071	0.473946126367829
91750000	0.790879702824158	0.388517049913223
92000000	0.827892013174451	0.298554130775747
92250000	0.854805291114483	0.205165987166433
92500000	0.871300645133123	0.109446571092607
92750000	0.877216023691744	1.25934714446911E-02
93000000	0.872485893556625	-8.42744065988988E-02
93250000	0.857161254372892	-0.179953330071275
93500000	0.831477041288116	-0.273352267478383
93750000	0.795726647580445	-0.363328688455112
94000000	0.750364221352502	-0.448823083401105
94250000	0.695930812841321	-0.528795329221651
94500000	0.633074241056434	-0.602311885115188
94750000	0.562545410189673	-0.668480532733748
95000000	0.485214716537202	-0.726504456406102
95250000	0.401981826953752	-0.775714388900775
95500000	0.313874892481653	-0.815522660564138
95750000	0.2219513350798	-0.845422632236596
96000000	0.127287255811273	-0.865033474409871
96250000	3.10391360231012E-02	-0.874177206976639
96500000	-6.56224854066717E-02	-0.872699004450507
96750000	-0.161532761538408	-0.860642030080723
97000000	-0.255575374585729	-0.838128577508207
97250000	-0.346574676334627	-0.805435346479772
97500000	-0.433428680150382	-0.762975932476638
97750000	-0.515124354218103	-0.711259605425577
98000000	-0.590653386383789	-0.650877691110631
98250000	-0.659075364724113	-0.582579800484079
98500000	-0.719636070473602	-0.507216692782193
98750000	-0.771534846310357	-0.425699272515244
99000000	-0.814200891275958	-0.338980906712045
99250000	-0.847106090007621	-0.248137470685179
99500000	-0.86988442933132	-0.154267186364186
99750000	-0.882273570826851	-5.84925678624177E-02
100000000	-0.884083458303347	3.80409633557645E-02
100250000	-0.875339228105033	0.134168244694069
100500000	-0.856193270309638	0.228730352772778
100750000	-0.826826618934348	0.320604345088822
101000000	-0.78761767843224	0.408700252000242
101250000	-0.739073318393615	0.491943316472928
101500000	-0.681755364534523	0.569397048496722
101750000	-0.616366904222522	0.640134877262799
102000000	-0.543733992517294	0.703305613093726
102250000	-0.464624455826585	0.758170349296522
102500000	-0.380064571815059	0.804057006863084
102750000	-0.291030781658913	0.84052568128005
103000000	-0.198580781760095	0.867063225187316
103250000	-0.103814908902804	0.883375878037507
103500000	-7.84148382755819E-03	0.88929959916893
103750000	8.82352462504009E-02	0.884735259675459
104000000	0.183229971900827	0.869751435401495
104250000	0.276030783258884	0.844520740665226
104500000	0.365533580806792	0.809369452216991
104750000	0.450703872316418	0.76463016138854
105000000	0.530545696299506	0.710857296052143
105250000	0.604046986233215	0.648685643838305
105500000	0.670371008586559	0.578841570967543
105750000	0.728667881271143	0.502123306321896
106000000	0.778284251717319	0.419461407519807
106250000	0.818544496814354	0.331792947414653
106500000	0.848982214087248	0.240173387435775
106750000	0.8692079616567	0.145728682224057
107000000	0.87892570424347	4.95566367867952E-02
107250000	0.878009894985717	-4.71625708402424E-02
107500000	0.866446194432094	-0.143289035261974
107750000	0.844327766800199	-0.237593011224472
108000000	0.811926389744783	-0.328919609248141
108250000	0.769580537255627	-0.416196630548289
108500000	0.717817209637408	-0.498277618775383
108750000	0.657227119688926	-0.574170851961579
109000000	0.588590440254787	-0.642885981128554
109250000	0.512683968633673	-0.703620535322224
109500000	0.430488601748177	-0.755532074085163
109750000	0.343020610619368	-0.797980913749725
110000000	0.251354519878379	-0.830472021037966
110250000	0.156652950050741	-0.852509486268015
110500000	6.00846665070556E-02	-0.863899460150951
110750000	-3.71060120894098E-02	-0.864412952495973
111000000	-0.133714497888319	-0.854167342332353
111250000	-0.228543342520234	-0.83318410385756
111500000	-0.320355534995109	-0.801833016371177
111750000	-0.40805457913669	-0.760485646650864
112000000	-0.490507048620514	-0.709682597765139
112250000	-0.566744975510738	-0.650121719362774
112500000	-0.635808099017183	-0.582556472686608
112750000	-0.696867532227349	-0.507854389458472
113000000	-0.749233652435071	-0.426976529449414
113250000	-0.792255690258326	-0.340931300080931
113500000	-0.825488550262631	-0.250835190193963
113750000	-0.848541121846942	-0.157781607770487
114000000	-0.861215099674404	-6.29181880325508E-02
114250000	-0.863399661683728	3.25817130166269E-02
114500000	-0.855132162266025	0.127573212399974
114750000	-0.836561460681741	0.220920581859547
115000000	-0.808007963400945	0.311507327243691
115250000	-0.769804461503633	0.398310059185091
115500000	-0.722498564257329	0.480295803466488
115750000	-0.666675141109605	0.556555820426494
116000000	-0.603041236862282	0.626194166998548
116250000	-0.532336985723821	0.688504264056301
116500000	-0.45546480690857	0.742725750752107
116750000	-0.373288145208085	0.788295541914467
117000000	-0.28678441883092	0.82476030194373
117250000	-0.196946475971057	0.851665607914577
117500000	-0.104793230915683	0.86878548950212
117750000	-1.13969197440911E-02	0.875927232663037
118000000	8.22150899123723E-02	0.87303591602492
118250000	0.174940360656916	0.860114551739635
118500000	0.265755863063063	0.837336947941192
118750000	0.353655444159566	0.804968019031047
119000000	0.43761431572807	0.763357199523658
119250000	0.516705203943801	0.712939611077021
119500000	0.589968512356265	0.654253646420544
119750000	0.65659243608662	0.587954783506384
120000000	0.715769066594276	0.514804184464579
120250000	0.766804709862314	0.435564006676837
120500000	0.80904418004479	0.351147852252728
120750000	0.841973843042594	0.262481857031304
121000000	0.865142220027068	0.170614761169935
121250000	0.878230991523296	7.65476121631159E-02
121500000	0.880982496736649	-1.85888540723236E-02
121750000	0.873322217592137	-0.113660110474865
122000000	0.855269457478737	-0.207535386915096
122250000	0.826929517983825	-0.299080598088134
122500000	0.788597749446491	-0.387183435954113
122750000	0.740653169631846	-0.470648268305969
123000000	0.683641034136559	-0.548511366816174
123250000	0.618194250754522	-0.619677807468482
123500000	0.545079753286706	-0.68327592747229
123750000	0.465140214277059	-0.738421847459162
124000000	0.379395725767251	-0.78434446632417
124250000	0.288942294945798	-0.820426258467931
124500000	0.194843833550243	-0.84612474082619
124750000	9.83410460204465E-02	-0.861104074445306
125000000	7.04537353239037E-04	-0.865122969610276
125250000	-9.68353710445515E-02	-0.858061001096291
125500000	-0.192966803792671	-0.840039125433768
125750000	-0.286468924691541	-0.811272867639682
126000000	-0.376070963704557	-0.772088430634175
126250000	-0.46062867974414	-0.723078234196699
126500000	-0.539034187695879	-0.664871868037328
126750000	-0.610257251774455	-0.598247329482985
127000000	-0.673428430134583	-0.52412455412732
127250000	-0.727740950004354	-0.443515296143494
127500000	-0.772529695821834	-0.357446439058711
127750000	-0.807287307964045	-0.267127291056734
128000000	-0.831643652622934	-0.173736622569609
128250000	-0.845375770150146	-7.84473122265945E-02
128500000	-0.848395393462076	1.75172550365492E-02
128750000	-0.840719469542671	0.112901697332213
129000000	-0.82258114007203	0.206546109355484
129250000	-0.794352386557903	0.297315443758944
129500000	-0.756385685289447	0.384154029714358
129750000	-0.709279616357088	0.465989325573613
130000000	-0.653691549022962	0.541941560618417
130250000	-0.590395265199953	0.611148100257858
130500000	-0.520179650983096	0.672874484775758
130750000	-0.443951160498001	0.726446284152759
131000000	-0.362597906013829	0.771352887659968
131250000	-0.277165242347533	0.807135115838966
131500000	-0.188643592048872	0.83353083803018
131750000	-9.80331357080359E-02	0.850247762634943
132000000	-6.33757150815578E-03	0.857182617592952
132250000	0.08539180372378	0.854339707028327
132500000	0.176106151233788	0.841788687226434
132750000	0.26488468995076	0.81973049066967
133000000	0.350727126518211	0.788436121657262
133250000	0.432735795739769	0.748311069554006
133500000	0.510004161995654	0.699748425727258
133750000	0.581686378597133	0.643307005062796
134000000	0.647069157496699	0.579623565304737
134250000	0.705366406252238	0.509325373109907
134500000	0.755968599984522	0.433209197077737
134750000	0.798303964055582	0.352087063362989
135000000	0.831856212148929	0.266793781729895
135250000	0.856261413785048	0.17826112900925
135500000	0.871110817299964	8.74313303755221E-02
135750000	0.8762447819813	-4.68745672969572E-03
136000000	0.871489934377701	-0.09705968200676
136250000	0.856831086068736	-0.188684206185898
136500000	0.832351771120663	-0.278479183783269
136750000	0.798211892610868	-0.365405393622342
137000000	0.754726291598571	-0.448402639577147
137250000	0.702309801127847	-0.526458016079167
137500000	0.641448800952051	-0.598581219893853
137750000	0.572849504201989	-0.663868980644123
138000000	0.497194859016421	-0.721437324478409
138250000	0.415377531770287	-0.770472768518448
138500000	0.328303925309762	-0.810286753141755
138750000	0.237060985980901	-0.840276923459301
139000000	0.142741744236029	-0.859975735666812
139250000	4.65183821574218E-02	-0.868989996085677
139500000	-0.050382064694965	-0.867132144455201
139750000	-0.146691857686705	-0.854344997265892
140000000	-0.2411200534964	-0.830702373558891
140250000	-0.332438205255306	-0.79642099222446
140500000	-0.419393001952155	-0.751945268754164
140750000	-0.500811752932858	-0.697822378492303
141000000	-0.575581337655124	-0.634696175483749
141250000	-0.642691356961053	-0.563468585256716
141500000	-0.701189773447054	-0.485060931013682
141750000	-0.750361817398252	-0.400513107148613
142000000	-0.789497167741718	-0.311014181246701
142250000	-0.818157855331	-0.217763186361561
142500000	-0.835955725783781	-0.122036995495896
142750000	-0.842741447663082	-2.51111378824332E-02
143000000	-0.838476458937044	7.16996482989602E-02
143250000	-0.823363757334785	0.167169522607719
143500000	-0.797641122427349	0.259972963582632
143750000	-0.761730699865279	0.349011731104722
144000000	-0.716232778698285	0.433134280701452
144250000	-0.661834577549955	0.511346185478421
144500000	-0.599311533202344	0.582701267497151
