# Hz S RI R 50
40000000	8.31168755036777E-03	-1.51412829808436E-02
40250000	8.15395580865972E-03	-1.51652735496146E-02
40500000	7.99425168238709E-03	-1.51905154945631E-02
40750000	7.83630442304674E-03	-1.52112997620112E-02
41000000	7.6756425960069E-03	-1.52319177159758E-02
41250000	7.51500231291073E-03	-1.52507581464184E-02
41500000	7.35675834212089E-03	-1.52658908265209E-02
41750000	7.19684126862325E-03	-1.52810415177627E-02
42000000	7.03768489673815E-03	-1.52933462317666E-02
42250000	6.87446982217688E-03	-0.015303494013756
42500000	6.71303194911661E-03	-0.015311950780709
42750000	6.55211484086351E-03	-1.53190034184141E-02
43000000	6.3918213111493E-03	-1.53240877666937E-02
43250000	0.006229267247756	-0.015326632812594
43500000	6.06798884077083E-03	-1.53278223826381E-02
43750000	5.90553575310014E-03	-1.53253755878418E-02
44000000	5.74477989712572E-03	-1.53237426758847E-02
44250000	5.5836202545246E-03	-1.53206167420554E-02
44500000	5.42085886143096E-03	-1.53127204842754E-02
44750000	5.25969369835286E-03	-1.53031614201855E-02
45000000	5.09724416497362E-03	-1.52941035042665E-02
45250000	4.9358205740971E-03	-1.52807767300787E-02
45500000	4.77459764218252E-03	-1.52683548685784E-02
45750000	4.61203115804689E-03	-1.52510535203729E-02
46000000	4.45191799572576E-03	-1.52331464592001E-02
46250000	4.29075747544497E-03	-1.52136329391019E-02
46500000	4.12938616660205E-03	-1.51923249731318E-02
46750000	3.96980632633684E-03	-1.51692241258714E-02
47000000	3.80814359674207E-03	-1.51419490389405E-02
47250000	3.6480190912185E-03	-1.51148736165596E-02
47500000	3.48829532861931E-03	-1.50851812195511E-02
47750000	3.32777162496345E-03	-1.50546032698989E-02
48000000	3.16814962899701E-03	-1.50222425219233E-02
48250000	3.0104295958333E-03	-1.49871665218484E-02
48500000	2.85036329761068E-03	-1.49488092517257E-02
48750000	2.69230142969991E-03	-0.014911350473862
49000000	2.53426301093553E-03	-1.48702302136743E-02
49250000	2.3781918220998E-03	-1.48277327081319E-02
49500000	2.2192407379284E-03	-1.47819737532875E-02
49750000	2.06358979727027E-03	-1.47359556465387E-02
50000000	1.90820649167666E-03	-1.46883942583207E-02
50250000	1.75037517284758E-03	-1.46377770967025E-02
50500000	1.59551480610285E-03	-1.45868126789482E-02
50750000	1.44094761261336E-03	-1.45338087834946E-02
51000000	1.28896586264907E-03	-1.44776379527496E-02
51250000	1.13376028406126E-03	-1.44220102022028E-02
51500000	9.81073953157785E-04	-0.014361286691366
51750000	8.28488681867391E-04	-1.42999516235208E-02
52000000	6.78544105242307E-04	-1.42369195281909E-02
52250000	5.26896287283816E-04	-1.41736709977846E-02
52500000	3.76948687821056E-04	-1.41067523533649E-02
52750000	2.27275800960681E-04	-1.40375305993181E-02
53000000	7.99780174035565E-05	-1.39685412618116E-02
53250000	-6.91097678840864E-05	-1.38973795419159E-02
53500000	-2.15288447855938E-04	-1.38239126314419E-02
53750000	-3.612644253012E-04	-1.37474353075484E-02
54000000	-5.06085361766392E-04	-1.36716622169958E-02
54250000	-6.51157212857312E-04	-1.35930249116676E-02
54500000	-7.94663149322401E-04	-0.013512343915825
54750000	-9.38044709859367E-04	-1.34296565756795E-02
55000000	-1.07900000534452E-03	-1.33453153644993E-02
55250000	-1.21964389324846E-03	-1.32589757831223E-02
55500000	-1.35931031257344E-03	-1.31733034117627E-02
55750000	-1.49739790960222E-03	-1.30815877944729E-02
56000000	-1.63657081009888E-03	-1.29919910219994E-02
56250000	-1.77277458950649E-03	-1.28995180376054E-02
56500000	-1.90788645947777E-03	-1.28053545643144E-02
56750000	-2.04332518053859E-03	-1.27123032244355E-02
57000000	-2.17682402389906E-03	-1.26130984729117E-02
57250000	-2.30978065129209E-03	-1.25149727450966E-02
57500000	-2.43933707881098E-03	-0.012413400654128
57750000	-2.57001464965999E-03	-1.23120524301758E-02
58000000	-2.69998932719326E-03	-1.22073442563964E-02
58250000	-2.82695980376173E-03	-1.21039750390648E-02
58500000	-2.95271659664498E-03	-1.19962431687294E-02
58750000	-3.07795593503407E-03	-1.18874830987134E-02
59000000	-3.20296722910394E-03	-1.17778305310501E-02
59250000	-3.32514621568953E-03	-1.16680766333581E-02
59500000	-3.44800486058589E-03	-1.15532572711498E-02
59750000	-3.56713428973557E-03	-1.14379986835893E-02
60000000	-3.68517872195058E-03	-1.13241404272501E-02
60250000	-3.80371666373563E-03	-0.011206814239206
60500000	-3.91959147873337E-03	-1.10868542296758E-02
60750000	-4.03250099739327E-03	-1.09684371457756E-02
61000000	-4.14492420570424E-03	-1.08470375813415E-02
61250000	-4.25825377701433E-03	-1.07234080731401E-02
61500000	-4.36835279900042E-03	-1.05994268116923E-02
61750000	-4.47780094997316E-03	-1.04753392114374E-02
62000000	-4.58411192765698E-03	-0.01034839298772
62250000	-4.69243070095625E-03	-1.02194637980413E-02
62500000	-4.79629847467837E-03	-1.00889562585298E-02
62750000	-4.89925102761382E-03	-9.95935655145332E-03
63000000	-5.00009696326935E-03	-9.82706000291974E-03
63250000	-5.0998474024161E-03	-9.69439022838852E-03
63500000	-5.19876114770345E-03	-9.56085542235924E-03
63750000	-5.29548442936079E-03	-9.42312968908168E-03
64000000	-5.39134764550772E-03	-9.28583053979446E-03
64250000	-5.48423407761381E-03	-9.14814314593392E-03
64500000	-5.57637879512737E-03	-9.01028438572994E-03
64750000	-5.66748511664887E-03	-8.87049017472227E-03
65000000	-5.75559755854346E-03	-8.72934516526043E-03
65250000	-5.84177433500992E-03	-8.58609555163851E-03
65500000	-5.92758746989822E-03	-8.44270986316517E-03
65750000	-6.01137139658594E-03	-8.29932801047715E-03
66000000	-6.09399859770635E-03	-8.15187480834066E-03
66250000	-6.17355664686701E-03	-8.00657909317893E-03
66500000	-6.25191208502371E-03	-7.85870047489935E-03
66750000	-6.32860346981981E-03	-7.70881325525822E-03
67000000	-6.40336763592898E-03	-7.5591593453459E-03
67250000	-6.47735705974026E-03	-7.40903404434894E-03
67500000	-6.54891820451948E-03	-7.25747579825891E-03
67750000	-6.61835038016139E-03	-7.10634877953243E-03
68000000	-6.68685124937346E-03	-6.95313053223967E-03
68250000	-6.75316204334701E-03	-6.79688174056105E-03
68500000	-6.81698607437182E-03	-6.64229228982411E-03
68750000	-6.8785281192178E-03	-6.48703291099419E-03
69000000	-6.93852750848905E-03	-6.3305196676056E-03
69250000	-6.99902202182249E-03	-6.17336132507861E-03
69500000	-7.05609677067495E-03	-6.01613117152219E-03
69750000	-7.11036687145723E-03	-5.85626985136226E-03
70000000	-7.16202907672942E-03	-5.69865547100002E-03
70250000	-7.21508624034646E-03	-5.53730648270055E-03
70500000	-7.26362634062638E-03	-5.37717876233805E-03
70750000	-7.31204278651345E-03	-5.21487740449697E-03
71000000	-7.35826899779822E-03	-5.05225971395994E-03
71250000	-7.39899578266702E-03	-4.89010199873468E-03
71500000	-7.44243669150078E-03	-4.72701348110462E-03
71750000	-7.4817432707949E-03	-4.5632579084702E-03
72000000	-7.52085857925164E-03	-4.39896474535301E-03
72250000	-7.55585803080582E-03	-4.23343514322862E-03
72500000	-7.59051786118395E-03	-4.06851403984606E-03
72750000	-7.62222197390102E-03	-3.90252822956029E-03
73000000	-7.65076738299253E-03	-3.73664076605725E-03
73250000	-7.67924561437893E-03	-3.57026686006405E-03
73500000	-7.70433412136197E-03	-3.40290853864059E-03
73750000	-7.72917279414093E-03	-3.23516289856332E-03
74000000	-7.75293553062479E-03	-3.06906465957473E-03
74250000	-0.007770264343799	-2.90167247245718E-03
74500000	-7.79006192414114E-03	-2.73226943827954E-03
74750000	-7.8057436960906E-03	-2.56286662038018E-03
75000000	-7.82054162098261E-03	-2.39635248460028E-03
75250000	-7.83129284015099E-03	-2.22624071832746E-03
75500000	-7.84255855583101E-03	-2.05590602380853E-03
75750000	-7.84883384451561E-03	-1.88763602542394E-03
76000000	-7.85572529082533E-03	-1.71826199451145E-03
76250000	-7.85854422549733E-03	-1.54883630154122E-03
76500000	-7.86101226545163E-03	-1.37779336694633E-03
76750000	-7.86016535131458E-03	-1.20853099462771E-03
77000000	-7.85737293075582E-03	-1.03744557250376E-03
77250000	-7.85323961393299E-03	-8.66650141976163E-04
77500000	-7.84793423955899E-03	-6.98239279150585E-04
77750000	-7.83948555610347E-03	-5.27443122281597E-04
78000000	-7.8292950069021E-03	-3.58293474984325E-04
78250000	-7.81680456811295E-03	-1.88446962950144E-04
78500000	-7.80152853135087E-03	-1.76416092452855E-05
78750000	-7.78587328074806E-03	1.51192222048954E-04
79000000	-7.76718491681229E-03	3.21104561397216E-04
79250000	-7.74642615216931E-03	4.91349418466844E-04
79500000	-7.72384709681037E-03	6.60558988670367E-04
79750000	-7.7010274875296E-03	8.29306856932742E-04
80000000	-7.67340356861637E-03	9.97178794467192E-04
80250000	-7.64383656529705E-03	1.16645085681472E-03
80500000	-7.61418660052239E-03	1.33538064116732E-03
80750000	-7.58107772957704E-03	1.50357089289155E-03
81000000	-7.54705290519178E-03	1.67040567090263E-03
81250000	-7.50842894671094E-03	1.83718110422636E-03
81500000	-7.46949424350003E-03	2.00544874401433E-03
81750000	-7.43081496065377E-03	2.17197903955498E-03
82000000	-7.38858623971657E-03	2.33908088492472E-03
82250000	-7.34218377861597E-03	2.50371346941636E-03
82500000	-7.29563067251376E-03	2.66899820835223E-03
82750000	-7.24676478138458E-03	2.83475395028407E-03
83000000	-7.19563083489726E-03	2.99827659587552E-03
83250000	-7.14321291508083E-03	3.16069653693319E-03
83500000	-7.08814943133473E-03	3.32477913943788E-03
83750000	-7.03082631895115E-03	3.48840923634633E-03
84000000	-6.97305742327427E-03	3.64928630053807E-03
84250000	-6.91216199697509E-03	3.81117722364238E-03
84500000	-6.84939611388674E-03	3.97210706322655E-03
84750000	-6.78467756147467E-03	4.13291825487858E-03
85000000	-6.71735324241402E-03	4.29197923218307E-03
85250000	-6.65023576206842E-03	4.45035822590125E-03
85500000	-6.57936142683122E-03	4.61069083156774E-03
85750000	-6.50713229251213E-03	4.76602091867847E-03
86000000	-6.43279479202867E-03	4.92442701920412E-03
86250000	-6.35731531221576E-03	5.07814547977999E-03
86500000	-6.27997962102933E-03	5.23308124972778E-03
86750000	-6.1983108350215E-03	5.38760451382717E-03
87000000	-6.11753253499884E-03	5.54117276727173E-03
87250000	-6.03335004169316E-03	5.69292802578825E-03
87500000	-5.94630334363879E-03	5.84461804967828E-03
87750000	-5.85947581331604E-03	5.99477942283755E-03
88000000	-5.77182339234807E-03	6.14382108904626E-03
88250000	-5.67910573329481E-03	6.29253795072009E-03
88500000	-5.58739219470165E-03	6.44022257012101E-03
88750000	-5.49134078775888E-03	6.58630899364858E-03
89000000	-5.39567928347418E-03	6.73095906668105E-03
89250000	-5.29754049906327E-03	6.87548659343457E-03
89500000	-5.19796818077117E-03	7.01827843453358E-03
89750000	-5.09476934544112E-03	7.16019160323688E-03
90000000	-4.99164054562461E-03	7.30131425410406E-03
90250000	-4.88677944812997E-03	7.44100200079569E-03
90500000	-4.77941208774214E-03	7.58005638917901E-03
90750000	-4.67118902676874E-03	7.71686769003501E-03
91000000	-4.56068567900166E-03	7.85369230815635E-03
91250000	-4.44797944657318E-03	7.98722468356659E-03
91500000	-4.33516649876935E-03	8.12266580900321E-03
91750000	-4.21948033977002E-03	8.25505488251698E-03
92000000	-4.10269370555754E-03	8.38551870322934E-03
92250000	-3.98272885328378E-03	8.5146062596577E-03
92500000	-3.86357061988625E-03	8.64310592451132E-03
92750000	-3.74210365590861E-03	8.77318832213581E-03
93000000	-3.61862593437026E-03	8.89719621820975E-03
93250000	-3.49363363342024E-03	9.02164572113921E-03
93500000	-3.36545258185018E-03	9.14579312826416E-03
93750000	-3.23827379875984E-03	9.26736955272288E-03
94000000	-3.10858550417618E-03	9.38722411047415E-03
94250000	-2.9777206380514E-03	9.50567731638781E-03
94500000	-2.84416083587574E-03	9.62374562245039E-03
94750000	-2.71144893352475E-03	9.73868842166056E-03
95000000	-2.57547584434772E-03	9.85340306854541E-03
95250000	-2.43795679672153E-03	9.96670043366834E-03
95500000	-2.30018916272468E-03	1.00768480875485E-02
95750000	-2.16030792745497E-03	1.01863883152138E-02
96000000	-2.01870926282448E-03	0.010293630693091
96250000	-1.87579968625292E-03	1.04027595717776E-02
96500000	-1.73360416517055E-03	0.010506484844066
96750000	-1.58748564279803E-03	1.06084277327138E-02
97000000	-1.44038751302788E-03	1.07113067526396E-02
97250000	-1.2934922683622E-03	1.08108684066798E-02
97500000	-1.14298695620321E-03	0.01090902641049
97750000	-9.94613968069621E-04	1.10058985039849E-02
98000000	-8.41921131482828E-04	1.11012864212725E-02
98250000	-6.87714330557499E-04	1.11935902708417E-02
98500000	-5.34844036866285E-04	1.12854130013814E-02
98750000	-3.7863286475633E-04	1.13734901923952E-02
99000000	-2.22050286575049E-04	1.14620571247994E-02
99250000	-6.6047243116445E-05	1.15479658255205E-02
99500000	9.26174302156186E-05	1.16350266529846E-02
99750000	2.54874703774918E-04	1.17157187701941E-02
100000000	4.14131741627035E-04	1.17969044658268E-02
100250000	5.75504347185325E-04	1.18750558547937E-02
100500000	7.39124692036937E-04	1.19528376506255E-02
100750000	9.03158667701343E-04	1.20274092127935E-02
101000000	1.06778379001477E-03	1.21016284189382E-02
101250000	1.23218689403458E-03	1.21735211360694E-02
101500000	1.40088457814363E-03	1.22420797910748E-02
101750000	1.56855186088139E-03	1.23103958833599E-02
102000000	1.73727450680056E-03	1.23762810191606E-02
102250000	1.90698248220734E-03	1.24389928824077E-02
102500000	2.07739809585581E-03	1.25014667953125E-02
102750000	2.24977276709725E-03	1.25600873817663E-02
103000000	2.42276281362945E-03	1.26198203317125E-02
103250000	2.5944750647138E-03	1.26756395142871E-02
103500000	2.76915914065966E-03	1.27297452876832E-02
103750000	2.94331996226676E-03	1.27811317398588E-02
104000000	3.11850126474954E-03	1.28317529261787E-02
104250000	3.29430475421227E-03	1.28805254310305E-02
104500000	3.47115253783614E-03	1.29273936330033E-02
104750000	3.64780585476265E-03	1.29697655577714E-02
105000000	3.82818253264481E-03	1.30125845113461E-02
105250000	4.00391928289105E-03	1.30531037850512E-02
105500000	4.18357876271121E-03	1.30883046773023E-02
105750000	4.36445129191678E-03	1.31254547958275E-02
106000000	4.54500084655173E-03	1.31597830523703E-02
106250000	4.72530976735874E-03	1.31915556262264E-02
106500000	4.90798773555252E-03	1.32217890840089E-02
106750000	5.08813631547146E-03	1.32506036725866E-02
107000000	5.27113349480273E-03	1.32741770162509E-02
107250000	5.45458104383302E-03	1.32971201963575E-02
107500000	5.63809117644257E-03	0.013318521250216
107750000	5.82180116807987E-03	1.33394130486515E-02
108000000	6.00527493974432E-03	0.013356833597169
108250000	6.18947355131267E-03	1.33715104714463E-02
108500000	6.37395327058411E-03	1.33835896195064E-02
108750000	6.55888216526915E-03	1.33936520995258E-02
109000000	6.74427080171537E-03	1.34032616795431E-02
109250000	6.92928954124479E-03	1.34088507010722E-02
109500000	7.11413790620445E-03	1.34150921598763E-02
109750000	7.3012008758937E-03	1.34173921585838E-02
110000000	7.48688950857633E-03	1.34157474565138E-02
110250000	7.67285977810959E-03	1.34143662597788E-02
110500000	7.86036707798776E-03	1.34098219437653E-02
110750000	8.04534450479132E-03	1.34036383736965E-02
111000000	8.23368485757611E-03	1.33948656050304E-02
111250000	8.41981654094522E-03	1.33842203165625E-02
111500000	8.60668598446122E-03	1.33708637379274E-02
111750000	8.79443443105309E-03	1.33563315868385E-02
112000000	8.97936039775195E-03	1.33393221888621E-02
112250000	9.16491119861665E-03	1.33198866437054E-02
112500000	9.35292194569088E-03	1.32996035574342E-02
112750000	9.53910801798227E-03	1.32760990574476E-02
113000000	9.72617415584336E-03	1.32480601167183E-02
113250000	9.91139767776101E-03	1.32202933225023E-02
113500000	1.00979757189622E-02	0.013192024551827
113750000	0.010284400932459	1.31584234193159E-02
114000000	1.04687200702302E-02	1.31234067672587E-02
114250000	1.06547524376282E-02	1.30875334727261E-02
114500000	1.08397398005703E-02	1.30498520274323E-02
114750000	1.10252826100831E-02	1.30078368505555E-02
115000000	1.12093979111587E-02	1.29651736331932E-02
115250000	1.13933978618191E-02	1.29186793160531E-02
115500000	1.15773467044216E-02	0.01287285463832
115750000	1.17608873200988E-02	1.28225736522117E-02
116000000	0.011946205982673	1.27727693428183E-02
116250000	1.21286818173177E-02	1.27180489699336E-02
116500000	1.23118065089444E-02	1.26631719887979E-02
116750000	1.24934643648163E-02	1.26049690506939E-02
117000000	1.26735275198753E-02	1.25456044602971E-02
117250000	1.28532267302135E-02	1.24836152347392E-02
117500000	1.30346796514386E-02	1.24180951198081E-02
117750000	1.32123532829625E-02	1.23523561574584E-02
118000000	1.33929607671376E-02	1.22833701483881E-02
118250000	1.35713029527423E-02	1.22127894979488E-02
118500000	1.37496458273543E-02	1.21417680960621E-02
118750000	1.39226485988131E-02	1.20682194053367E-02
119000000	1.41007772715012E-02	1.19892785446877E-02
119250000	1.42788750654731E-02	1.19103771594334E-02
119500000	1.44503894919284E-02	1.18295925180115E-02
119750000	1.46259326445925E-02	1.17457927458308E-02
120000000	0.014798257913705	1.16631071923124E-02
120250000	1.49717069360532E-02	1.15740880922285E-02
120500000	1.51409650269696E-02	1.14851922878534E-02
120750000	1.53113931097772E-02	1.13934098219484E-02
121000000	0.015483011345927	1.13027185912493E-02
121250000	1.56500304997466E-02	0.011206851929048
121500000	1.58174344551246E-02	1.11107976839967E-02
121750000	1.59864911929804E-02	1.10111038364487E-02
122000000	1.61518478832294E-02	1.09114575027668E-02
122250000	1.63160902495681E-02	1.08073053852583E-02
122500000	1.64803861256012E-02	1.07031170257433E-02
122750000	1.66429904805322E-02	0.010595790455041
123000000	1.68055870602169E-02	1.04873465952565E-02
123250000	1.69659066393207E-02	1.03787299529406E-02
123500000	1.71246323157107E-02	0.010264650342577
123750000	1.72854650374992E-02	1.01509746108872E-02
124000000	1.74408225676632E-02	1.00344764368006E-02
124250000	0.017598115004907	9.91586481833264E-03
124500000	1.77523581406793E-02	9.79670705194117E-03
124750000	1.79057086209894E-02	9.67525567912861E-03
125000000	1.80581314993467E-02	9.55164768459186E-03
125250000	1.82092848610943E-02	9.42802611601865E-03
125500000	1.83602905698848E-02	9.30013852254357E-03
125750000	1.85069565275026E-02	9.17217568530764E-03
126000000	1.86556732880635E-02	9.04152959861547E-03
126250000	1.88007505243436E-02	8.90718716506165E-03
126500000	1.89460848819674E-02	8.77488199135449E-03
126750000	1.90892522905561E-02	8.63779808316278E-03
127000000	1.92313120867759E-02	8.49926727422057E-03
127250000	1.93714743897298E-02	8.36056314612615E-03
127500000	1.95108533819854E-02	8.22117183801603E-03
127750000	1.96474172181725E-02	8.07642893600841E-03
128000000	1.97842039062882E-02	7.9358121703897E-03
128250000	1.99178200091915E-02	7.78726750000693E-03
128500000	2.00514386925553E-02	7.63935563617774E-03
128750000	2.01836256343377E-02	7.4927251361637E-03
129000000	2.03134482527659E-02	7.34208273622935E-03
129250000	0.020443008374248	7.18953881372328E-03
129500000	2.05677373226804E-02	7.03622770607816E-03
129750000	2.06938982878987E-02	6.88037252003465E-03
130000000	2.08180271104815E-02	6.72463223698047E-03
130250000	2.09399631903024E-02	6.56734217882859E-03
130500000	2.10589005672503E-02	6.40725459611505E-03
130750000	2.11787338011498E-02	6.24461848272528E-03
131000000	2.12952362574286E-02	6.08116765963065E-03
131250000	2.14116199863741E-02	5.91893471660381E-03
131500000	0.021525042889407	5.7547652370482E-03
131750000	2.16368163565706E-02	5.5867263045399E-03
132000000	2.17460181754303E-02	5.41822745803433E-03
132250000	2.18551216237306E-02	5.24863159505263E-03
132500000	2.19604609929945E-02	5.07895028352242E-03
132750000	2.20660543035202E-02	4.90698994302975E-03
133000000	2.21706627249526E-02	4.73295697545704E-03
133250000	2.22707853510989E-02	4.55814701037644E-03
133500000	0.022369630375055	4.38307610077486E-03
133750000	2.24658217998188E-02	4.20619261258216E-03
134000000	0.022560938747378	4.02717498754616E-03
