# Hz S RI R 50
40000000	-0.226259829626119	-0.967226270343332
40250000	-0.237202920479972	-0.964486780231311
40500000	-0.248126759794144	-0.961643982507676
40750000	-0.259004040880904	-0.958648526714596
41000000	-0.269855686542794	-0.955530884939142
41250000	-0.280646495268385	-0.952310799287873
41500000	-0.29139839173108	-0.948964337932644
41750000	-0.302136767718783	-0.945481436426814
42000000	-0.312818636487714	-0.941862121220758
42250000	-0.323459967193231	-0.938151819805076
42500000	-0.33407615862241	-0.934289666499902
42750000	-0.344626392108011	-0.930305651661983
43000000	-0.355135512646744	-0.926259516865927
43250000	-0.365589815352244	-0.922029813382073
43500000	-0.375998463300683	-0.917703198898008
43750000	-0.386385420722785	-0.913272646881583
44000000	-0.396698557869822	-0.908703431456986
44250000	-0.406948768667619	-0.904032278179257
44500000	-0.417150004914726	-0.89924098499623
44750000	-0.427294712051746	-0.894308350773872
45000000	-0.43740531471595	-0.889284783374601
45250000	-0.447403890735355	-0.88413909532583
45500000	-0.457395495122381	-0.878878296732235
45750000	-0.467317141010533	-0.873532713200112
46000000	-0.477145854702628	-0.868026672903316
46250000	-0.486926905859569	-0.862452564876805
46500000	-0.496657622393038	-0.856732779572966
46750000	-0.506296090268847	-0.850909594830169
47000000	-0.515887248123948	-0.844982947434734
47250000	-0.525406944228623	-0.838936201932643
47500000	-0.5348514833005	-0.832799200147821
47750000	-0.544215023542467	-0.826560126861278
48000000	-0.55352043366604	-0.820192351785778
48250000	-0.56274918136559	-0.813736579485152
48500000	-0.571891566578148	-0.807168603623343
48750000	-0.580978568008027	-0.800483683873634
49000000	-0.589977375024749	-0.793698239953099
49250000	-0.598888227069672	-0.786832060379588
49500000	-0.607732111769702	-0.779874533396791
49750000	-0.616494513209212	-0.772777116201193
50000000	-0.625159480812131	-0.765600648850094
50250000	-0.633747441352877	-0.758317879257971
50500000	-0.642252534534447	-0.750955617388475
50750000	-0.650693686424499	-0.743474484814475
51000000	-0.659020996004976	-0.735924929686742
51250000	-0.667269800859272	-0.728251134525228
51500000	-0.675430566962563	-0.720489167275843
51750000	-0.683502671982065	-0.712659534530616
52000000	-0.691468098662177	-0.704728455142424
52250000	-0.699377607035789	-0.696685748370146
52500000	-0.707150885046704	-0.688590618358404
52750000	-0.714836460570284	-0.680372143426229
53000000	-0.722429764453451	-0.672100829683962
53250000	-0.729959088438497	-0.663700521925122
53500000	-0.73737039737932	-0.655262294375275
53750000	-0.744673120070832	-0.646708994917868
54000000	-0.751895609070226	-0.638083576899899
54250000	-0.759002863821324	-0.629375040130782
54500000	-0.766008733531792	-0.620591119238787
54750000	-0.772929143830967	-0.611712341203127
55000000	-0.779726027092171	-0.602765390969378
55250000	-0.786433352141284	-0.593760467832545
55500000	-0.793030794862576	-0.584665509172062
55750000	-0.799517103023604	-0.575520178789359
56000000	-0.805911453273288	-0.566277312980108
56250000	-0.812191343701144	-0.556948277515105
56500000	-0.818375266151636	-0.547580991890871
56750000	-0.824434830864403	-0.538133821683878
57000000	-0.830388613624175	-0.528593439380708
57250000	-0.836242696566908	-0.519016828206003
57500000	-0.841967283504641	-0.509378802851374
57750000	-0.847576678711451	-0.499655021971169
58000000	-0.853094775135902	-0.489881994891805
58250000	-0.858497884749543	-0.480040047532969
58500000	-0.863788357097127	-0.470168272996608
58750000	-0.868945500658389	-0.460205996972085
59000000	-0.874017616254505	-0.450194461461883
59250000	-0.878960339504708	-0.440127634535877
59500000	-0.883766158426916	-0.429991811212269
59750000	-0.888476014986442	-0.419816226791236
60000000	-0.89306416784014	-0.409587035113809
60250000	-0.897526462024482	-0.399330521302824
60500000	-0.901893203133653	-0.389000139919578
60750000	-0.906134709596865	-0.378620221616116
61000000	-0.910231492447638	-0.368207777247969
61250000	-0.914244779216103	-0.357743637351941
61500000	-0.91812190250697	-0.347258232001584
61750000	-0.921861338446588	-0.336686284539036
62000000	-0.925499079387603	-0.326117646458421
62250000	-0.929002289589905	-0.315470012465055
62500000	-0.932403765305469	-0.304805258484495
62750000	-0.935644583872205	-0.294120469408007
63000000	-0.938796733750999	-0.283375862715757
63250000	-0.94182173064039	-0.272611037050605
63500000	-0.944717671303783	-0.261795809458448
63750000	-0.94748293932272	-0.2509937530179
64000000	-0.950140793790755	-0.240108825281147
64250000	-0.952667292435615	-0.229222641356469
64500000	-0.955059676677865	-0.218324118259758
64750000	-0.95733635675719	-0.207377945736663
65000000	-0.959492160003254	-0.196417128480838
65250000	-0.961500744654358	-0.185418193884267
65500000	-0.963392806343286	-0.174430349943339
65750000	-0.965162693206802	-0.163415703497563
66000000	-0.96681718851578	-0.152365405183616
66250000	-0.968333413878916	-0.141327799707158
66500000	-0.969728996819311	-0.130237015612398
66750000	-0.970986039032899	-0.119164793390206
67000000	-0.972134573752598	-0.108063740109632
67250000	-0.97314774838245	-9.69586706073129E-02
67500000	-0.974017249256097	-8.58595970910944E-02
67750000	-0.974771181014405	-7.47048454538639E-02
68000000	-0.975392511800917	-6.35931437218257E-02
68250000	-0.975915345254502	-5.24716689448798E-02
68500000	-0.976269305415985	-4.13329838240194E-02
68750000	-0.976535361686653	-3.02040133530931E-02
69000000	-0.976665424854324	-1.90653779606038E-02
69250000	-0.976653108364153	-7.92922532889569E-03
69500000	-0.976524944084271	3.19180543683683E-03
69750000	-0.97627382648629	1.43294755070181E-02
70000000	-0.975876869603524	2.54422507415091E-02
70250000	-0.975377602108523	3.65553135392377E-02
70500000	-0.974750084954934	4.76662255238429E-02
70750000	-0.973984501364198	5.87560350221643E-02
71000000	-0.973071202619309	6.98439662148438E-02
71250000	-0.972092425353095	8.08878858068386E-02
71500000	-0.970950085705638	9.19335378693653E-02
71750000	-0.969660969045001	0.102976399087803
72000000	-0.968284099464063	0.114005156909238
72250000	-0.966781422878417	0.125005457712689
72500000	-0.965121712317991	0.135977944513949
72750000	-0.963373690961925	0.146946019615097
73000000	-0.961479760098456	0.157872108545268
73250000	-0.959462370001417	0.168784615553109
73500000	-0.95734300133228	0.179671474584063
73750000	-0.955077088636908	0.190516572099873
74000000	-0.952707832755894	0.201351928341183
74250000	-0.950180196714742	0.212146199727357
74500000	-0.94756377340778	0.222900231150415
74750000	-0.944835855033812	0.233634174862794
75000000	-0.941946431392755	0.244340888555028
75250000	-0.938964051890425	0.254999510315783
75500000	-0.935843659440297	0.265626656355984
75750000	-0.932638119760549	0.27622999620946
76000000	-0.929290255151994	0.286764705950153
76250000	-0.925817685955896	0.297283736542124
76500000	-0.922238836659982	0.307729261227569
76750000	-0.918528501684557	0.318147452620988
77000000	-0.914720424742566	0.328519985190061
77250000	-0.910792461711135	0.338856044759263
77500000	-0.906728471506137	0.349132123013385
77750000	-0.902565501265611	0.35936389510253
78000000	-0.898285040452698	0.369506115265756
78250000	-0.893901407505632	0.379691647771545
78500000	-0.889382131565183	0.38974991042711
78750000	-0.884765853103046	0.399760422223213
79000000	-0.880053708805282	0.409723008074807
79250000	-0.875192521900397	0.419637974942513
79500000	-0.87025415800999	0.429481777580665
79750000	-0.865185846187414	0.439291546361563
80000000	-0.86001020026106	0.449026779307511
80250000	-0.854720620641165	0.458660990737932
80500000	-0.849353948197921	0.468310058758132
80750000	-0.84386492966631	0.47782451691967
81000000	-0.838231875740748	0.487319049808345
81250000	-0.832532548280865	0.496721177900598
81500000	-0.826720299456071	0.506056695969544
81750000	-0.820817530134924	0.515332846380386
82000000	-0.814800270678274	0.52453911825614
82250000	-0.808679653444472	0.533678850433366
82500000	-0.802455216177584	0.54274555740009
82750000	-0.796147156466376	0.551723719144098
83000000	-0.789720833790307	0.56064699286824
83250000	-0.783202073675852	0.569488427067759
83500000	-0.776567733875064	0.578254460996054
83750000	-0.76985334323427	0.586931288016448
84000000	-0.763064177628884	0.595556604266834
84250000	-0.756146514211458	0.604074116108887
84500000	-0.7491630116829	0.612519268584013
84750000	-0.742092317027974	0.620908776478361
85000000	-0.7348905866752	0.629179221291981
85250000	-0.727606845040919	0.637380990215095
85500000	-0.720250613543996	0.645463988340692
85750000	-0.712800704118754	0.653526347379498
86000000	-0.705244687313303	0.661450654049417
86250000	-0.697636854101089	0.669300810400132
86500000	-0.68993081941995	0.677053153131163
86750000	-0.682099700100283	0.684747400020307
87000000	-0.674222548715091	0.692334405795074
87250000	-0.666246872954317	0.699815183936415
87500000	-0.658199684639785	0.707224458723571
87750000	-0.650082594126449	0.714532951685104
88000000	-0.641870951015963	0.721758590398524
88250000	-0.633591503753524	0.728884071288088
88500000	-0.625211790386066	0.735904536144311
88750000	-0.61676964749345	0.742843590616923
89000000	-0.608278797805488	0.749679000114185
89250000	-0.599683990667778	0.756394686492696
89500000	-0.591037589022536	0.763041330080032
89750000	-0.582303873734335	0.769573249937667
90000000	-0.573486531378546	0.775995942101917
90250000	-0.564611599493049	0.782369567993812
90500000	-0.555678852727588	0.788596791313209
90750000	-0.546656588506416	0.794713158835589
91000000	-0.537584315353167	0.800750152037506
91250000	-0.52844593910613	0.806693803761507
91500000	-0.519252914954525	0.812476698181185
91750000	-0.50998696621598	0.818170809510814
92000000	-0.500659026352991	0.823788011650607
92250000	-0.491266229551833	0.829311661737998
92500000	-0.481851923601856	0.834704990022922
92750000	-0.472347540203698	0.839992660073854
93000000	-0.462781213672388	0.845188530204912
93250000	-0.453162992966638	0.850238583956766
93500000	-0.44348164127384	0.855204569294702
93750000	-0.433777594607311	0.860063536223236
94000000	-0.424007893368337	0.864790480338265
94250000	-0.414178993168773	0.869422806652176
94500000	-0.404312900920219	0.873949677288487
94750000	-0.394419095375995	0.878356845562892
95000000	-0.38444753782442	0.882640050473845
95250000	-0.37442994181105	0.886817296317927
95500000	-0.364382683631952	0.890870224441788
95750000	-0.354293119989831	0.894848299130499
96000000	-0.344140826995666	0.898689793355465
96250000	-0.333976411372559	0.902403418213773
96500000	-0.32379655459888	0.906028207978187
96750000	-0.313540549451004	0.90950498171034
97000000	-0.303257906117034	0.912891091655262
97250000	-0.292909874933899	0.916145382213379
97500000	-0.282595780981882	0.919297126872281
97750000	-0.272197228898965	0.922316236297848
98000000	-0.26177871971892	0.925247216147068
98250000	-0.251341881599413	0.928046094884832
98500000	-0.240867126205352	0.930718049435576
98750000	-0.230394732772475	0.933284280211995
99000000	-0.219864561193997	0.935723059276011
99250000	-0.209314574214604	0.938042627638749
99500000	-0.19874265350154	0.940253796713514
99750000	-0.188134189327038	0.942351559720513
100000000	-0.177543622679771	0.944300407731333
100250000	-0.166903494139695	0.946159070954308
100500000	-0.156275320080725	0.947915462821448
100750000	-0.145605281731784	0.94951483364673
101000000	-0.134930227674598	0.950993828671906
101250000	-0.124234413360524	0.952379241756458
101500000	-0.113542883135125	0.953622318865753
101750000	-0.102825245831237	0.954765540110907
102000000	-9.20889091887828E-02	0.95579341650611
102250000	-8.13512710042128E-02	0.95668062716551
102500000	-7.06338916352587E-02	0.957462849210142
102750000	-5.98801575659915E-02	0.958103051203231
103000000	-0.049147410743534	0.958665026994315
103250000	-3.84127891117838E-02	0.959059969696427
103500000	-2.76582904105852E-02	0.959374620248692
103750000	-1.68842816248905E-02	0.959520830228092
104000000	-6.12579338863315E-03	0.95959284829043
104250000	4.62061719787305E-03	0.959532814004414
104500000	1.53410893739813E-02	0.95935719146531
104750000	2.60751876243253E-02	0.959041994840405
105000000	3.68378022619609E-02	0.95862432179283
105250000	4.75342708846105E-02	0.958087938893526
105500000	5.82520284338983E-02	0.957425369849673
105750000	6.89487776240037E-02	0.956662591910935
106000000	7.96458411986141E-02	0.95576695148246
106250000	9.03148387336623E-02	0.954742352060778
106500000	0.100984957307012	0.953607443489933
106750000	0.111613332514907	0.952368231214708
107000000	0.122266270222662	0.950996565234854
107250000	0.132892119396743	0.949505728614394
107500000	0.143484675259763	0.947904728879512
107750000	0.154065414503141	0.946170034309021
108000000	0.164603983435218	0.944347571927065
108250000	0.175149590650254	0.942381006515234
108500000	0.185648466829254	0.940309906991042
108750000	0.196093299067376	0.938141507612567
109000000	0.206561533435171	0.935826058550237
109250000	0.217000719637077	0.933420296591253
109500000	0.227379251553249	0.930890663819172
109750000	0.237720648426628	0.928240688874111
110000000	0.248063119704841	0.925484230773961
110250000	0.258368439947834	0.922626692385632
110500000	0.268611458424832	0.919618492364518
110750000	0.278873091214048	0.91652768827678
111000000	0.289055242933141	0.913332065239701
111250000	0.299194801597178	0.910002937810939
111500000	0.30930743281758	0.906553681252855
111750000	0.319379952204604	0.903011728849363
112000000	0.329411656406588	0.899344541686645
112250000	0.339381963441178	0.895570207830981
112500000	0.349336920849129	0.891718602817904
112750000	0.359250010086225	0.887728037126698
113000000	0.369108845474434	0.883619820935149
113250000	0.37889837080508	0.879427764835384
113500000	0.388669552976678	0.875116924600736
113750000	0.398345162272933	0.870695319903794
114000000	0.407996607960041	0.866183785044969
114250000	0.417591952995841	0.861550544330387
114500000	0.427157833518063	0.856828136972153
114750000	0.436635158490716	0.851973778405246
115000000	0.446093359625642	0.847058043286237
115250000	0.455449654310263	0.841997612595785
115500000	0.464767849056366	0.836861109658639
115750000	0.474025520651425	0.831605944407245
116000000	0.48323325850561	0.826257226669641
116250000	0.492379411195145	0.82080901781515
116500000	0.501456555620682	0.81525735660017
116750000	0.510484846540692	0.809598977874122
117000000	0.519420816158581	0.803863024457773
117250000	0.528316786152779	0.798008900909145
117500000	0.537122188621398	0.79207752423918
117750000	0.545877451358349	0.786034517611947
118000000	0.554572044996405	0.779889848875422
118250000	0.563174152899588	0.773672727537549
118500000	0.571714767952643	0.767352229613044
118750000	0.580183176093488	0.760932256176905
119000000	0.588581154197559	0.754448793566566
119250000	0.596932749548503	0.747838566461428
119500000	0.605154206247446	0.741161328979334
119750000	0.613335041024747	0.734377748241929
120000000	0.621438769131326	0.727520051824446
120250000	0.629460708472602	0.720565053653283
120500000	0.637409355766406	0.713522131199855
120750000	0.645255544756671	0.706391976806344
121000000	0.653031365545852	0.69918105207818
121250000	0.660730601269488	0.691873682845686
121500000	0.668360606800057	0.684500091059414
121750000	0.675907595365618	0.677032995022252
122000000	0.683360558560593	0.669493634352395
122250000	0.690714776122352	0.66186833663568
122500000	0.698006859880765	0.654150453164993
122750000	0.705199612220621	0.646375461075233
123000000	0.712295587900102	0.638527100224303
123250000	0.719334629267017	0.630567063500634
123500000	0.726267429033219	0.622566132028008
123750000	0.733104285560969	0.614469912298972
124000000	0.739875418975268	0.606302490968643
124250000	0.746515164512964	0.59806172362423
124500000	0.753115481402686	0.589759860299738
124750000	0.759588582954901	0.581382099462728
125000000	0.765958854448785	0.572946568896661
125250000	0.77223836046735	0.564435020229069
125500000	0.778444177796333	0.555843046309945
125750000	0.78454670404761	0.547190290777247
126000000	0.790555596472593	0.538470973342374
126250000	0.796447081430597	0.529690148312919
126500000	0.802257732969844	0.520843712157839
126750000	0.807968807411941	0.511938530390627
127000000	0.813586599262074	0.502947246810136
127250000	0.819081536877323	0.493932717754471
127500000	0.82450601050086	0.484827336404248
127750000	0.829794812079179	0.475670545759864
128000000	0.835016425308824	0.466481770514935
128250000	0.840120626795075	0.457225314742548
128500000	0.845129045049856	0.447906590871869
128750000	0.850018277143716	0.4385382248031
129000000	0.854823464414005	0.42912190533872
129250000	0.859523589928064	0.419649352148321
129500000	0.864115837287755	0.410102201605945
129750000	0.868576024275946	0.400536011835401
130000000	0.872943738204777	0.390906956474841
130250000	0.877223263012317	0.381244007173169
130500000	0.881383902977172	0.371532016415258
130750000	0.88543968783025	0.361777244974803
131000000	0.889388285658869	0.351963401577869
131250000	0.893215933393644	0.342143127726311
131500000	0.896960848985128	0.332260674880142
131750000	0.900574156832195	0.322336778755194
132000000	0.90409793151675	0.312360394169006
132250000	0.907507420106534	0.302344940010811
132500000	0.910778200304601	0.292325186798707
132750000	0.913956119510606	0.282247835611343
133000000	0.917028268011443	0.272157944164104
133250000	0.920001009967119	0.262007194735788
133500000	0.922839827958028	0.251826734445084
133750000	0.925550515422054	0.241644997590329
134000000	0.928192111918041	0.231395375454749
134250000	0.930698582462653	0.221140369122239
134500000	0.933094187951156	0.210845337033961
134750000	0.93536746464721	0.200562786284397
135000000	0.937528767358919	0.190237429010843
135250000	0.939602500610088	0.179871490655175
135500000	0.941538119414007	0.169511705934047
135750000	0.943343426335123	0.159098914760949
136000000	0.945073368259488	0.148700225194635
136250000	0.946662470967451	0.13824098919741
136500000	0.948159710416172	0.127802524190675
136750000	0.949520028189562	0.117315436399971
137000000	0.950780446142875	0.106844592909728
137250000	0.951916253968627	9.63618743271191E-02
137500000	0.952915344862416	8.58637552433187E-02
137750000	0.953814817477465	7.53585082241855E-02
138000000	0.954612634608801	6.48371366419367E-02
138250000	0.955285563272679	5.42757514883481E-02
138500000	0.955855900304626	4.37422995191037E-02
138750000	0.956301918597991	3.31970077810991E-02
139000000	0.956628156280481	2.26618319442451E-02
139250000	0.956826639343199	1.21124085278346E-02
139500000	0.956905667333371	1.55095887585945E-03
139750000	0.956912496329188	-8.99596240313855E-03
140000000	0.956736800911722	-1.95561883119914E-02
140250000	0.956492045639743	-3.01046655604787E-02
140500000	0.956129238110484	-4.06346967062949E-02
140750000	0.955631922855791	-5.11976485920798E-02
141000000	0.955032865842318	-6.17315577278119E-02
141250000	0.954321603270763	-7.22396605468104E-02
141500000	0.953472062994189	-8.27474245542366E-02
141750000	0.952518088424342	-0.093282262771711
142000000	0.9514417873261	-0.103793474883868
142250000	0.950287719115118	-0.114262708580658
142500000	0.948962502457061	-0.124765892341617
142750000	0.947556845554001	-0.135220990169081
143000000	0.946023549016625	-0.145623535401683
143250000	0.944390691544447	-0.156091985312672
143500000	0.942616737819468	-0.166467904811591
143750000	0.940737042593273	-0.176838376406598
144000000	0.938772455218774	-0.187238102327018
144250000	0.93665971724619	-0.197564929553029
144500000	0.934453944837318	-0.207886842373446
144750000	0.932113020275288	-0.218161608359921
