# Hz S RI R 50
40000000	0.238997987744925	0.934153549967791
40250000	0.249397732911449	0.931402786474471
40500000	0.259750450109712	0.928520099406229
40750000	0.270069312279725	0.925524333189088
41000000	0.280342828031697	0.922429038783886
41250000	0.290608004203304	0.919205841455002
41500000	0.300799661876124	0.915867835585347
41750000	0.310962229258988	0.91242930491593
42000000	0.321098052147026	0.908900444908641
42250000	0.331169141173316	0.905221424101276
42500000	0.341238729955054	0.901458645357981
42750000	0.351243870808429	0.897571331000368
43000000	0.361193698276669	0.893580370845933
43250000	0.371091957790444	0.889480467679088
43500000	0.380965031595546	0.885278234032692
43750000	0.39074543501118	0.880960745536591
44000000	0.400542330428989	0.876517226108702
44250000	0.410240270968539	0.872004746814855
44500000	0.419903192802098	0.867363648121368
44750000	0.42952259369348	0.862623603656135
45000000	0.439079666264088	0.857766277310525
45250000	0.448581579919842	0.852824219697139
45500000	0.458007821435975	0.84775404367956
45750000	0.467379358866103	0.842599767273661
46000000	0.47670925730394	0.837320022151702
46250000	0.486009773084099	0.831994999083738
46500000	0.495185732756783	0.82651977535893
46750000	0.504317785249257	0.820948528805903
47000000	0.5134025342061	0.815289939750654
47250000	0.522422618392201	0.809519849900179
47500000	0.531374878804722	0.803664487917643
47750000	0.540269824362564	0.79768857932488
48000000	0.549063165593907	0.791666651818105
48250000	0.557814742461331	0.785494694941122
48500000	0.566491749498709	0.779252503244782
48750000	0.575098039543545	0.772901820714137
49000000	0.583636640975726	0.766484170852798
49250000	0.592111068108381	0.759918445343083
49500000	0.60049976167164	0.753320750594445
49750000	0.608808145800093	0.746603797914007
50000000	0.617045796196259	0.73980159733657
50250000	0.625206589375438	0.732903503095615
50500000	0.633302409393763	0.725932889921487
50750000	0.641305197335894	0.71884957058265
51000000	0.649239846371771	0.711693596660828
51250000	0.657097405765574	0.70443460656887
51500000	0.664852964743976	0.697118886359306
51750000	0.672560950719855	0.689720317367916
52000000	0.680148791790334	0.682211001000382
52250000	0.687681881415119	0.674655354524405
52500000	0.695119706889627	0.666980121282775
52750000	0.702461737991163	0.659233437854748
53000000	0.709737432922729	0.651406101992905
53250000	0.716906193863295	0.643500693258912
53500000	0.723993620778482	0.635523074170635
53750000	0.730990072477732	0.627477317643232
54000000	0.73790478351567	0.619367850110745
54250000	0.744716904672437	0.611147383558359
54500000	0.751457788774243	0.602872050255806
54750000	0.758089625452226	0.594515525249946
55000000	0.764631835889014	0.586074379910649
55250000	0.771085327885162	0.577571538233184
55500000	0.77745216267806	0.569017356242204
55750000	0.783715696052393	0.560379071573659
56000000	0.789866119572454	0.551680243826357
56250000	0.795932244992018	0.542893796325976
56500000	0.801913146106387	0.534056280673911
56750000	0.807777016622707	0.525156190745564
57000000	0.813549587923017	0.516183075989233
57250000	0.819225539125316	0.507158790365991
57500000	0.824799816290317	0.49807475114333
57750000	0.830288122723385	0.488909005343275
58000000	0.835662124072692	0.479694392179977
58250000	0.84091451911445	0.470442365923138
58500000	0.846097290038736	0.461106845435883
58750000	0.85115742310481	0.451723114452083
59000000	0.856107547523286	0.442284804960531
59250000	0.86095595702894	0.432788864231681
59500000	0.865740777933872	0.423259724288909
59750000	0.870387630572983	0.413664078304228
60000000	0.874926138843576	0.404016056752623
60250000	0.879341876293049	0.394319393828696
60500000	0.883678166274307	0.38458092236218
60750000	0.887888153068852	0.374792597608863
61000000	0.891992559857291	0.364947035147674
61250000	0.896000568979407	0.355061244236212
61500000	0.899906397633074	0.345136210666048
61750000	0.903688218291735	0.335176967177581
62000000	0.907357720897386	0.325156879753026
62250000	0.91091845275423	0.315113387459156
62500000	0.914373689650839	0.305028679459415
62750000	0.917702418568723	0.294889185863971
63000000	0.920943527850763	0.284731849206461
63250000	0.924058785881985	0.274547624696037
63500000	0.927059926093327	0.264326028560895
63750000	0.929963424612274	0.254047948528232
64000000	0.932725873492421	0.243767124834642
64250000	0.935382753634786	0.233417349207776
64500000	0.937936291528583	0.22308448107848
64750000	0.940371632134697	0.212715971172159
65000000	0.942681710741512	0.202298001895703
65250000	0.944890761785877	0.191872093940294
65500000	0.946990062718911	0.181406237606612
65750000	0.94895364120922	0.170924758618221
66000000	0.950816577449497	0.160428997749342
66250000	0.952560551714619	0.149917340281329
66500000	0.95417542858591	0.139367705640679
66750000	0.955690316718759	0.128813394540148
67000000	0.957070967502322	0.118236020397493
67250000	0.958347051064585	0.107638711177933
67500000	0.959533141975978	9.70473850377228E-02
67750000	0.960546854105055	8.64228287001469E-02
68000000	0.961482778818354	7.58036155767356E-02
68250000	0.962298882000609	6.51717670497457E-02
68500000	0.962987182827423	5.45265034627621E-02
68750000	0.963549548471114	4.38657504901907E-02
69000000	0.964010799139923	0.033207249094539
69250000	0.964342314344898	2.25473833315193E-02
69500000	0.964572158704281	1.18916594512347E-02
69750000	0.964671262250261	1.2122492959183E-03
70000000	0.964659290743004	-9.43994049860699E-03
70250000	0.964525517406184	-2.01366187742718E-02
70500000	0.964281060094208	-3.07892651915249E-02
70750000	0.963897962421713	-4.14722042037881E-02
71000000	0.963414014245429	-5.21275875407876E-02
71250000	0.962816453874655	-6.27871513155641E-02
71500000	0.962069154831067	-7.34333246110784E-02
71750000	0.961239646721842	-8.40690783632407E-02
72000000	0.96026570377835	-9.47064560419487E-02
72250000	0.959189045712556	-0.105320825149914
72500000	0.958000388192929	-0.115938415484457
72750000	0.956675034623804	-0.126525477139182
73000000	0.955259987113622	-0.137112088977628
73250000	0.953707334378773	-0.147681605480522
73500000	0.952045288379817	-0.158233845879344
73750000	0.950246664101152	-0.168757731432351
74000000	0.948349547530901	-0.17926249654375
74250000	0.946341809287177	-0.189761672435038
74500000	0.944214788153318	-0.200240033547808
74750000	0.941970025002064	-0.210670622347013
75000000	0.939611194926219	-0.221093798296455
75250000	0.937130164313995	-0.231481875841888
75500000	0.934526806439572	-0.241857230650922
75750000	0.93182387210029	-0.252215780717131
76000000	0.928991566665488	-0.262509475976645
76250000	0.926065653994897	-0.27279433196912
76500000	0.922975724290822	-0.283029576948612
76750000	0.919835046768766	-0.293220210005985
77000000	0.916570119672739	-0.303417799149262
77250000	0.913175861594487	-0.313564557207298
77500000	0.909669631011218	-0.323654543309594
77750000	0.906047785927379	-0.333733478219298
78000000	0.902306247640336	-0.343754554462614
78250000	0.898482859379725	-0.353742914875151
78500000	0.89451118027936	-0.363688368611816
78750000	0.890464852037159	-0.373576543275642
79000000	0.886287405041478	-0.383451413455172
79250000	0.881994565968717	-0.393238513868836
79500000	0.87761768444711	-0.402991745803785
79750000	0.8731243943641	-0.412726209216636
80000000	0.868512104348492	-0.422387469737798
80250000	0.8637901065455	-0.431975294356797
80500000	0.858959151916744	-0.44154950518935
80750000	0.854054184275363	-0.451065829768159
81000000	0.849003950335895	-0.460496331722883
81250000	0.843869968278947	-0.469915226597469
81500000	0.838612245241713	-0.479259205362637
81750000	0.833271108434423	-0.48853550922059
82000000	0.827814981459737	-0.497746611497343
82250000	0.822258683553871	-0.506903572496505
82500000	0.816605680700535	-0.516021042623782
82750000	0.810848428590318	-0.525071813902437
83000000	0.80497938264905	-0.534035933912249
83250000	0.79900793864804	-0.542929663762021
83500000	0.792956522220173	-0.551780556459535
83750000	0.786794370915129	-0.560567453224681
84000000	0.780536472270765	-0.569268830807705
84250000	0.774181379680443	-0.577904031405044
84500000	0.767730486309918	-0.586471430047458
84750000	0.761166709703516	-0.594970159893294
85000000	0.754557132999391	-0.603401016814608
85250000	0.747795654003735	-0.611761506273742
85500000	0.740985336078013	-0.620019818553853
85750000	0.73405689613808	-0.628227467340651
86000000	0.727024775687724	-0.636362064374082
86250000	0.71992658924105	-0.644413857134277
86500000	0.712713566440463	-0.652385745653913
86750000	0.705444600285669	-0.660273298631512
87000000	0.698065753763524	-0.668050687936447
87250000	0.690623203666639	-0.675778231027459
87500000	0.683054243007095	-0.683428013435751
87750000	0.675430138271599	-0.690994758999433
88000000	0.667710222792546	-0.698458242971384
88250000	0.659913918920285	-0.705861428117057
88500000	0.652024606544912	-0.713162345213921
88750000	0.644048705719559	-0.720366544651911
89000000	0.63600022057894	-0.727496429569682
89250000	0.627879265161751	-0.73452898383797
89500000	0.619657584465063	-0.74148294595138
89750000	0.611364872550688	-0.748330015366095
90000000	0.603031245847505	-0.755105454181051
90250000	0.594550562928216	-0.761772729597368
90500000	0.586034256997364	-0.768345934265886
90750000	0.577475797859128	-0.774818080713254
91000000	0.568797368950486	-0.781208132099286
91250000	0.560051476231392	-0.787490704538552
91500000	0.551257337235857	-0.793702895351154
91750000	0.542378124004937	-0.79979173334481
92000000	0.533429374771414	-0.805776075320956
92250000	0.524432241773626	-0.811666189191168
92500000	0.515342654022503	-0.817457256847905
92750000	0.506182864793604	-0.823163838151387
93000000	0.496986568116416	-0.828748672889161
93250000	0.487692271099111	-0.834231438545188
93500000	0.4783984255395	-0.839638494963594
93750000	0.468980708828269	-0.844928044438208
94000000	0.459513656024879	-0.850076237870996
94250000	0.450003102626907	-0.855137666163329
94500000	0.440430966728033	-0.860105206063732
94750000	0.4308018015332	-0.864970314604419
95000000	0.421135853341854	-0.869716265591882
95250000	0.411395328511658	-0.874338348470244
95500000	0.401599203036151	-0.878901905441038
95750000	0.391778299454483	-0.883317631363735
96000000	0.381884169884824	-0.887623920378706
96250000	0.371945724992283	-0.891826669952531
96500000	0.361932565316677	-0.895892343819976
96750000	0.351917664960649	-0.89987761636175
97000000	0.341824500579386	-0.903741371422757
97250000	0.331704348472539	-0.907495881176811
97500000	0.321552232635453	-0.911145710908477
97750000	0.311339375365664	-0.914664588796149
98000000	0.301090161984159	-0.918077108045635
98250000	0.2907731450976	-0.921376887565741
98500000	0.280463640618171	-0.924542217995544
98750000	0.270093431861333	-0.927603592194793
99000000	0.259717530338801	-0.930561441924104
99250000	0.249255287917984	-0.933404301934668
99500000	0.238805985512591	-0.936075425947312
99750000	0.22833525372121	-0.938694865913027
100000000	0.217788507595571	-0.941177316733097
100250000	0.207220494374237	-0.943543830870487
100500000	0.196655121264736	-0.945776178819556
100750000	0.186044236317401	-0.947881673263227
101000000	0.175411356654925	-0.949905081029313
101250000	0.164756661739716	-0.951759176227709
101500000	0.154063581586713	-0.953531560498843
101750000	0.14337835758599	-0.955176929436317
102000000	0.132668312450546	-0.956711793539692
102250000	0.121941881163055	-0.958096987726658
102500000	0.111191969625432	-0.959381833052402
102750000	0.100437954973309	-0.960543519276848
103000000	8.96284046328425E-02	-0.961566787689994
103250000	7.88565565984334E-02	-0.962490527239201
103500000	6.80404462700099E-02	-0.963270971812746
103750000	5.72551392043034E-02	-0.963939521916186
104000000	4.64354072064984E-02	-0.964519153547456
104250000	3.55992800013641E-02	-0.964929014774994
104500000	0.024771894860657	-0.96525598262524
104750000	1.39342074578106E-02	-0.965431785553332
105000000	3.0950631364849E-03	-0.965488595165037
105250000	-7.74342586868386E-03	-0.965426425787763
105500000	-1.85922064061957E-02	-0.965246372689561
105750000	-2.94304164977726E-02	-0.964927231175378
106000000	-4.02559525668388E-02	-0.964504409858161
106250000	-5.10890519290601E-02	-0.963946776650802
106500000	-6.19052772473287E-02	-0.963295087227863
106750000	-7.27266212641398E-02	-0.962486310401923
107000000	-8.35235388161253E-02	-0.961584907434738
107250000	-9.43247822971691E-02	-0.960529950503251
107500000	-0.105126329298155	-0.95935439302145
107750000	-0.115899578768226	-0.958060567340469
108000000	-0.126651485583536	-0.956683241913876
108250000	-0.137397620940192	-0.955157492736591
108500000	-0.148133459678178	-0.953496196130758
108750000	-0.158836067594639	-0.951729343041425
109000000	-0.169529929016155	-0.949838363205255
109250000	-0.180202265580252	-0.947817790786534
109500000	-0.190861851284886	-0.945697128300445
109750000	-0.201458060699729	-0.943437476469351
110000000	-0.212067045596351	-0.941050909020733
110250000	-0.222609296257925	-0.938559460546451
110500000	-0.233162514278113	-0.935961380899863
110750000	-0.243685012881479	-0.933201852838162
111000000	-0.25415818349641	-0.930357616077045
111250000	-0.264619715212368	-0.927388908794361
111500000	-0.275031514562623	-0.924283161934494
111750000	-0.285429360868232	-0.921083686420581
112000000	-0.295775290662946	-0.91772777795454
112250000	-0.306064823978365	-0.914308719009975
112500000	-0.316342949609291	-0.910752295748875
112750000	-0.326577046367067	-0.907048823417174
113000000	-0.336765602763057	-0.903269286394176
113250000	-0.346898539552372	-0.899342401582403
113500000	-0.357008971389045	-0.895345438745869
113750000	-0.367065408011301	-0.89118485215687
114000000	-0.377069880752811	-0.886952104666714
114250000	-0.387028934602586	-0.88259107279494
114500000	-0.396940054703759	-0.878100026234105
114750000	-0.406804871555274	-0.873505372872268
115000000	-0.416596526813128	-0.868805247269551
115250000	-0.426355086360656	-0.863961413293048
115500000	-0.43606363768502	-0.859046403100601
115750000	-0.445692879473327	-0.854023609303996
116000000	-0.45529489103683	-0.848863810793797
116250000	-0.464827299271506	-0.843622603581126
116500000	-0.47428872475082	-0.83824744242425
116750000	-0.483685599605264	-0.832785844970821
117000000	-0.493036470363516	-0.827193044171891
117250000	-0.502301628918506	-0.821518423889005
117500000	-0.511550282676508	-0.815716503377654
117750000	-0.520668682759258	-0.809829934918845
118000000	-0.529757453186567	-0.803832249803792
118250000	-0.538772386151709	-0.797745723744727
118500000	-0.547718329259992	-0.791529767902519
118750000	-0.556610872222649	-0.785235430315387
119000000	-0.565397868337313	-0.778819146602719
119250000	-0.574117850583168	-0.772326196738518
119500000	-0.582789540241641	-0.765696968484939
119750000	-0.591360379172243	-0.759013729730754
120000000	-0.59988096513321	-0.752198375660458
120250000	-0.608317922848109	-0.74532018134056
120500000	-0.616643419041339	-0.738322955006485
120750000	-0.624911727677463	-0.731221031674331
121000000	-0.63309979494889	-0.724044266168034
121250000	-0.641211986643167	-0.716761640753024
121500000	-0.649217441495081	-0.709395998788002
121750000	-0.657169218393469	-0.701953449340494
122000000	-0.665005330134824	-0.694428421300114
122250000	-0.672754151791671	-0.686762122373054
122500000	-0.680464958097754	-0.679037591223158
122750000	-0.688043134105661	-0.671236449382114
123000000	-0.695543937221701	-0.6633185226351
123250000	-0.702958535383596	-0.655364597183251
123500000	-0.710260298159147	-0.647288411141691
123750000	-0.717496120863456	-0.639135708382807
124000000	-0.724626762780205	-0.630897368848725
124250000	-0.731665254881527	-0.622599498399821
124500000	-0.738610511369549	-0.614214315108025
124750000	-0.745457237632093	-0.605731511777543
125000000	-0.752214326268781	-0.597187780960902
125250000	-0.758875345311265	-0.588556230345981
125500000	-0.765413744928442	-0.579886419287136
125750000	-0.771880546322894	-0.571100521221625
126000000	-0.778221897494655	-0.562244652236146
126250000	-0.784479073435857	-0.553332783103236
126500000	-0.790634436624618	-0.544344930666293
126750000	-0.796677881309645	-0.535290356058003
127000000	-0.80263619465642	-0.526149227553185
127250000	-0.808480333827783	-0.516970863702218
127500000	-0.814227961713808	-0.507693675207013
127750000	-0.819843896052798	-0.498377455878225
128000000	-0.8253510684534	-0.489003732201299
128250000	-0.83075940307431	-0.479549751310069
128500000	-0.836092460574424	-0.470044100694894
128750000	-0.841279572779141	-0.460465590964217
129000000	-0.846362720224906	-0.450838017386442
129250000	-0.851345907996096	-0.441177439526744
129500000	-0.85620905373737	-0.431425759571505
129750000	-0.860969322478004	-0.421629318637051
130000000	-0.865620936071285	-0.411762757958853
130250000	-0.870157291684059	-0.401877632509099
130500000	-0.874571344912664	-0.391930862278548
130750000	-0.878870893944998	-0.381942712074677
131000000	-0.883051540069733	-0.371879929376124
131250000	-0.887137487258175	-0.361771507417925
131500000	-0.891107577873396	-0.351645307679988
131750000	-0.894944753371307	-0.341478006359253
132000000	-0.898679731922265	-0.33122912066781
132250000	-0.902283196116533	-0.3209566642456
132500000	-0.905777796560528	-0.310638442077032
132750000	-0.909130114588121	-0.300286058961486
133000000	-0.91241636332584	-0.289909919993569
133250000	-0.915546781824575	-0.279508970773617
133500000	-0.918569256714956	-0.269044726140838
133750000	-0.921471739776045	-0.258557995923979
134000000	-0.92426006136056	-0.24804016737533
134250000	-0.926890800600366	-0.237482697600614
134500000	-0.92945023854528	-0.22690834617612
134750000	-0.931856032618792	-0.216290520762232
135000000	-0.934165519737861	-0.205663012528019
135250000	-0.936328196705945	-0.195011662665156
135500000	-0.938403015712463	-0.184329303652667
135750000	-0.94032480066475	-0.173625913001569
136000000	-0.942109748593861	-0.162910272027105
136250000	-0.943831428634495	-0.152152805614489
136500000	-0.945380552116545	-0.141390787016587
136750000	-0.94683082543891	-0.130618940447611
137000000	-0.948117984462365	-0.119825614955881
137250000	-0.949344010788646	-0.109012647417022
137500000	-0.950399038066485	-9.82016755711851E-02
137750000	-0.951365513693898	-8.73540376875766E-02
138000000	-0.952167582974571	-7.65522445032862E-02
138250000	-0.952885012569893	-6.56973281940065E-02
138500000	-0.953457336808581	-5.48547673304804E-02
138750000	-0.953917043530533	-4.39929526877295E-02
139000000	-0.954244602276919	-3.31436267900684E-02
139250000	-0.954462228753271	-2.22706504581683E-02
139500000	-0.954526025548347	-1.14004969157736E-02
139750000	-0.954495780809406	-5.26481416913299E-04
140000000	-0.954355665925986	0.010299627182821
140250000	-0.954031417158756	0.021163503310585
140500000	-0.953616588794153	3.20126097672467E-02
140750000	-0.953090549233265	4.28809728352037E-02
141000000	-0.952452909969549	5.37088217449742E-02
141250000	-0.951667387554769	6.45147642445264E-02
141500000	-0.950760572169563	7.53323948715527E-02
141750000	-0.949742288232528	8.61542802299004E-02
142000000	-0.9485857119046	0.096946986874995
142250000	-0.947326890939348	0.107725605800983
142500000	-0.945904755072898	0.118468945389531
142750000	-0.944391813266757	0.12921312577576
143000000	-0.942741599870574	0.139928854681075
143250000	-0.940977603062641	0.150632226029087
143500000	-0.939110141483981	0.1613387516385
143750000	-0.937111566865169	0.171973237419074
144000000	-0.934988576408452	0.18260942099558
144250000	-0.932719370599569	0.193206720420926
144500000	-0.930350989815808	0.203795457135208
