!Agilent Technologies,E5072A,MY51200456,A.01.06
!Date: Thu Sep 03 21:00:59 2015
!Data & Calibration Information:
!Freq	S11:SOLT1(ON)
!PortZ  Port1:50+j0
!Above PortZ is port z conversion or system Z0 setting when saving the data.
!When reading, reference impedance value at option line is always used.
# Hz S dB R 50
50000000	-4.451732e-001	1.146343e+002
50250000	-4.475861e-001	1.134110e+002
50500000	-4.498726e-001	1.121868e+002
50750000	-4.519844e-001	1.109623e+002
51000000	-4.542921e-001	1.097380e+002
51250000	-4.563698e-001	1.085144e+002
51500000	-4.585142e-001	1.072894e+002
51750000	-4.605839e-001	1.060648e+002
52000000	-4.627153e-001	1.048402e+002
52250000	-4.645243e-001	1.036155e+002
52500000	-4.665477e-001	1.023907e+002
52750000	-4.684351e-001	1.011653e+002
53000000	-4.703714e-001	9.993962e+001
53250000	-4.721848e-001	9.871382e+001
53500000	-4.740079e-001	9.748823e+001
53750000	-4.758489e-001	9.626185e+001
54000000	-4.775341e-001	9.503670e+001
54250000	-4.793274e-001	9.380867e+001
54500000	-4.809657e-001	9.258179e+001
54750000	-4.826459e-001	9.135489e+001
55000000	-4.841923e-001	9.012876e+001
55250000	-4.858346e-001	8.889963e+001
55500000	-4.874174e-001	8.767258e+001
55750000	-4.888990e-001	8.644548e+001
56000000	-4.903945e-001	8.521733e+001
56250000	-4.918925e-001	8.398900e+001
56500000	-4.933505e-001	8.276020e+001
56750000	-4.946013e-001	8.153149e+001
57000000	-4.959673e-001	8.030264e+001
57250000	-4.971979e-001	7.907327e+001
57500000	-4.984942e-001	7.784294e+001
57750000	-4.996326e-001	7.661332e+001
58000000	-5.009360e-001	7.538205e+001
58250000	-5.020885e-001	7.415223e+001
58500000	-5.031059e-001	7.292144e+001
58750000	-5.041470e-001	7.169050e+001
59000000	-5.053495e-001	7.045967e+001
59250000	-5.061464e-001	6.922792e+001
59500000	-5.073463e-001	6.799613e+001
59750000	-5.081767e-001	6.676427e+001
60000000	-5.091650e-001	6.553197e+001
60250000	-5.098938e-001	6.429972e+001
60500000	-5.108297e-001	6.306715e+001
60750000	-5.115194e-001	6.183404e+001
61000000	-5.124243e-001	6.059994e+001
61250000	-5.131610e-001	5.936754e+001
61500000	-5.137026e-001	5.813357e+001
61750000	-5.144643e-001	5.689932e+001
62000000	-5.151277e-001	5.566489e+001
62250000	-5.156762e-001	5.443112e+001
62500000	-5.161900e-001	5.319508e+001
62750000	-5.167167e-001	5.195976e+001
63000000	-5.173359e-001	5.072351e+001
63250000	-5.177192e-001	4.948797e+001
63500000	-5.181045e-001	4.825121e+001
63750000	-5.185120e-001	4.701453e+001
64000000	-5.189295e-001	4.577793e+001
64250000	-5.191885e-001	4.454055e+001
64500000	-5.196122e-001	4.330249e+001
64750000	-5.198753e-001	4.206434e+001
65000000	-5.202061e-001	4.082670e+001
65250000	-5.192028e-001	3.958881e+001
65500000	-5.193602e-001	3.834992e+001
65750000	-5.196243e-001	3.711126e+001
66000000	-5.197913e-001	3.587211e+001
66250000	-5.197233e-001	3.463275e+001
66500000	-5.199796e-001	3.339192e+001
66750000	-5.199834e-001	3.215152e+001
67000000	-5.201082e-001	3.091148e+001
67250000	-5.201695e-001	2.967081e+001
67500000	-5.202837e-001	2.842958e+001
67750000	-5.202599e-001	2.718822e+001
68000000	-5.203311e-001	2.594589e+001
68250000	-5.201838e-001	2.470415e+001
68500000	-5.201492e-001	2.346286e+001
68750000	-5.201360e-001	2.221972e+001
69000000	-5.200051e-001	2.097485e+001
69250000	-5.199335e-001	1.973178e+001
69500000	-5.197502e-001	1.848930e+001
69750000	-5.196781e-001	1.724654e+001
70000000	-5.196020e-001	1.600141e+001
70250000	-5.194435e-001	1.475550e+001
70500000	-5.193327e-001	1.351065e+001
70750000	-5.191805e-001	1.226803e+001
71000000	-5.189691e-001	1.102422e+001
71250000	-5.187881e-001	9.777038e+000
71500000	-5.185332e-001	8.529620e+000
71750000	-5.183642e-001	7.284571e+000
72000000	-5.182687e-001	6.041797e+000
72250000	-5.180654e-001	4.795598e+000
72500000	-5.177726e-001	3.545634e+000
72750000	-5.175631e-001	2.297671e+000
73000000	-5.172868e-001	1.053784e+000
73250000	-5.171700e-001	-1.916387e-001
73500000	-5.169789e-001	-1.440361e+000
73750000	-5.167329e-001	-2.690941e+000
74000000	-5.164683e-001	-3.937288e+000
74250000	-5.162834e-001	-5.182547e+000
74500000	-5.160042e-001	-6.431985e+000
74750000	-5.157617e-001	-7.683082e+000
75000000	-5.154779e-001	-8.931318e+000
75250000	-5.154058e-001	-1.017688e+001
75500000	-5.150698e-001	-1.142634e+001
75750000	-5.148894e-001	-1.267746e+001
76000000	-5.146743e-001	-1.392633e+001
76250000	-5.144976e-001	-1.517375e+001
76500000	-5.143775e-001	-1.642334e+001
76750000	-5.139952e-001	-1.767544e+001
77000000	-5.138732e-001	-1.892434e+001
77250000	-5.137638e-001	-2.017201e+001
77500000	-5.136008e-001	-2.142260e+001
77750000	-5.135285e-001	-2.267411e+001
78000000	-5.134269e-001	-2.392270e+001
78250000	-5.132787e-001	-2.517119e+001
78500000	-5.132471e-001	-2.642339e+001
78750000	-5.131801e-001	-2.767391e+001
79000000	-5.130354e-001	-2.892227e+001
79250000	-5.129640e-001	-3.017211e+001
79500000	-5.129385e-001	-3.142523e+001
79750000	-5.128341e-001	-3.267499e+001
80000000	-5.129514e-001	-3.392438e+001
80250000	-5.128714e-001	-3.517639e+001
80500000	-5.128516e-001	-3.642765e+001
80750000	-5.130378e-001	-3.767595e+001
81000000	-5.130079e-001	-3.892569e+001
81250000	-5.129630e-001	-4.017834e+001
81500000	-5.131073e-001	-4.142864e+001
81750000	-5.133146e-001	-4.267688e+001
82000000	-5.134186e-001	-4.392795e+001
82250000	-5.135249e-001	-4.517913e+001
82500000	-5.137005e-001	-4.642784e+001
82750000	-5.139216e-001	-4.767668e+001
83000000	-5.140835e-001	-4.892875e+001
83250000	-5.143931e-001	-5.017937e+001
83500000	-5.145177e-001	-5.142778e+001
83750000	-5.147843e-001	-5.267824e+001
84000000	-5.151401e-001	-5.392943e+001
84250000	-5.153663e-001	-5.517780e+001
84500000	-5.158443e-001	-5.642669e+001
84750000	-5.161899e-001	-5.767819e+001
85000000	-5.164389e-001	-5.892785e+001
85250000	-5.169344e-001	-6.017384e+001
85500000	-5.173624e-001	-6.142349e+001
85750000	-5.179504e-001	-6.267404e+001
86000000	-5.183056e-001	-6.392198e+001
86250000	-5.188390e-001	-6.516702e+001
86500000	-5.193838e-001	-6.641705e+001
86750000	-5.199517e-001	-6.766618e+001
87000000	-5.207010e-001	-6.891197e+001
87250000	-5.212923e-001	-7.015904e+001
87500000	-5.218880e-001	-7.140786e+001
87750000	-5.225884e-001	-7.265527e+001
88000000	-5.233080e-001	-7.390034e+001
88250000	-5.239710e-001	-7.514681e+001
88500000	-5.247568e-001	-7.639474e+001
88750000	-5.255906e-001	-7.763895e+001
89000000	-5.262964e-001	-7.888461e+001
89250000	-5.272042e-001	-8.013040e+001
89500000	-5.279214e-001	-8.137546e+001
89750000	-5.288087e-001	-8.261945e+001
90000000	-5.297317e-001	-8.386379e+001
90250000	-5.305458e-001	-8.510928e+001
90500000	-5.315282e-001	-8.635173e+001
90750000	-5.325662e-001	-8.759503e+001
91000000	-5.334235e-001	-8.884008e+001
91250000	-5.344023e-001	-9.008291e+001
91500000	-5.355035e-001	-9.132499e+001
91750000	-5.366353e-001	-9.256706e+001
92000000	-5.376486e-001	-9.380940e+001
92250000	-5.388504e-001	-9.504949e+001
92500000	-5.400086e-001	-9.629017e+001
92750000	-5.410781e-001	-9.753169e+001
93000000	-5.423746e-001	-9.877181e+001
93250000	-5.434129e-001	-1.000093e+002
93500000	-5.446617e-001	-1.012496e+002
93750000	-5.458155e-001	-1.024900e+002
94000000	-5.471149e-001	-1.037268e+002
94250000	-5.484471e-001	-1.049651e+002
94500000	-5.496199e-001	-1.062041e+002
94750000	-5.509940e-001	-1.074429e+002
95000000	-5.523209e-001	-1.086783e+002
95250000	-5.538828e-001	-1.099145e+002
95500000	-5.551252e-001	-1.111501e+002
95750000	-5.565528e-001	-1.123859e+002
96000000	-5.580218e-001	-1.136231e+002
96250000	-5.593669e-001	-1.148568e+002
96500000	-5.607096e-001	-1.160926e+002
96750000	-5.623062e-001	-1.173256e+002
97000000	-5.637475e-001	-1.185597e+002
97250000	-5.652170e-001	-1.197920e+002
97500000	-5.668095e-001	-1.210245e+002
97750000	-5.682205e-001	-1.222576e+002
98000000	-5.696611e-001	-1.234895e+002
98250000	-5.712334e-001	-1.247208e+002
98500000	-5.728631e-001	-1.259517e+002
98750000	-5.742982e-001	-1.271814e+002
99000000	-5.759517e-001	-1.284104e+002
99250000	-5.774917e-001	-1.296400e+002
99500000	-5.790304e-001	-1.308693e+002
99750000	-5.806163e-001	-1.320985e+002
100000000	-5.822390e-001	-1.333271e+002
