!Agilent Technologies,E5072A,MY51200456,A.01.06
!Date: Thu Sep 03 21:04:03 2015
!Data & Calibration Information:
!Freq	S11:SOLT1(ON)
!PortZ  Port1:50+j0
!Above PortZ is port z conversion or system Z0 setting when saving the data.
!When reading, reference impedance value at option line is always used.
# Hz S dB R 50
50000000	-3.180328e+001	-1.380382e+002
50250000	-3.179929e+001	-1.388801e+002
50500000	-3.179653e+001	-1.397164e+002
50750000	-3.179405e+001	-1.405599e+002
51000000	-3.179230e+001	-1.413834e+002
51250000	-3.178935e+001	-1.422505e+002
51500000	-3.179040e+001	-1.430744e+002
51750000	-3.179060e+001	-1.439132e+002
52000000	-3.178786e+001	-1.447505e+002
52250000	-3.178905e+001	-1.456132e+002
52500000	-3.178993e+001	-1.464444e+002
52750000	-3.179163e+001	-1.472908e+002
53000000	-3.179100e+001	-1.481067e+002
53250000	-3.179376e+001	-1.489476e+002
53500000	-3.179710e+001	-1.497874e+002
53750000	-3.179896e+001	-1.506195e+002
54000000	-3.179818e+001	-1.514620e+002
54250000	-3.180684e+001	-1.522978e+002
54500000	-3.181000e+001	-1.531225e+002
54750000	-3.181405e+001	-1.539656e+002
55000000	-3.181598e+001	-1.548049e+002
55250000	-3.182439e+001	-1.556295e+002
55500000	-3.182856e+001	-1.564657e+002
55750000	-3.183354e+001	-1.572934e+002
56000000	-3.183999e+001	-1.581187e+002
56250000	-3.184774e+001	-1.589465e+002
56500000	-3.185346e+001	-1.597755e+002
56750000	-3.186108e+001	-1.606161e+002
57000000	-3.186975e+001	-1.614369e+002
57250000	-3.187639e+001	-1.622845e+002
57500000	-3.188621e+001	-1.630965e+002
57750000	-3.189609e+001	-1.639334e+002
58000000	-3.190396e+001	-1.647194e+002
58250000	-3.191525e+001	-1.655730e+002
58500000	-3.192730e+001	-1.664066e+002
58750000	-3.194134e+001	-1.672353e+002
59000000	-3.194811e+001	-1.680501e+002
59250000	-3.196214e+001	-1.688883e+002
59500000	-3.197226e+001	-1.696909e+002
59750000	-3.198545e+001	-1.705349e+002
60000000	-3.199835e+001	-1.713437e+002
60250000	-3.201108e+001	-1.721750e+002
60500000	-3.202679e+001	-1.730140e+002
60750000	-3.204060e+001	-1.738349e+002
61000000	-3.205588e+001	-1.746301e+002
61250000	-3.207334e+001	-1.754701e+002
61500000	-3.208752e+001	-1.763057e+002
61750000	-3.210273e+001	-1.771182e+002
62000000	-3.212073e+001	-1.779384e+002
62250000	-3.213682e+001	-1.787632e+002
62500000	-3.215569e+001	-1.795786e+002
62750000	-3.217432e+001	1.795942e+002
63000000	-3.219445e+001	1.788000e+002
63250000	-3.221193e+001	1.779711e+002
63500000	-3.223384e+001	1.771418e+002
63750000	-3.225410e+001	1.763270e+002
64000000	-3.227290e+001	1.755121e+002
64250000	-3.229243e+001	1.746941e+002
64500000	-3.231793e+001	1.738766e+002
64750000	-3.233909e+001	1.730605e+002
65000000	-3.235954e+001	1.722447e+002
65250000	-3.238293e+001	1.714010e+002
65500000	-3.240502e+001	1.705832e+002
65750000	-3.243168e+001	1.697767e+002
66000000	-3.245670e+001	1.689695e+002
66250000	-3.248125e+001	1.681366e+002
66500000	-3.250743e+001	1.673270e+002
66750000	-3.253559e+001	1.665219e+002
67000000	-3.255887e+001	1.657003e+002
67250000	-3.258809e+001	1.648769e+002
67500000	-3.261624e+001	1.640741e+002
67750000	-3.264294e+001	1.632595e+002
68000000	-3.267287e+001	1.624439e+002
68250000	-3.270315e+001	1.616375e+002
68500000	-3.273323e+001	1.608173e+002
68750000	-3.276379e+001	1.600114e+002
69000000	-3.279385e+001	1.591753e+002
69250000	-3.282620e+001	1.583897e+002
69500000	-3.285846e+001	1.575642e+002
69750000	-3.289170e+001	1.567608e+002
70000000	-3.292495e+001	1.559469e+002
70250000	-3.295825e+001	1.551314e+002
70500000	-3.300269e+001	1.543450e+002
70750000	-3.302891e+001	1.535139e+002
71000000	-3.306336e+001	1.526990e+002
71250000	-3.310032e+001	1.518955e+002
71500000	-3.314183e+001	1.510985e+002
71750000	-3.317510e+001	1.502738e+002
72000000	-3.321311e+001	1.494717e+002
72250000	-3.325050e+001	1.486702e+002
72500000	-3.329175e+001	1.478778e+002
72750000	-3.333207e+001	1.470371e+002
73000000	-3.337403e+001	1.462318e+002
73250000	-3.341417e+001	1.454102e+002
73500000	-3.345037e+001	1.446088e+002
73750000	-3.349960e+001	1.437916e+002
74000000	-3.354286e+001	1.429817e+002
74250000	-3.358557e+001	1.421876e+002
74500000	-3.362978e+001	1.413859e+002
74750000	-3.367631e+001	1.405889e+002
75000000	-3.372418e+001	1.397478e+002
75250000	-3.376916e+001	1.389600e+002
75500000	-3.381647e+001	1.381519e+002
75750000	-3.386683e+001	1.373495e+002
76000000	-3.391414e+001	1.365307e+002
76250000	-3.396174e+001	1.357222e+002
76500000	-3.401467e+001	1.349271e+002
76750000	-3.406884e+001	1.341289e+002
77000000	-3.411876e+001	1.333164e+002
77250000	-3.417126e+001	1.325117e+002
77500000	-3.422459e+001	1.317120e+002
77750000	-3.427978e+001	1.308954e+002
78000000	-3.433484e+001	1.300955e+002
78250000	-3.438903e+001	1.292670e+002
78500000	-3.444672e+001	1.284665e+002
78750000	-3.450485e+001	1.276586e+002
79000000	-3.456089e+001	1.268543e+002
79250000	-3.462121e+001	1.260443e+002
79500000	-3.468220e+001	1.252495e+002
79750000	-3.474333e+001	1.244318e+002
80000000	-3.480555e+001	1.236363e+002
80250000	-3.486636e+001	1.228177e+002
80500000	-3.493274e+001	1.220187e+002
80750000	-3.499558e+001	1.211902e+002
81000000	-3.506301e+001	1.204018e+002
81250000	-3.513202e+001	1.195921e+002
81500000	-3.519896e+001	1.187818e+002
81750000	-3.526310e+001	1.179814e+002
82000000	-3.533360e+001	1.171693e+002
82250000	-3.540289e+001	1.163666e+002
82500000	-3.547743e+001	1.155581e+002
82750000	-3.554461e+001	1.147390e+002
83000000	-3.562674e+001	1.139314e+002
83250000	-3.569659e+001	1.131515e+002
83500000	-3.577289e+001	1.123648e+002
83750000	-3.585158e+001	1.115192e+002
84000000	-3.593037e+001	1.106937e+002
84250000	-3.601006e+001	1.099180e+002
84500000	-3.608684e+001	1.090853e+002
84750000	-3.617232e+001	1.082618e+002
85000000	-3.625347e+001	1.075000e+002
85250000	-3.633753e+001	1.066577e+002
85500000	-3.642115e+001	1.058699e+002
85750000	-3.651061e+001	1.050436e+002
86000000	-3.659899e+001	1.042703e+002
86250000	-3.668754e+001	1.034565e+002
86500000	-3.678063e+001	1.026358e+002
86750000	-3.687222e+001	1.018012e+002
87000000	-3.696246e+001	1.010139e+002
87250000	-3.705869e+001	1.002030e+002
87500000	-3.715266e+001	9.939667e+001
87750000	-3.725400e+001	9.857704e+001
88000000	-3.735105e+001	9.777333e+001
88250000	-3.745690e+001	9.694258e+001
88500000	-3.756059e+001	9.612120e+001
88750000	-3.766498e+001	9.531817e+001
89000000	-3.777047e+001	9.453170e+001
89250000	-3.787532e+001	9.369680e+001
89500000	-3.798817e+001	9.288196e+001
89750000	-3.810052e+001	9.210392e+001
90000000	-3.820871e+001	9.127195e+001
90250000	-3.833039e+001	9.045903e+001
90500000	-3.844251e+001	8.964047e+001
90750000	-3.856016e+001	8.883300e+001
91000000	-3.868436e+001	8.802860e+001
91250000	-3.880907e+001	8.718674e+001
91500000	-3.893270e+001	8.637378e+001
91750000	-3.906144e+001	8.552941e+001
92000000	-3.919746e+001	8.470779e+001
92250000	-3.932106e+001	8.386908e+001
92500000	-3.945851e+001	8.309102e+001
92750000	-3.960055e+001	8.223386e+001
93000000	-3.973755e+001	8.142784e+001
93250000	-3.988197e+001	8.058982e+001
93500000	-4.002342e+001	7.977151e+001
93750000	-4.017615e+001	7.897105e+001
94000000	-4.032306e+001	7.809786e+001
94250000	-4.048037e+001	7.730845e+001
94500000	-4.063954e+001	7.645622e+001
94750000	-4.079860e+001	7.565267e+001
95000000	-4.096515e+001	7.474009e+001
95250000	-4.113197e+001	7.400186e+001
95500000	-4.130683e+001	7.315642e+001
95750000	-4.148484e+001	7.225875e+001
96000000	-4.165740e+001	7.147431e+001
96250000	-4.184356e+001	7.055974e+001
96500000	-4.203356e+001	6.979278e+001
96750000	-4.221800e+001	6.889253e+001
97000000	-4.241768e+001	6.808334e+001
97250000	-4.262275e+001	6.721474e+001
97500000	-4.282706e+001	6.637098e+001
97750000	-4.304064e+001	6.555183e+001
98000000	-4.326249e+001	6.468277e+001
98250000	-4.348472e+001	6.373074e+001
98500000	-4.371151e+001	6.293276e+001
98750000	-4.394668e+001	6.205534e+001
99000000	-4.418960e+001	6.116167e+001
99250000	-4.443889e+001	6.028497e+001
99500000	-4.470407e+001	5.936246e+001
99750000	-4.495902e+001	5.853112e+001
100000000	-4.524225e+001	5.763791e+001
