!Agilent Technologies,E5072A,MY51200456,A.01.06
!Date: Thu Sep 03 21:02:26 2015
!Data & Calibration Information:
!Freq	S11:SOLT1(ON)
!PortZ  Port1:50+j0
!Above PortZ is port z conversion or system Z0 setting when saving the data.
!When reading, reference impedance value at option line is always used.
# Hz S dB R 50
50000000	-4.523003e-001	-6.870309e+001
50250000	-4.524231e-001	-6.993254e+001
50500000	-4.528166e-001	-7.116136e+001
50750000	-4.532001e-001	-7.238993e+001
51000000	-4.535264e-001	-7.361835e+001
51250000	-4.539288e-001	-7.484810e+001
51500000	-4.543014e-001	-7.607477e+001
51750000	-4.547725e-001	-7.730324e+001
52000000	-4.552249e-001	-7.853065e+001
52250000	-4.557325e-001	-7.975869e+001
52500000	-4.562122e-001	-8.098596e+001
52750000	-4.568113e-001	-8.221257e+001
53000000	-4.573776e-001	-8.343879e+001
53250000	-4.578092e-001	-8.466548e+001
53500000	-4.585772e-001	-8.589197e+001
53750000	-4.591822e-001	-8.711765e+001
54000000	-4.598770e-001	-8.834444e+001
54250000	-4.605838e-001	-8.956861e+001
54500000	-4.613356e-001	-9.079418e+001
54750000	-4.621026e-001	-9.201943e+001
55000000	-4.630268e-001	-9.324508e+001
55250000	-4.638027e-001	-9.446826e+001
55500000	-4.647257e-001	-9.569212e+001
55750000	-4.655951e-001	-9.691726e+001
56000000	-4.665079e-001	-9.814054e+001
56250000	-4.673949e-001	-9.936309e+001
56500000	-4.683457e-001	-1.005860e+002
56750000	-4.694507e-001	-1.018091e+002
57000000	-4.703945e-001	-1.030314e+002
57250000	-4.715265e-001	-1.042535e+002
57500000	-4.724398e-001	-1.054747e+002
57750000	-4.736047e-001	-1.066960e+002
58000000	-4.745665e-001	-1.079176e+002
58250000	-4.758799e-001	-1.091381e+002
58500000	-4.771498e-001	-1.103586e+002
58750000	-4.784239e-001	-1.115787e+002
59000000	-4.796010e-001	-1.127984e+002
59250000	-4.809538e-001	-1.140185e+002
59500000	-4.821543e-001	-1.152380e+002
59750000	-4.835332e-001	-1.164567e+002
60000000	-4.847452e-001	-1.176754e+002
60250000	-4.861883e-001	-1.188934e+002
60500000	-4.876444e-001	-1.201120e+002
60750000	-4.890419e-001	-1.213290e+002
61000000	-4.904822e-001	-1.225458e+002
61250000	-4.919541e-001	-1.237637e+002
61500000	-4.934861e-001	-1.249803e+002
61750000	-4.948993e-001	-1.261971e+002
62000000	-4.964077e-001	-1.274125e+002
62250000	-4.980154e-001	-1.286283e+002
62500000	-4.996068e-001	-1.298439e+002
62750000	-5.012325e-001	-1.310589e+002
63000000	-5.026526e-001	-1.322729e+002
63250000	-5.043456e-001	-1.334879e+002
63500000	-5.060441e-001	-1.347018e+002
63750000	-5.077784e-001	-1.359158e+002
64000000	-5.092770e-001	-1.371296e+002
64250000	-5.110075e-001	-1.383426e+002
64500000	-5.126957e-001	-1.395549e+002
64750000	-5.143931e-001	-1.407673e+002
65000000	-5.161209e-001	-1.419802e+002
65250000	-5.167748e-001	-1.431909e+002
65500000	-5.185000e-001	-1.444028e+002
65750000	-5.203047e-001	-1.456131e+002
66000000	-5.220775e-001	-1.468242e+002
66250000	-5.239216e-001	-1.480347e+002
66500000	-5.256844e-001	-1.492450e+002
66750000	-5.274070e-001	-1.504552e+002
67000000	-5.292680e-001	-1.516645e+002
67250000	-5.310514e-001	-1.528733e+002
67500000	-5.328072e-001	-1.540825e+002
67750000	-5.347544e-001	-1.552924e+002
68000000	-5.365764e-001	-1.565008e+002
68250000	-5.385361e-001	-1.577090e+002
68500000	-5.404603e-001	-1.589162e+002
68750000	-5.421859e-001	-1.601243e+002
69000000	-5.442571e-001	-1.613326e+002
69250000	-5.460267e-001	-1.625405e+002
69500000	-5.479486e-001	-1.637465e+002
69750000	-5.497800e-001	-1.649525e+002
70000000	-5.515917e-001	-1.661595e+002
70250000	-5.535535e-001	-1.673670e+002
70500000	-5.553460e-001	-1.685728e+002
70750000	-5.573148e-001	-1.697771e+002
71000000	-5.592221e-001	-1.709809e+002
71250000	-5.611418e-001	-1.721881e+002
71500000	-5.630684e-001	-1.733947e+002
71750000	-5.649783e-001	-1.745979e+002
72000000	-5.668618e-001	-1.757998e+002
72250000	-5.687233e-001	-1.770040e+002
72500000	-5.706437e-001	-1.782106e+002
72750000	-5.724522e-001	-1.794164e+002
73000000	-5.743252e-001	1.793829e+002
73250000	-5.762499e-001	1.781815e+002
73500000	-5.781544e-001	1.769772e+002
73750000	-5.799639e-001	1.757707e+002
74000000	-5.817775e-001	1.745695e+002
74250000	-5.836620e-001	1.733697e+002
74500000	-5.853495e-001	1.721656e+002
74750000	-5.872387e-001	1.709603e+002
75000000	-5.891556e-001	1.697582e+002
75250000	-5.909045e-001	1.685592e+002
75500000	-5.925524e-001	1.673574e+002
75750000	-5.942820e-001	1.661530e+002
76000000	-5.960817e-001	1.649518e+002
76250000	-5.976882e-001	1.637522e+002
76500000	-5.995620e-001	1.625501e+002
76750000	-6.012907e-001	1.613466e+002
77000000	-6.029468e-001	1.601467e+002
77250000	-6.046213e-001	1.589474e+002
77500000	-6.062565e-001	1.577453e+002
77750000	-6.079432e-001	1.565429e+002
78000000	-6.095547e-001	1.553430e+002
78250000	-6.111014e-001	1.541433e+002
78500000	-6.127137e-001	1.529409e+002
78750000	-6.142624e-001	1.517394e+002
79000000	-6.157761e-001	1.505416e+002
79250000	-6.172106e-001	1.493401e+002
79500000	-6.187416e-001	1.481378e+002
79750000	-6.202845e-001	1.469373e+002
80000000	-6.217463e-001	1.457377e+002
80250000	-6.231153e-001	1.445359e+002
80500000	-6.246157e-001	1.433339e+002
80750000	-6.258506e-001	1.421347e+002
81000000	-6.272517e-001	1.409346e+002
81250000	-6.287370e-001	1.397323e+002
81500000	-6.300705e-001	1.385309e+002
81750000	-6.312817e-001	1.373333e+002
82000000	-6.325112e-001	1.361314e+002
82250000	-6.337596e-001	1.349290e+002
82500000	-6.350389e-001	1.337298e+002
82750000	-6.361174e-001	1.325291e+002
83000000	-6.374192e-001	1.313256e+002
83250000	-6.384947e-001	1.301243e+002
83500000	-6.396405e-001	1.289252e+002
83750000	-6.407701e-001	1.277224e+002
84000000	-6.418351e-001	1.265181e+002
84250000	-6.429088e-001	1.253180e+002
84500000	-6.437228e-001	1.241169e+002
84750000	-6.448815e-001	1.229116e+002
85000000	-6.458958e-001	1.217094e+002
85250000	-6.466955e-001	1.205090e+002
85500000	-6.475878e-001	1.193063e+002
85750000	-6.485124e-001	1.181010e+002
86000000	-6.494131e-001	1.169001e+002
86250000	-6.501240e-001	1.156985e+002
86500000	-6.509979e-001	1.144933e+002
86750000	-6.516894e-001	1.132872e+002
87000000	-6.524304e-001	1.120859e+002
87250000	-6.532290e-001	1.108823e+002
87500000	-6.537341e-001	1.096759e+002
87750000	-6.545290e-001	1.084708e+002
88000000	-6.551383e-001	1.072673e+002
88250000	-6.557958e-001	1.060611e+002
88500000	-6.564005e-001	1.048542e+002
88750000	-6.568731e-001	1.036496e+002
89000000	-6.574095e-001	1.024449e+002
89250000	-6.577809e-001	1.012370e+002
89500000	-6.583112e-001	1.000302e+002
89750000	-6.587669e-001	9.882486e+001
90000000	-6.590514e-001	9.761655e+001
90250000	-6.594782e-001	9.640906e+001
90500000	-6.597867e-001	9.520169e+001
90750000	-6.599977e-001	9.399367e+001
91000000	-6.604700e-001	9.278346e+001
91250000	-6.607285e-001	9.157389e+001
91500000	-6.608917e-001	9.036558e+001
91750000	-6.612230e-001	8.915414e+001
92000000	-6.615637e-001	8.794299e+001
92250000	-6.616797e-001	8.673386e+001
92500000	-6.618271e-001	8.552396e+001
92750000	-6.620466e-001	8.431086e+001
93000000	-6.621500e-001	8.309987e+001
93250000	-6.622365e-001	8.188932e+001
93500000	-6.622505e-001	8.067644e+001
93750000	-6.624182e-001	7.946274e+001
94000000	-6.623864e-001	7.825066e+001
94250000	-6.623546e-001	7.703768e+001
94500000	-6.623815e-001	7.582034e+001
94750000	-6.623314e-001	7.460636e+001
95000000	-6.623914e-001	7.339185e+001
95250000	-6.621818e-001	7.217802e+001
95500000	-6.621834e-001	7.096160e+001
95750000	-6.620954e-001	6.974408e+001
96000000	-6.619785e-001	6.852737e+001
96250000	-6.618251e-001	6.730872e+001
96500000	-6.616397e-001	6.609062e+001
96750000	-6.613736e-001	6.487234e+001
97000000	-6.612036e-001	6.365454e+001
97250000	-6.610580e-001	6.243533e+001
97500000	-6.607928e-001	6.121579e+001
97750000	-6.606031e-001	5.999563e+001
98000000	-6.602931e-001	5.877433e+001
98250000	-6.600279e-001	5.755210e+001
98500000	-6.597299e-001	5.633036e+001
98750000	-6.595274e-001	5.510855e+001
99000000	-6.592261e-001	5.388599e+001
99250000	-6.589415e-001	5.266315e+001
99500000	-6.586693e-001	5.143911e+001
99750000	-6.582236e-001	5.021429e+001
100000000	-6.579579e-001	4.898891e+001
