!Agilent Technologies,E5072A,MY51200456,A.01.06
!Date: Thu Sep 03 20:59:58 2015
!Data & Calibration Information:
!Freq	S11:SOLT1(ON)
!PortZ  Port1:50+j0
!Above PortZ is port z conversion or system Z0 setting when saving the data.
!When reading, reference impedance value at option line is always used.
# Hz S dB R 50
50000000	-3.321694e+001	-1.539198e+002
50250000	-3.323076e+001	-1.546631e+002
50500000	-3.324573e+001	-1.554047e+002
50750000	-3.326338e+001	-1.561660e+002
51000000	-3.328133e+001	-1.568793e+002
51250000	-3.329537e+001	-1.576442e+002
51500000	-3.331541e+001	-1.583922e+002
51750000	-3.333117e+001	-1.591357e+002
52000000	-3.335036e+001	-1.598719e+002
52250000	-3.336871e+001	-1.606246e+002
52500000	-3.338689e+001	-1.613637e+002
52750000	-3.340775e+001	-1.621100e+002
53000000	-3.342658e+001	-1.628391e+002
53250000	-3.344813e+001	-1.635860e+002
53500000	-3.346683e+001	-1.643276e+002
53750000	-3.348958e+001	-1.650536e+002
54000000	-3.350671e+001	-1.657881e+002
54250000	-3.353139e+001	-1.665291e+002
54500000	-3.355286e+001	-1.672498e+002
54750000	-3.357429e+001	-1.680023e+002
55000000	-3.359482e+001	-1.687420e+002
55250000	-3.362037e+001	-1.694555e+002
55500000	-3.364212e+001	-1.701898e+002
55750000	-3.366635e+001	-1.709145e+002
56000000	-3.369021e+001	-1.716462e+002
56250000	-3.371455e+001	-1.723603e+002
56500000	-3.373970e+001	-1.730868e+002
56750000	-3.376497e+001	-1.738122e+002
57000000	-3.379069e+001	-1.745328e+002
57250000	-3.381309e+001	-1.752698e+002
57500000	-3.384170e+001	-1.759698e+002
57750000	-3.386979e+001	-1.767103e+002
58000000	-3.390186e+001	-1.773945e+002
58250000	-3.392524e+001	-1.781259e+002
58500000	-3.395439e+001	-1.788510e+002
58750000	-3.398538e+001	-1.795790e+002
59000000	-3.401107e+001	1.797220e+002
59250000	-3.404011e+001	1.789800e+002
59500000	-3.407027e+001	1.783036e+002
59750000	-3.409959e+001	1.775745e+002
60000000	-3.412826e+001	1.768852e+002
60250000	-3.416203e+001	1.761485e+002
60500000	-3.419356e+001	1.754445e+002
60750000	-3.422716e+001	1.747353e+002
61000000	-3.425716e+001	1.740036e+002
61250000	-3.429083e+001	1.733253e+002
61500000	-3.432526e+001	1.726013e+002
61750000	-3.435876e+001	1.719259e+002
62000000	-3.439274e+001	1.712196e+002
62250000	-3.442543e+001	1.705191e+002
62500000	-3.446373e+001	1.698199e+002
62750000	-3.449959e+001	1.691137e+002
63000000	-3.453691e+001	1.684340e+002
63250000	-3.457342e+001	1.677318e+002
63500000	-3.460941e+001	1.670243e+002
63750000	-3.464680e+001	1.663348e+002
64000000	-3.468498e+001	1.656462e+002
64250000	-3.472190e+001	1.649529e+002
64500000	-3.476437e+001	1.642708e+002
64750000	-3.480530e+001	1.635832e+002
65000000	-3.484449e+001	1.628944e+002
65250000	-3.488231e+001	1.621855e+002
65500000	-3.492307e+001	1.614985e+002
65750000	-3.496624e+001	1.608119e+002
66000000	-3.500744e+001	1.601340e+002
66250000	-3.505052e+001	1.594425e+002
66500000	-3.509659e+001	1.587584e+002
66750000	-3.513907e+001	1.580802e+002
67000000	-3.518309e+001	1.574120e+002
67250000	-3.523048e+001	1.567241e+002
67500000	-3.527718e+001	1.560659e+002
67750000	-3.531988e+001	1.553883e+002
68000000	-3.536872e+001	1.547171e+002
68250000	-3.541563e+001	1.540489e+002
68500000	-3.546423e+001	1.533600e+002
68750000	-3.551186e+001	1.527160e+002
69000000	-3.556197e+001	1.520353e+002
69250000	-3.561141e+001	1.514026e+002
69500000	-3.566157e+001	1.507306e+002
69750000	-3.571240e+001	1.500781e+002
70000000	-3.576647e+001	1.494143e+002
70250000	-3.581549e+001	1.487523e+002
70500000	-3.588129e+001	1.481160e+002
70750000	-3.592463e+001	1.474519e+002
71000000	-3.597682e+001	1.468085e+002
71250000	-3.603275e+001	1.461535e+002
71500000	-3.609372e+001	1.455284e+002
71750000	-3.614535e+001	1.448441e+002
72000000	-3.620034e+001	1.442273e+002
72250000	-3.625921e+001	1.435861e+002
72500000	-3.632113e+001	1.429586e+002
72750000	-3.637822e+001	1.423109e+002
73000000	-3.643978e+001	1.416619e+002
73250000	-3.649673e+001	1.410421e+002
73500000	-3.655161e+001	1.403894e+002
73750000	-3.662266e+001	1.397470e+002
74000000	-3.668486e+001	1.391239e+002
74250000	-3.675084e+001	1.385206e+002
74500000	-3.681289e+001	1.379246e+002
74750000	-3.688094e+001	1.373071e+002
75000000	-3.694612e+001	1.366660e+002
75250000	-3.701250e+001	1.360289e+002
75500000	-3.707677e+001	1.354223e+002
75750000	-3.714660e+001	1.348337e+002
76000000	-3.721350e+001	1.342270e+002
76250000	-3.728438e+001	1.336104e+002
76500000	-3.735359e+001	1.330094e+002
76750000	-3.743167e+001	1.324174e+002
77000000	-3.750092e+001	1.318398e+002
77250000	-3.757648e+001	1.312360e+002
77500000	-3.765205e+001	1.306454e+002
77750000	-3.772670e+001	1.300651e+002
78000000	-3.780068e+001	1.294798e+002
78250000	-3.787867e+001	1.288705e+002
78500000	-3.795675e+001	1.283192e+002
78750000	-3.803487e+001	1.277428e+002
79000000	-3.811110e+001	1.271627e+002
79250000	-3.819302e+001	1.266082e+002
79500000	-3.827792e+001	1.260500e+002
79750000	-3.836394e+001	1.255050e+002
80000000	-3.844737e+001	1.249625e+002
80250000	-3.852698e+001	1.243984e+002
80500000	-3.861730e+001	1.238588e+002
80750000	-3.870522e+001	1.232971e+002
81000000	-3.879594e+001	1.227670e+002
81250000	-3.888715e+001	1.222385e+002
81500000	-3.897866e+001	1.217186e+002
81750000	-3.906797e+001	1.212106e+002
82000000	-3.915912e+001	1.206934e+002
82250000	-3.925108e+001	1.201830e+002
82500000	-3.934818e+001	1.196772e+002
82750000	-3.944357e+001	1.191433e+002
83000000	-3.954783e+001	1.186708e+002
83250000	-3.964227e+001	1.181750e+002
83500000	-3.974210e+001	1.177282e+002
83750000	-3.984481e+001	1.172297e+002
84000000	-3.994822e+001	1.167358e+002
84250000	-4.005250e+001	1.162754e+002
84500000	-4.015381e+001	1.158269e+002
84750000	-4.026595e+001	1.153677e+002
85000000	-4.037759e+001	1.149537e+002
85250000	-4.048079e+001	1.145058e+002
85500000	-4.059565e+001	1.141053e+002
85750000	-4.070798e+001	1.136893e+002
86000000	-4.081637e+001	1.133458e+002
86250000	-4.093485e+001	1.129023e+002
86500000	-4.105386e+001	1.124989e+002
86750000	-4.118010e+001	1.121284e+002
87000000	-4.128885e+001	1.117646e+002
87250000	-4.142035e+001	1.114437e+002
87500000	-4.153207e+001	1.110901e+002
87750000	-4.166305e+001	1.107605e+002
88000000	-4.178954e+001	1.104527e+002
88250000	-4.191685e+001	1.101220e+002
88500000	-4.205226e+001	1.098359e+002
88750000	-4.218430e+001	1.095304e+002
89000000	-4.232269e+001	1.093348e+002
89250000	-4.244338e+001	1.090611e+002
89500000	-4.259149e+001	1.088244e+002
89750000	-4.272327e+001	1.086611e+002
90000000	-4.286300e+001	1.084322e+002
90250000	-4.300470e+001	1.082395e+002
90500000	-4.314401e+001	1.080953e+002
90750000	-4.328892e+001	1.079354e+002
91000000	-4.344430e+001	1.078438e+002
91250000	-4.359687e+001	1.077202e+002
91500000	-4.374093e+001	1.076379e+002
91750000	-4.389452e+001	1.075637e+002
92000000	-4.405467e+001	1.075472e+002
92250000	-4.420336e+001	1.075325e+002
92500000	-4.435500e+001	1.075846e+002
92750000	-4.452539e+001	1.076363e+002
93000000	-4.467769e+001	1.076859e+002
93250000	-4.484312e+001	1.078200e+002
93500000	-4.499758e+001	1.079111e+002
93750000	-4.516389e+001	1.081765e+002
94000000	-4.532249e+001	1.082720e+002
94250000	-4.548548e+001	1.086000e+002
94500000	-4.565698e+001	1.088356e+002
94750000	-4.582041e+001	1.092200e+002
95000000	-4.599346e+001	1.095175e+002
95250000	-4.615161e+001	1.100150e+002
95500000	-4.631812e+001	1.104642e+002
95750000	-4.648737e+001	1.109305e+002
96000000	-4.664497e+001	1.114840e+002
96250000	-4.681300e+001	1.120185e+002
96500000	-4.695949e+001	1.127170e+002
96750000	-4.712214e+001	1.133172e+002
97000000	-4.728702e+001	1.141349e+002
97250000	-4.743120e+001	1.149383e+002
97500000	-4.757414e+001	1.157549e+002
97750000	-4.772399e+001	1.167786e+002
98000000	-4.787568e+001	1.176983e+002
98250000	-4.800584e+001	1.186377e+002
98500000	-4.811827e+001	1.196684e+002
98750000	-4.823933e+001	1.208529e+002
99000000	-4.836662e+001	1.218912e+002
99250000	-4.846735e+001	1.231948e+002
99500000	-4.855729e+001	1.244365e+002
99750000	-4.863623e+001	1.257015e+002
100000000	-4.872509e+001	1.270425e+002
