!Agilent Technologies,E5072A,MY51200456,A.01.06
!Date: Thu Sep 03 20:58:11 2015
!Data & Calibration Information:
!Freq	S11:SOLT1(ON)
!PortZ  Port1:50+j0
!Above PortZ is port z conversion or system Z0 setting when saving the data.
!When reading, reference impedance value at option line is always used.
# Hz S dB R 50
50000000	-3.362045e-001	1.481275e+002
50250000	-3.386335e-001	1.470769e+002
50500000	-3.408946e-001	1.460262e+002
50750000	-3.430615e-001	1.449755e+002
51000000	-3.453708e-001	1.439246e+002
51250000	-3.476391e-001	1.428749e+002
51500000	-3.498258e-001	1.418240e+002
51750000	-3.519858e-001	1.407734e+002
52000000	-3.541684e-001	1.397231e+002
52250000	-3.562448e-001	1.386725e+002
52500000	-3.583905e-001	1.376225e+002
52750000	-3.604760e-001	1.365721e+002
53000000	-3.625601e-001	1.355214e+002
53250000	-3.645841e-001	1.344703e+002
53500000	-3.666053e-001	1.334200e+002
53750000	-3.686862e-001	1.323694e+002
54000000	-3.706319e-001	1.313196e+002
54250000	-3.726338e-001	1.302675e+002
54500000	-3.745611e-001	1.292171e+002
54750000	-3.765630e-001	1.281665e+002
55000000	-3.783589e-001	1.271162e+002
55250000	-3.802293e-001	1.260639e+002
55500000	-3.821377e-001	1.250135e+002
55750000	-3.840516e-001	1.239632e+002
56000000	-3.858534e-001	1.229123e+002
56250000	-3.876658e-001	1.218610e+002
56500000	-3.895429e-001	1.208097e+002
56750000	-3.911708e-001	1.197588e+002
57000000	-3.929027e-001	1.187077e+002
57250000	-3.945841e-001	1.176562e+002
57500000	-3.962865e-001	1.166042e+002
57750000	-3.978608e-001	1.155527e+002
58000000	-3.997082e-001	1.145008e+002
58250000	-4.012018e-001	1.134489e+002
58500000	-4.026408e-001	1.123970e+002
58750000	-4.042329e-001	1.113445e+002
59000000	-4.058333e-001	1.102927e+002
59250000	-4.072236e-001	1.092408e+002
59500000	-4.088672e-001	1.081884e+002
59750000	-4.102055e-001	1.071363e+002
60000000	-4.117274e-001	1.060838e+002
60250000	-4.130257e-001	1.050317e+002
60500000	-4.145209e-001	1.039787e+002
60750000	-4.157964e-001	1.029265e+002
61000000	-4.170958e-001	1.018722e+002
61250000	-4.184939e-001	1.008208e+002
61500000	-4.196166e-001	9.976715e+001
61750000	-4.209611e-001	9.871408e+001
62000000	-4.221530e-001	9.766059e+001
62250000	-4.233431e-001	9.660837e+001
62500000	-4.243617e-001	9.555344e+001
62750000	-4.255115e-001	9.449991e+001
63000000	-4.267266e-001	9.344491e+001
63250000	-4.276697e-001	9.239144e+001
63500000	-4.286577e-001	9.133673e+001
63750000	-4.296416e-001	9.028190e+001
64000000	-4.306299e-001	8.922723e+001
64250000	-4.314787e-001	8.817219e+001
64500000	-4.324396e-001	8.711675e+001
64750000	-4.332926e-001	8.606092e+001
65000000	-4.341774e-001	8.500634e+001
65250000	-4.338083e-001	8.395051e+001
65500000	-4.345428e-001	8.289466e+001
65750000	-4.354286e-001	8.183858e+001
66000000	-4.362039e-001	8.078267e+001
66250000	-4.366541e-001	7.972636e+001
66500000	-4.373186e-001	7.866889e+001
66750000	-4.379765e-001	7.761145e+001
67000000	-4.385915e-001	7.655504e+001
67250000	-4.391238e-001	7.549769e+001
67500000	-4.398254e-001	7.444004e+001
67750000	-4.403672e-001	7.338217e+001
68000000	-4.408273e-001	7.232322e+001
68250000	-4.412724e-001	7.126622e+001
68500000	-4.416260e-001	7.020834e+001
68750000	-4.421308e-001	6.914914e+001
69000000	-4.423751e-001	6.808786e+001
69250000	-4.428661e-001	6.702913e+001
69500000	-4.430941e-001	6.597085e+001
69750000	-4.435279e-001	6.491175e+001
70000000	-4.437967e-001	6.385061e+001
70250000	-4.439622e-001	6.278904e+001
70500000	-4.443671e-001	6.172604e+001
70750000	-4.445727e-001	6.066839e+001
71000000	-4.446645e-001	5.960904e+001
71250000	-4.448813e-001	5.854624e+001
71500000	-4.450677e-001	5.748234e+001
71750000	-4.451094e-001	5.642155e+001
72000000	-4.453242e-001	5.536212e+001
72250000	-4.453917e-001	5.430045e+001
72500000	-4.453861e-001	5.323431e+001
72750000	-4.453406e-001	5.216979e+001
73000000	-4.454099e-001	5.110878e+001
73250000	-4.453589e-001	5.004763e+001
73500000	-4.451772e-001	4.898320e+001
73750000	-4.452819e-001	4.791489e+001
74000000	-4.451708e-001	4.685154e+001
74250000	-4.450821e-001	4.578972e+001
74500000	-4.449415e-001	4.472393e+001
74750000	-4.448933e-001	4.365573e+001
75000000	-4.447017e-001	4.259020e+001
75250000	-4.445907e-001	4.152689e+001
75500000	-4.443564e-001	4.046130e+001
75750000	-4.441139e-001	3.939221e+001
76000000	-4.438764e-001	3.832564e+001
76250000	-4.436293e-001	3.726049e+001
76500000	-4.434363e-001	3.619306e+001
76750000	-4.431037e-001	3.512297e+001
77000000	-4.427882e-001	3.405586e+001
77250000	-4.425436e-001	3.298994e+001
77500000	-4.421591e-001	3.192055e+001
77750000	-4.419484e-001	3.085033e+001
78000000	-4.417090e-001	2.978251e+001
78250000	-4.411872e-001	2.871425e+001
78500000	-4.409983e-001	2.764294e+001
78750000	-4.405777e-001	2.657224e+001
79000000	-4.401061e-001	2.550460e+001
79250000	-4.397056e-001	2.443410e+001
79500000	-4.393666e-001	2.336088e+001
79750000	-4.389890e-001	2.229008e+001
80000000	-4.386784e-001	2.122005e+001
80250000	-4.381228e-001	2.014764e+001
80500000	-4.377281e-001	1.907479e+001
80750000	-4.373527e-001	1.800415e+001
81000000	-4.368895e-001	1.693226e+001
81250000	-4.363716e-001	1.585770e+001
81500000	-4.360071e-001	1.478454e+001
81750000	-4.354779e-001	1.371397e+001
82000000	-4.350547e-001	1.264018e+001
82250000	-4.345272e-001	1.156504e+001
82500000	-4.340776e-001	1.049243e+001
82750000	-4.336124e-001	9.419220e+000
83000000	-4.332349e-001	8.342757e+000
83250000	-4.326765e-001	7.267227e+000
83500000	-4.322003e-001	6.194635e+000
83750000	-4.317996e-001	5.118191e+000
84000000	-4.312801e-001	4.041084e+000
84250000	-4.308265e-001	2.966054e+000
84500000	-4.303048e-001	1.890762e+000
84750000	-4.299020e-001	8.122248e-001
85000000	-4.293903e-001	-2.647172e-001
85250000	-4.289718e-001	-1.339193e+000
85500000	-4.285418e-001	-2.416376e+000
85750000	-4.281455e-001	-3.495796e+000
86000000	-4.276295e-001	-4.571960e+000
86250000	-4.272493e-001	-5.647027e+000
86500000	-4.268384e-001	-6.726587e+000
86750000	-4.263648e-001	-7.806367e+000
87000000	-4.260368e-001	-8.883091e+000
87250000	-4.256958e-001	-9.960307e+000
87500000	-4.252601e-001	-1.104067e+001
87750000	-4.248343e-001	-1.211983e+001
88000000	-4.245872e-001	-1.319784e+001
88250000	-4.242045e-001	-1.427718e+001
88500000	-4.238792e-001	-1.535834e+001
88750000	-4.235198e-001	-1.643716e+001
89000000	-4.231060e-001	-1.751547e+001
89250000	-4.229007e-001	-1.859657e+001
89500000	-4.225346e-001	-1.967696e+001
89750000	-4.223001e-001	-2.075595e+001
90000000	-4.220581e-001	-2.183668e+001
90250000	-4.216462e-001	-2.291784e+001
90500000	-4.215226e-001	-2.399762e+001
90750000	-4.212768e-001	-2.507826e+001
91000000	-4.210511e-001	-2.616063e+001
91250000	-4.207502e-001	-2.724168e+001
91500000	-4.205443e-001	-2.832274e+001
91750000	-4.204620e-001	-2.940443e+001
92000000	-4.203765e-001	-3.048635e+001
92250000	-4.202844e-001	-3.156653e+001
92500000	-4.201784e-001	-3.264771e+001
92750000	-4.201015e-001	-3.373043e+001
93000000	-4.200254e-001	-3.481194e+001
93250000	-4.199309e-001	-3.589162e+001
93500000	-4.198438e-001	-3.697406e+001
93750000	-4.198616e-001	-3.805695e+001
94000000	-4.198447e-001	-3.913739e+001
94250000	-4.198368e-001	-4.021941e+001
94500000	-4.199028e-001	-4.130325e+001
94750000	-4.199121e-001	-4.238634e+001
95000000	-4.199691e-001	-4.346720e+001
95250000	-4.202156e-001	-4.454896e+001
95500000	-4.203190e-001	-4.563105e+001
95750000	-4.204637e-001	-4.671368e+001
96000000	-4.207069e-001	-4.779721e+001
96250000	-4.208723e-001	-4.887948e+001
96500000	-4.209985e-001	-4.996248e+001
96750000	-4.213776e-001	-5.104404e+001
97000000	-4.216541e-001	-5.212692e+001
97250000	-4.219279e-001	-5.320859e+001
97500000	-4.223538e-001	-5.429053e+001
97750000	-4.225389e-001	-5.537356e+001
98000000	-4.228185e-001	-5.645571e+001
98250000	-4.231959e-001	-5.753775e+001
98500000	-4.236954e-001	-5.862068e+001
98750000	-4.241210e-001	-5.970202e+001
99000000	-4.245449e-001	-6.078296e+001
99250000	-4.249213e-001	-6.186540e+001
99500000	-4.253675e-001	-6.294734e+001
99750000	-4.259588e-001	-6.402975e+001
100000000	-4.265631e-001	-6.511294e+001
