!Agilent Technologies,E5072A,MY51200456,A.01.06
!Date: Thu Sep 03 20:59:11 2015
!Data & Calibration Information:
!Freq	S11:SOLT1(ON)
!PortZ  Port1:50+j0
!Above PortZ is port z conversion or system Z0 setting when saving the data.
!When reading, reference impedance value at option line is always used.
# Hz S dB R 50
50000000	-3.842433e-001	-3.391625e+001
50250000	-3.837957e-001	-3.498164e+001
50500000	-3.835596e-001	-3.604614e+001
50750000	-3.832751e-001	-3.711058e+001
51000000	-3.828101e-001	-3.817505e+001
51250000	-3.824234e-001	-3.924093e+001
51500000	-3.821887e-001	-4.030420e+001
51750000	-3.818551e-001	-4.136908e+001
52000000	-3.815822e-001	-4.243376e+001
52250000	-3.811772e-001	-4.349844e+001
52500000	-3.809462e-001	-4.456254e+001
52750000	-3.806563e-001	-4.562713e+001
53000000	-3.804178e-001	-4.669116e+001
53250000	-3.800964e-001	-4.775533e+001
53500000	-3.798168e-001	-4.881950e+001
53750000	-3.796019e-001	-4.988326e+001
54000000	-3.792816e-001	-5.094826e+001
54250000	-3.791530e-001	-5.201139e+001
54500000	-3.789645e-001	-5.307539e+001
54750000	-3.789031e-001	-5.413954e+001
55000000	-3.788654e-001	-5.520388e+001
55250000	-3.786857e-001	-5.626629e+001
55500000	-3.785999e-001	-5.732984e+001
55750000	-3.783521e-001	-5.839434e+001
56000000	-3.783004e-001	-5.945741e+001
56250000	-3.782432e-001	-6.052001e+001
56500000	-3.781826e-001	-6.158297e+001
56750000	-3.782118e-001	-6.264639e+001
57000000	-3.781010e-001	-6.370909e+001
57250000	-3.782658e-001	-6.477193e+001
57500000	-3.781178e-001	-6.583402e+001
57750000	-3.781962e-001	-6.689682e+001
58000000	-3.781958e-001	-6.795875e+001
58250000	-3.783249e-001	-6.902123e+001
58500000	-3.784803e-001	-7.008345e+001
58750000	-3.786218e-001	-7.114519e+001
59000000	-3.787859e-001	-7.220708e+001
59250000	-3.790268e-001	-7.326912e+001
59500000	-3.791417e-001	-7.433077e+001
59750000	-3.794135e-001	-7.539215e+001
60000000	-3.794527e-001	-7.645339e+001
60250000	-3.798568e-001	-7.751375e+001
60500000	-3.801902e-001	-7.857503e+001
60750000	-3.804249e-001	-7.963560e+001
61000000	-3.806715e-001	-8.069492e+001
61250000	-3.810560e-001	-8.175695e+001
61500000	-3.815252e-001	-8.281642e+001
61750000	-3.817895e-001	-8.387675e+001
62000000	-3.821658e-001	-8.493569e+001
62250000	-3.826816e-001	-8.599572e+001
62500000	-3.830425e-001	-8.705554e+001
62750000	-3.836017e-001	-8.811427e+001
63000000	-3.838605e-001	-8.917242e+001
63250000	-3.843559e-001	-9.023216e+001
63500000	-3.849776e-001	-9.129066e+001
63750000	-3.855361e-001	-9.234894e+001
64000000	-3.859595e-001	-9.340704e+001
64250000	-3.866510e-001	-9.446562e+001
64500000	-3.871431e-001	-9.552243e+001
64750000	-3.877451e-001	-9.657991e+001
65000000	-3.884478e-001	-9.763773e+001
65250000	-3.880453e-001	-9.869329e+001
65500000	-3.885876e-001	-9.975093e+001
65750000	-3.894143e-001	-1.008067e+002
66000000	-3.899794e-001	-1.018631e+002
66250000	-3.908555e-001	-1.029193e+002
66500000	-3.913651e-001	-1.039753e+002
66750000	-3.920829e-001	-1.050310e+002
67000000	-3.928792e-001	-1.060865e+002
67250000	-3.937477e-001	-1.071405e+002
67500000	-3.944221e-001	-1.081955e+002
67750000	-3.953505e-001	-1.092517e+002
68000000	-3.962553e-001	-1.103059e+002
68250000	-3.971801e-001	-1.113613e+002
68500000	-3.981772e-001	-1.124141e+002
68750000	-3.988379e-001	-1.134684e+002
69000000	-3.999436e-001	-1.145229e+002
69250000	-4.006971e-001	-1.155771e+002
69500000	-4.016808e-001	-1.166296e+002
69750000	-4.026396e-001	-1.176813e+002
70000000	-4.035065e-001	-1.187346e+002
70250000	-4.046371e-001	-1.197887e+002
70500000	-4.054622e-001	-1.208393e+002
70750000	-4.066604e-001	-1.218907e+002
71000000	-4.076345e-001	-1.229410e+002
71250000	-4.086806e-001	-1.239940e+002
71500000	-4.097635e-001	-1.250466e+002
71750000	-4.110709e-001	-1.260966e+002
72000000	-4.121408e-001	-1.271448e+002
72250000	-4.131300e-001	-1.281947e+002
72500000	-4.141993e-001	-1.292473e+002
72750000	-4.154273e-001	-1.302985e+002
73000000	-4.164895e-001	-1.313455e+002
73250000	-4.177934e-001	-1.323926e+002
73500000	-4.190872e-001	-1.334435e+002
73750000	-4.202031e-001	-1.344939e+002
74000000	-4.213580e-001	-1.355411e+002
74250000	-4.225493e-001	-1.365864e+002
74500000	-4.236703e-001	-1.376359e+002
74750000	-4.248339e-001	-1.386861e+002
75000000	-4.262354e-001	-1.397334e+002
75250000	-4.275136e-001	-1.407773e+002
75500000	-4.287204e-001	-1.418245e+002
75750000	-4.298046e-001	-1.428729e+002
76000000	-4.312150e-001	-1.439191e+002
76250000	-4.324341e-001	-1.449633e+002
76500000	-4.337197e-001	-1.460091e+002
76750000	-4.349642e-001	-1.470568e+002
77000000	-4.363753e-001	-1.481010e+002
77250000	-4.376565e-001	-1.491440e+002
77500000	-4.390209e-001	-1.501891e+002
77750000	-4.402651e-001	-1.512350e+002
78000000	-4.416218e-001	-1.522782e+002
78250000	-4.428932e-001	-1.533207e+002
78500000	-4.441508e-001	-1.543658e+002
78750000	-4.455275e-001	-1.554097e+002
79000000	-4.469390e-001	-1.564509e+002
79250000	-4.481851e-001	-1.574935e+002
79500000	-4.494636e-001	-1.585381e+002
79750000	-4.507587e-001	-1.595797e+002
80000000	-4.521176e-001	-1.606211e+002
80250000	-4.534582e-001	-1.616642e+002
80500000	-4.547687e-001	-1.627069e+002
80750000	-4.560420e-001	-1.637466e+002
81000000	-4.572889e-001	-1.647868e+002
81250000	-4.586449e-001	-1.658300e+002
81500000	-4.599911e-001	-1.668706e+002
81750000	-4.613419e-001	-1.679086e+002
82000000	-4.625286e-001	-1.689495e+002
82250000	-4.638210e-001	-1.699906e+002
82500000	-4.651710e-001	-1.710289e+002
82750000	-4.664206e-001	-1.720675e+002
83000000	-4.677113e-001	-1.731086e+002
83250000	-4.690519e-001	-1.741484e+002
83500000	-4.702767e-001	-1.751855e+002
83750000	-4.715973e-001	-1.762248e+002
84000000	-4.728454e-001	-1.772655e+002
84250000	-4.740994e-001	-1.783028e+002
84500000	-4.752593e-001	-1.793398e+002
84750000	-4.765827e-001	1.796199e+002
85000000	-4.778398e-001	1.785814e+002
85250000	-4.789625e-001	1.775458e+002
85500000	-4.801484e-001	1.765086e+002
85750000	-4.812824e-001	1.754689e+002
86000000	-4.825374e-001	1.744335e+002
86250000	-4.835823e-001	1.733982e+002
86500000	-4.848260e-001	1.723598e+002
86750000	-4.859093e-001	1.713217e+002
87000000	-4.870569e-001	1.702871e+002
87250000	-4.881797e-001	1.692514e+002
87500000	-4.891999e-001	1.682135e+002
87750000	-4.904023e-001	1.671771e+002
88000000	-4.914931e-001	1.661423e+002
88250000	-4.925483e-001	1.651058e+002
88500000	-4.936976e-001	1.640694e+002
88750000	-4.947329e-001	1.630352e+002
89000000	-4.956682e-001	1.620003e+002
89250000	-4.966663e-001	1.609638e+002
89500000	-4.976413e-001	1.599286e+002
89750000	-4.986829e-001	1.588948e+002
90000000	-4.996181e-001	1.578593e+002
90250000	-5.005872e-001	1.568236e+002
90500000	-5.014558e-001	1.557896e+002
90750000	-5.022976e-001	1.547553e+002
91000000	-5.032964e-001	1.537190e+002
91250000	-5.041842e-001	1.526843e+002
91500000	-5.050775e-001	1.516506e+002
91750000	-5.060067e-001	1.506148e+002
92000000	-5.068031e-001	1.495795e+002
92250000	-5.075345e-001	1.485465e+002
92500000	-5.082970e-001	1.475131e+002
92750000	-5.090461e-001	1.464773e+002
93000000	-5.099875e-001	1.454430e+002
93250000	-5.105769e-001	1.444104e+002
93500000	-5.112461e-001	1.433760e+002
93750000	-5.120853e-001	1.423411e+002
94000000	-5.127470e-001	1.413078e+002
94250000	-5.133452e-001	1.402747e+002
94500000	-5.140363e-001	1.392384e+002
94750000	-5.146290e-001	1.382041e+002
95000000	-5.153517e-001	1.371704e+002
95250000	-5.159162e-001	1.361380e+002
95500000	-5.165191e-001	1.351033e+002
95750000	-5.170838e-001	1.340689e+002
96000000	-5.176485e-001	1.330339e+002
96250000	-5.180822e-001	1.319989e+002
96500000	-5.185341e-001	1.309639e+002
96750000	-5.189052e-001	1.299296e+002
97000000	-5.194916e-001	1.288959e+002
97250000	-5.199170e-001	1.278617e+002
97500000	-5.203429e-001	1.268276e+002
97750000	-5.207038e-001	1.257930e+002
98000000	-5.210255e-001	1.247579e+002
98250000	-5.214299e-001	1.237219e+002
98500000	-5.216444e-001	1.226878e+002
98750000	-5.219873e-001	1.216529e+002
99000000	-5.223207e-001	1.206176e+002
99250000	-5.225293e-001	1.195830e+002
99500000	-5.228806e-001	1.185477e+002
99750000	-5.228887e-001	1.175118e+002
100000000	-5.232844e-001	1.164758e+002
