# Hz S RI R 50
40000000	-9.64500195322022E-07	-1.02184521778319E-05
40250000	-1.15667018441479E-05	1.51046415914564E-05
40500000	-6.36155301298082E-06	-2.31150863994959E-05
40750000	-1.32493066604369E-05	-1.59430897366822E-05
41000000	-1.76210060067265E-05	3.46998790421669E-05
41250000	-4.52950155379804E-06	-2.08164823295131E-05
41500000	-5.29717852266101E-06	-3.12446363178227E-05
41750000	-1.71433956141084E-05	1.58304587027875E-05
42000000	-2.82469977056884E-06	-7.16520157525285E-06
42250000	-1.34874600693753E-06	3.63543007161896E-05
42500000	1.81261130168928E-05	3.70890064457177E-06
42750000	-3.62201009578236E-06	-9.67003918418857E-06
43000000	-4.03356061483179E-05	2.65588008714411E-06
43250000	5.50827130653544E-06	2.8321247212003E-05
43500000	3.04031513342885E-06	8.97510913504967E-06
43750000	1.1316561113017E-05	-1.82162715089258E-07
44000000	-3.04726556734784E-05	-3.07251617677247E-05
44250000	1.73922252539039E-06	1.13781909516461E-05
44500000	2.04493005313876E-05	-5.7905116069786E-06
44750000	-1.40994428022833E-05	-1.17824160260731E-05
45000000	-2.25216375640882E-05	-5.07835854875046E-06
45250000	-1.33962065319859E-05	5.26415077029914E-06
45500000	-1.18762044165155E-06	-2.73657729575526E-05
45750000	-1.50470164761757E-05	3.42864856483495E-05
46000000	-1.86352340662906E-05	-6.27092850772657E-06
46250000	-2.007358219299E-05	-2.16298783484984E-05
46500000	9.37411319847557E-07	2.95690894991379E-05
46750000	-8.93145667828747E-06	3.49868830860264E-06
47000000	-1.47617694764633E-05	-1.57794049310649E-05
47250000	9.26206681518785E-07	-2.52719657182365E-05
47500000	1.55372439670025E-05	4.23489884076593E-05
47750000	7.96258932986024E-06	-3.6196498347123E-05
48000000	-2.55231998093712E-05	-1.68846296913719E-05
48250000	-1.89727823322183E-05	1.99588671189393E-05
48500000	2.8725497327751E-05	1.73707459953516E-05
48750000	-1.9462768733993E-05	-2.79562153217516E-06
49000000	-6.30808051712873E-05	-2.05385160301674E-05
49250000	-5.11650065936302E-05	3.5377260623966E-05
49500000	-1.88134560857976E-05	-5.21878376074269E-06
49750000	4.39844910709919E-06	-4.92187080369638E-06
50000000	1.90809632639598E-06	-3.49666820287453E-05
50250000	-2.50084791902286E-05	2.34425692401639E-05
50500000	-4.17994296536453E-05	1.54850001710696E-05
50750000	4.1707579110781E-06	1.76454031928668E-05
51000000	-1.87256648137745E-05	-1.31036143660799E-05
51250000	-2.72457475001971E-06	2.04011343695099E-05
51500000	-1.01858280744316E-05	-5.02230787825983E-06
51750000	-2.518741328407E-05	-3.01775726194368E-06
52000000	1.74701645068286E-05	5.72174110915469E-06
52250000	-6.28706738326184E-06	3.87956550737824E-05
52500000	-2.32137599937185E-05	-1.42939117110411E-05
52750000	2.93522583740878E-06	-2.71023119325643E-05
53000000	-1.59338855159281E-05	-5.58241091908518E-06
53250000	-3.31634636513086E-05	6.60633036787021E-07
53500000	2.13970969244295E-05	3.03337375646041E-05
53750000	3.46293736049944E-06	4.32515309153735E-05
54000000	-3.08287509284483E-05	-1.77794961749429E-06
54250000	-1.06473910728029E-06	-1.42604733206133E-05
54500000	7.68562058885175E-06	-7.07680772280354E-07
54750000	2.29164304482824E-06	-2.41450144125673E-05
55000000	-1.00183070674547E-05	3.89339383014019E-06
55250000	-3.20681839150474E-05	6.89964708515662E-06
55500000	3.50206527280682E-05	7.31433812528233E-06
55750000	-3.48691803759595E-05	-6.75648364974416E-06
56000000	1.62369027916211E-06	-2.79914437569179E-05
56250000	-5.1192561780844E-05	-5.07244961897224E-07
56500000	-2.69086799056703E-05	2.56847336439661E-05
56750000	8.08888623510044E-06	2.08448167775408E-05
57000000	-5.07799769748596E-06	-7.06320871741958E-07
57250000	-1.74915044478106E-05	-2.46536821112051E-05
57500000	-5.55820687014276E-05	-1.27370664516276E-05
57750000	1.60287753545366E-06	-2.70694526092372E-05
58000000	-1.3088591627105E-05	3.63232173520202E-06
58250000	-5.72304713983881E-06	1.51345325840652E-06
58500000	6.3940551020508E-06	4.77519133952097E-06
58750000	-2.40457554252373E-05	3.21229006111626E-06
59000000	5.02136649107664E-07	2.80805981359207E-06
59250000	-2.53322606901388E-05	2.55491737730012E-06
59500000	-3.54431184705611E-05	8.17077388275181E-07
59750000	-1.11976926242996E-05	1.52982225812015E-05
60000000	1.32613637575375E-05	-8.53643431598882E-06
60250000	2.12480504341652E-05	1.60161660050303E-05
60500000	-5.92893053098025E-06	1.53986051534122E-05
60750000	1.18670060339406E-05	5.67685115640337E-06
61000000	-3.35735584755951E-05	-8.81854799093208E-06
61250000	-2.76419840194038E-06	-1.98340830177627E-05
61500000	1.09600763255025E-06	3.09963375562781E-05
61750000	-2.91053926650748E-06	-6.74181090568447E-06
62000000	6.20881011307667E-08	-2.03311310418711E-05
62250000	2.99160399740935E-06	1.93061080290891E-05
62500000	4.49085033104413E-06	1.18155733302298E-05
62750000	1.30152466161731E-06	-4.45724060245021E-06
63000000	-1.80808989393956E-05	-2.39816689717961E-06
63250000	-4.20681078626799E-05	-4.66712007046521E-05
63500000	-1.35310851214159E-05	-1.16793784190276E-05
63750000	-7.3970710317006E-06	-5.39599325889911E-06
64000000	-6.90620390032158E-06	1.27515473389057E-07
64250000	-6.81610592585175E-06	1.83630916168525E-06
64500000	-2.14753898600082E-05	-1.77085597592776E-05
64750000	5.46334490943026E-06	1.97664332126632E-05
65000000	1.07352725058997E-05	-4.5041065561411E-07
65250000	-1.54332958862441E-05	-2.36297015946498E-05
65500000	2.9164564645167E-05	8.54969560289943E-06
65750000	1.75896575489866E-06	-9.9386796868963E-06
66000000	1.19731979911896E-06	-2.9819425620104E-05
66250000	-4.30368832783562E-05	-2.98161316674255E-05
66500000	-1.25462305376625E-05	-2.81191156194985E-06
66750000	-1.10901934909481E-05	1.50437470505941E-05
67000000	2.29159508267874E-05	2.82994707271908E-05
67250000	-3.30083006700341E-05	-3.80700482387382E-06
67500000	-6.37495261921978E-06	3.04793460146159E-05
67750000	-1.45492891780584E-05	1.34508461578508E-06
68000000	-4.04367702696347E-05	4.04990407032822E-06
68250000	2.13989420382903E-05	-2.20521502518085E-05
68500000	4.16751219531806E-06	-3.92638437743807E-05
68750000	3.9069115929046E-05	-1.39447681625851E-05
69000000	-2.85633353702992E-06	2.59369977945333E-05
69250000	-3.95812515613169E-05	1.63363051380932E-05
69500000	-7.0386900547625E-06	-3.07623365871592E-05
69750000	-2.18092484055295E-05	-2.77244922487662E-06
70000000	-4.63326167680836E-05	-4.60883234820829E-06
70250000	-1.20294784530425E-05	-2.82463849588817E-06
70500000	8.66180491575071E-06	-1.3064944423943E-05
70750000	-2.82363149676577E-05	-9.32669228958677E-06
71000000	-8.63281593989313E-06	2.66968336749811E-05
71250000	-1.48822524447892E-05	-1.35273559136253E-05
71500000	2.5065600917484E-05	-3.13891283958037E-05
71750000	9.98839546047578E-06	-4.89506505667159E-06
72000000	-3.80815814383606E-06	-5.2115745401952E-06
72250000	-4.399066393288E-05	-6.43275474212959E-06
72500000	-1.40829226073057E-05	-3.63238338111406E-05
72750000	-3.35779209527871E-05	-4.67839261037985E-06
73000000	-6.50617776199804E-06	-1.95280077610668E-05
73250000	-6.22250527551427E-06	-1.43509079449823E-05
73500000	1.94314769807184E-06	-1.14623136275386E-05
73750000	-3.35701918676959E-05	-2.85114292442652E-06
74000000	-1.82476342538906E-05	-1.22276753656739E-05
74250000	-3.61672409053662E-05	-1.48285723974019E-05
74500000	-2.69777702041192E-05	-3.22530834020948E-05
74750000	-8.31724118857885E-06	-3.37296580266194E-05
75000000	-2.41086044157185E-05	-2.49433418623814E-05
75250000	5.23128806196558E-06	-1.25810794478403E-05
75500000	1.31930344316541E-05	2.84044234026916E-05
75750000	2.13883700589531E-05	-2.21570691280112E-05
76000000	3.18075435069154E-06	1.52816327390824E-05
76250000	6.88022667506761E-06	-2.79698785394138E-05
76500000	-1.46364211828265E-05	-2.34265182292809E-05
76750000	-3.27504363598209E-05	7.94637479748815E-06
77000000	1.34971825621923E-05	-1.99638375888536E-05
77250000	-2.12566639698615E-05	6.84667323775484E-06
77500000	-2.86183969564957E-06	-2.32566089630319E-06
77750000	2.64304879849719E-06	1.25227115817779E-05
78000000	-2.02331649646325E-05	1.02453176807911E-05
78250000	1.87959088683265E-06	-2.78487353231667E-05
78500000	-4.70319883114196E-05	1.20227646116081E-05
78750000	6.23637366195335E-06	8.47390265266761E-06
79000000	-5.15042530871538E-05	-1.37312864299321E-05
79250000	1.50100944821187E-06	-3.44447463111047E-05
79500000	-3.34688900429284E-05	-2.9295847692674E-06
79750000	1.63570217811711E-05	-1.18912017628091E-05
80000000	-1.9557232235346E-05	-2.18084344243353E-05
80250000	-6.29161319602902E-06	2.29475399632561E-06
80500000	2.57668146422659E-05	-3.94391646699934E-05
80750000	-8.1325249896272E-06	-1.76197281166734E-05
81000000	2.24088704245424E-05	-3.60387131794995E-05
81250000	1.49388907324774E-05	-5.53071820395449E-05
81500000	-2.83636205451474E-05	-2.28431417294613E-05
81750000	-2.90965261812825E-05	-3.24432283537261E-05
82000000	-2.99589642326381E-06	-1.6791381698056E-05
82250000	1.13576631294658E-05	-1.14926735756997E-05
82500000	2.38425547785226E-06	-4.88774222157405E-05
82750000	-2.16670834439735E-05	-1.97324785158437E-05
83000000	-2.07274906061439E-05	1.53630428576271E-05
83250000	-1.82945336623643E-06	-3.75005951349952E-05
83500000	2.56634747416219E-05	-2.67795022824917E-05
83750000	4.47206759955943E-06	-2.92453472455986E-06
84000000	-2.63310659202743E-06	-2.29960846672904E-05
84250000	-5.95414808442911E-06	-2.48657094754482E-05
84500000	1.16489826595595E-05	2.47405298274297E-05
84750000	-2.62073888116885E-05	5.44969788942116E-06
85000000	-1.82872280145312E-05	-3.89509566220094E-06
85250000	-2.43141276189407E-05	-1.43990928371107E-06
85500000	9.4089449220687E-06	-1.27716222065814E-05
85750000	-4.24792647890679E-05	1.5270935346309E-05
86000000	-5.30667256270556E-05	-2.48181569362742E-06
86250000	6.97538840363363E-06	-1.7536377881678E-05
86500000	1.3467060373661E-06	-3.01935610356933E-05
86750000	1.80930177707819E-05	-1.02680401318934E-05
87000000	-3.58418618757886E-05	1.34922513342085E-05
87250000	6.19319686592509E-05	5.26706366460582E-06
87500000	-5.69196924062421E-06	-3.16102812352799E-05
87750000	7.18200108145848E-06	-4.47737781383792E-05
88000000	-1.04453426694646E-05	1.73876431319918E-05
88250000	-1.67213917574058E-05	-1.14040514537817E-05
88500000	-2.71634230495253E-05	-2.61043240383459E-05
88750000	5.71878513101067E-06	-1.55674095381154E-05
89000000	2.0952009334939E-05	-2.41382141295584E-05
89250000	-3.54601449070658E-05	-1.37468786315166E-05
89500000	-1.74781071609584E-05	-3.945213863327E-05
89750000	-4.33900210681407E-05	-1.30439204835499E-05
90000000	4.81570020502428E-06	-4.10492413238397E-06
90250000	2.22572442773808E-05	-1.19601348167043E-05
90500000	-2.64005596471383E-05	1.18515828640796E-05
90750000	-1.78863440295968E-05	6.39681884543649E-06
91000000	-3.02250629876559E-05	8.45508046214047E-06
91250000	-2.1656691656691E-05	1.17304383536506E-05
91500000	-4.66698177371746E-06	-1.92229649209686E-06
91750000	1.54249745893709E-05	-2.95478849366852E-05
92000000	-2.6801831954619E-05	-1.33196421067189E-05
92250000	1.73847181396986E-05	-9.59118203701738E-06
92500000	-7.09927660146352E-06	-7.18635901974904E-06
92750000	-3.13158268663862E-05	-3.85781934891753E-05
93000000	-2.94911676827971E-05	-3.12946308498893E-05
93250000	-4.79748771798154E-06	-5.30485131422298E-06
93500000	-1.99693764805844E-05	-4.41734313206022E-05
93750000	2.14516993680725E-05	-9.1789294360595E-06
94000000	4.17792904670078E-06	6.90675479497667E-06
94250000	4.49963624853703E-06	-2.80091204003181E-05
94500000	-2.12002385257319E-05	3.94098113134906E-06
94750000	4.69969343876288E-06	-1.35331919098453E-05
95000000	-1.12160748092379E-05	-6.4318022957213E-06
95250000	-1.45403081432369E-05	1.23097076780363E-06
95500000	3.29037889644713E-05	1.61707046352233E-05
95750000	-1.44137572081732E-05	2.30382401439005E-06
96000000	-1.9374222098384E-05	1.24994832285569E-05
96250000	-2.51995297232643E-06	-9.15405647468358E-06
96500000	-1.50496572238734E-05	-1.39979755212183E-05
96750000	-1.26556680037968E-05	-4.67584883779207E-05
97000000	3.89420123870825E-06	-3.12966809370472E-05
97250000	2.60484250742938E-06	-1.70240858150816E-05
97500000	1.00374703074736E-05	-7.37292555755304E-06
97750000	-1.476789002378E-05	-2.68046798116248E-05
98000000	-5.40677798159695E-05	-2.16588723439965E-05
98250000	-7.63852649067232E-05	-2.29444197553263E-05
98500000	-2.7603632294675E-05	-2.96512248618986E-05
98750000	-5.29978222146563E-06	-5.9444227225084E-06
99000000	-6.24439525389597E-05	-1.12444812791377E-05
99250000	-2.40069640794771E-05	3.29999383623694E-05
99500000	-2.7384845813766E-05	-2.92269184424018E-05
99750000	2.71086823684512E-05	-1.19505928470078E-05
100000000	-4.3913572465273E-05	3.10028782298754E-05
100250000	-1.27131576579714E-05	1.77886082468968E-05
100500000	-7.9387651514721E-06	-5.44461992548489E-06
100750000	-5.7025277090243E-06	-2.36926189548762E-05
101000000	1.29322486927106E-05	-3.29360207657665E-06
101250000	-7.75042716538786E-06	-5.70603810246705E-06
101500000	4.00261515750993E-06	-3.86479901072731E-05
101750000	7.28463480523868E-06	-3.93899806133725E-06
102000000	1.40754703098804E-05	-1.19189779853822E-05
102250000	-8.07208541152643E-06	-6.63389449525266E-06
102500000	-2.84241225214396E-05	-1.06967704439262E-05
102750000	-3.62963611599919E-05	8.60700832619128E-06
103000000	-1.36515556559181E-06	2.43938643122344E-05
103250000	5.6955766497233E-06	-2.45655020291287E-05
103500000	4.64786579679623E-07	-4.25914743794553E-05
103750000	-4.9533826587133E-05	2.06070255612538E-06
104000000	-4.68530871248207E-05	-2.0642192276612E-05
104250000	-2.89857898482927E-05	3.63891840824906E-05
104500000	-4.71830277926222E-06	-3.21997662269125E-05
104750000	-4.21985366293775E-05	-1.10821857908384E-05
105000000	-6.91432890155835E-06	-2.42553662311195E-05
105250000	9.44741622817815E-06	2.68374934407123E-05
105500000	-8.98745771808842E-06	-5.211361372172E-06
105750000	-3.31375840736329E-05	2.10617190794648E-05
106000000	-3.538561772653E-06	-3.63163831625274E-07
106250000	-1.16535029908882E-05	-8.37528915759026E-06
106500000	8.12971174802128E-06	-1.80686824346096E-05
106750000	-2.24258699545004E-05	-8.44941522944334E-06
107000000	-1.00613019634363E-06	-4.80712719098939E-05
107250000	-2.57448665931081E-05	-6.09799780886675E-07
107500000	9.55892635473877E-07	-1.81555299044771E-05
107750000	1.10705246886001E-05	-2.66049314091143E-05
108000000	-5.50872597780417E-05	-2.10661054521805E-05
108250000	6.54871856455217E-07	1.48455118726379E-05
108500000	-1.90716342144452E-05	-7.7343870712705E-06
108750000	1.02591985540889E-05	-1.95627486127119E-05
109000000	1.11086526897824E-05	-3.31761012021953E-05
109250000	-1.21074971493759E-05	3.20862581413406E-06
109500000	1.45474928452769E-05	-1.02603438543022E-05
109750000	-2.25013601530791E-06	-5.31272356005134E-06
110000000	-1.49457384166482E-05	-7.83324866039148E-06
110250000	2.93340361155707E-06	3.41040583959231E-06
110500000	-3.04136219245796E-05	-2.72041882652476E-05
110750000	-3.43716793052107E-05	6.10821916786406E-06
111000000	-7.50113965051465E-06	-2.29468672202599E-05
111250000	-8.82734591727352E-06	-1.04264286148327E-05
111500000	-2.18712802496414E-05	-2.14292672762158E-05
111750000	-3.99448824370844E-05	-9.46470715411619E-06
112000000	1.77243209485958E-06	-3.2500440481323E-05
112250000	-5.33555822684646E-05	-8.90896085876557E-06
112500000	3.63182557266378E-05	1.257285660587E-05
112750000	-2.62120312091838E-05	-1.25037653842106E-05
113000000	-1.80000154940637E-06	-5.34961656809855E-06
113250000	2.14804677974793E-05	-3.41511231955374E-05
113500000	-1.47990229812111E-05	-5.19471287480699E-06
113750000	-1.01804903369691E-05	6.99936688789245E-07
114000000	1.00621988548963E-05	-3.97685876320534E-05
114250000	-1.02576767424216E-05	1.87806457864207E-05
114500000	-2.29658264382827E-05	-2.57410202310663E-05
114750000	1.87205326993103E-05	1.9320954366549E-05
115000000	-3.80117357674246E-05	5.76893136522813E-06
115250000	-1.02292443400112E-05	-2.57709728066786E-05
115500000	2.60210358134246E-05	-5.46606894389692E-06
115750000	-2.11224534043942E-05	-3.91961287477524E-05
116000000	6.19469125171813E-06	-2.34231777133229E-05
116250000	-2.17451597389923E-05	4.87104937801474E-06
116500000	1.57335593600022E-06	-6.09513957054584E-05
116750000	1.16925195405671E-05	-2.84558140733683E-05
117000000	-2.50071027155E-05	1.13081644508512E-05
117250000	-1.88266001428065E-06	-5.50265400126306E-05
117500000	2.0715900032279E-05	-1.26885338076521E-05
117750000	-1.82047324738307E-06	-4.69212506788383E-05
118000000	2.31750358506811E-06	-2.73949280033823E-05
118250000	6.11637336254424E-06	-7.24301510848051E-06
118500000	-4.61264025643855E-06	-2.81940624472272E-05
118750000	-3.67216400346341E-05	1.06279355699641E-05
119000000	-2.45361916676924E-05	-1.45886888679699E-05
119250000	1.38507157377204E-05	-2.27254000527007E-05
119500000	1.30775420427685E-05	1.15539749468291E-05
119750000	-1.00820237230805E-05	-7.40703814902237E-06
120000000	-1.05677288355709E-05	-9.50896596286964E-06
120250000	-1.63146484291649E-05	-4.51860421884395E-05
120500000	-3.07728602349904E-05	-2.00194588512469E-05
120750000	-2.56888717849903E-05	5.54872262487295E-07
121000000	8.25091520336241E-06	-1.01278287091437E-05
121250000	-4.17596041265778E-06	-4.685799309345E-05
121500000	-1.69298149992251E-05	1.43936641285546E-06
121750000	-1.72161711680163E-05	-5.0623427496119E-05
122000000	-5.78023258779863E-06	-2.00559801264991E-05
122250000	-7.31681802866848E-06	-2.02241847641089E-05
122500000	2.36085455343355E-06	-5.9059615536191E-06
122750000	-2.78841180298484E-06	-3.56709444782552E-05
123000000	1.56248793549317E-05	-3.07422921636001E-05
123250000	2.11245746016352E-06	-2.23375906516181E-05
123500000	2.90525549574778E-05	6.97055495229144E-06
123750000	-2.51476380019723E-05	-1.8471390892183E-05
124000000	-7.46270777572647E-06	-3.1109578144895E-06
124250000	-1.66793410390272E-05	4.25452248746535E-06
124500000	-1.73262211511933E-05	-4.7700361323523E-05
124750000	4.16061932543169E-05	-3.39171271220213E-05
125000000	-7.73209497819916E-06	-2.43774658055138E-05
125250000	-1.73554578164681E-05	-6.02703620231363E-06
125500000	-2.28082109261261E-05	-2.8207041710115E-05
125750000	1.96462605831372E-05	-6.02905303172717E-05
126000000	-2.42499790791967E-05	1.00716423595806E-05
126250000	-1.28472319685728E-05	-1.89132638867668E-05
126500000	-2.39762182887696E-06	-6.45678437058947E-06
126750000	2.84152469444204E-05	-6.11959605756521E-06
127000000	-4.17464667210106E-05	-1.33220991617554E-05
127250000	-3.31743000892772E-05	-1.04861864827516E-05
127500000	3.63523797970842E-06	3.41239056147295E-06
127750000	1.47826025973359E-05	-1.55005224824835E-06
128000000	-2.05677498642776E-06	-4.34286652126336E-05
128250000	-3.44914368132233E-05	-1.78216114071159E-05
128500000	-2.92354930152814E-05	-2.98646161047082E-06
128750000	3.22110106825498E-05	2.56868731073066E-05
129000000	-1.17872814688957E-05	-3.06240101379196E-05
129250000	8.41504710520406E-06	-1.97502236314912E-05
129500000	-1.85227093948509E-05	-2.36705127052323E-05
129750000	-8.26146126011459E-06	-3.44497979440851E-05
130000000	-7.07420234008108E-06	-1.16026703809058E-05
130250000	-1.76231018019105E-05	-2.72053771324425E-05
130500000	-2.25778258112941E-05	-7.76659726541985E-06
130750000	-2.23939841159238E-05	4.17313401569498E-05
131000000	1.83363545098891E-05	-3.67819317788795E-05
131250000	3.52487705761181E-06	-2.12813675272047E-05
131500000	-9.64716852531776E-06	-8.50816369811141E-06
131750000	3.32310896510416E-05	-4.16164595212704E-05
132000000	-1.27622384187236E-05	-4.88572392309947E-06
132250000	-3.8820549157907E-06	-2.68096337353656E-05
132500000	-4.76557040962894E-05	-1.38705441355369E-05
132750000	1.48886239234503E-05	-2.13448639109547E-05
133000000	-1.00011187904657E-05	-1.58603233568616E-06
