# Hz S RI R 50
40000000	0.999869550787489	-1.59339544915309E-02
40250000	0.99988562722561	-1.60546141792798E-02
40500000	1.00001702296899	-1.61491550329594E-02
40750000	0.999867271119125	-0.016149968480957
41000000	0.999838831508902	-1.63198341774882E-02
41250000	0.999829885226166	-1.63742713455955E-02
41500000	0.999755815988093	-0.016572645113958
41750000	0.999869140654019	-1.67704603903495E-02
42000000	0.999981110345273	-1.67563078884136E-02
42250000	0.999897185797679	-1.68352017500067E-02
42500000	0.999784655576724	-1.67834647312313E-02
42750000	0.999877755266992	-1.70157816071897E-02
43000000	0.999899959217954	-1.71688462124393E-02
43250000	0.999867129539332	-1.73397801839045E-02
43500000	0.999813305506757	-1.73469277758261E-02
43750000	0.999868238508062	-1.74128931266784E-02
44000000	0.999855849792455	-1.75729725347531E-02
44250000	0.999838458118479	-1.75678547710169E-02
44500000	0.999897904709384	-1.76658315100144E-02
44750000	0.999915460096592	-1.78102954720008E-02
45000000	0.999817299326617	-1.79123900197528E-02
45250000	0.999812296750773	-1.80086196655717E-02
45500000	0.999938905334269	-1.80869158770877E-02
45750000	0.999982637346276	-0.018147733666758
46000000	0.999830862576042	-1.84070445069855E-02
46250000	0.999849407338015	-1.84575627209836E-02
46500000	0.999822175952389	-0.018537635570644
46750000	0.999798729257197	-1.86473139783723E-02
47000000	0.999802705793276	-1.87357273150142E-02
47250000	0.999860796448507	-1.88313418370666E-02
47500000	0.999769508402489	-1.89047650371952E-02
47750000	0.999764170122508	-1.89780999483384E-02
48000000	0.999773003387094	-1.91531634387555E-02
48250000	0.999807826539139	-1.92237400086181E-02
48500000	0.999942912041878	-1.93126532274698E-02
48750000	0.999850124181226	-1.93416742055473E-02
49000000	0.999817514942495	-1.94960860944412E-02
49250000	0.999829406668316	-1.96487770360579E-02
49500000	0.999774899300592	-1.97083463870162E-02
49750000	0.999775690419561	-1.98055174791763E-02
50000000	0.999812659246617	-1.99020154788639E-02
50250000	0.999824238420774	-2.00550251145637E-02
50500000	0.999789557780691	-2.01012182436424E-02
50750000	0.999742885566649	-2.01425526013284E-02
51000000	0.999885866276673	-2.03544113866866E-02
51250000	0.999892196698819	-2.03431417292778E-02
51500000	0.99974776148249	-0.020485871981024
51750000	0.999822440449635	-2.06627534270592E-02
52000000	0.999776785075987	-2.07167170175493E-02
52250000	0.999751866942785	-2.07817363588101E-02
52500000	0.999739416942698	-2.09484722705978E-02
52750000	0.999809240489816	-2.10166785978176E-02
53000000	0.999739735244405	-2.10896438278687E-02
53250000	0.999771665013998	-0.021253672962571
53500000	0.999759105003518	-2.13757995893062E-02
53750000	0.999760074948933	-2.14618442696274E-02
54000000	0.999750477694825	-2.15461815177479E-02
54250000	0.999770681973466	-2.16077651401166E-02
54500000	0.999765670123695	-2.17065701979037E-02
54750000	0.99973781891743	-2.17638751647365E-02
55000000	0.999724375889183	-2.19013820855481E-02
55250000	0.999800775538335	-0.022028251134742
55500000	0.999809603381044	-2.21151407247839E-02
55750000	0.999783228518665	-2.22555710118523E-02
56000000	0.99980227450852	-2.22662327933602E-02
56250000	0.999757731533191	-2.24419166104854E-02
56500000	0.999751631037542	-2.24792980378937E-02
56750000	0.999702459395104	-2.26254068788827E-02
57000000	0.999760514514261	-2.27173714593684E-02
57250000	0.999832061858288	-2.26731170211947E-02
57500000	0.999775862223847	-2.29724580993358E-02
57750000	0.99970141184065	-0.023016810346189
58000000	0.999770770276427	-2.31742215580248E-02
58250000	0.999712555237707	-0.02319205712948
58500000	0.999700220733375	-2.33331469598549E-02
58750000	0.999732853549286	-2.32858018614569E-02
59000000	0.999659230566925	-2.36553003725117E-02
59250000	0.999674266585587	-2.35705902529689E-02
59500000	0.999717075032605	-2.37710506472345E-02
59750000	0.99974602105633	-0.023799505569777
60000000	0.999681350467381	-2.38626012818153E-02
60250000	0.999733562150887	-0.023909771748178
60500000	0.999790292610654	-2.41294112787047E-02
60750000	0.999692796441548	-2.41601984028539E-02
61000000	0.999736447284573	-2.42966145378193E-02
61250000	0.99967129035707	-0.024389960621115
61500000	0.999697420026366	-2.44926416351296E-02
61750000	0.99970716810131	-2.45762307246385E-02
62000000	0.99964610586392	-2.47319684069522E-02
62250000	0.999712667077892	-2.47795487723268E-02
62500000	0.999647210120033	-2.48469004785137E-02
62750000	0.999715546803735	-0.02501605810863
63000000	0.999655801922937	-0.025110359351955
63250000	0.999689643398248	-2.52545188338341E-02
63500000	0.999703566960157	-2.52649856811636E-02
63750000	0.999598509112004	-2.54369353792436E-02
64000000	0.999648066479027	-0.025492448052107
64250000	0.999781326752915	-2.54947894299895E-02
64500000	0.999684247112946	-2.56648970313503E-02
64750000	0.999719518810304	-2.57593269386941E-02
65000000	0.999626679440372	-2.58500315488815E-02
65250000	0.999767312944591	-2.59833654680446E-02
65500000	0.999650797880121	-2.61562594541227E-02
65750000	0.999678238401306	-2.61972085645905E-02
66000000	0.999685408440073	-0.026353262263848
66250000	0.999693532018727	-2.63351824279696E-02
66500000	0.999651585824863	-2.65029723854128E-02
66750000	0.999644018328605	-2.66857906003611E-02
67000000	0.999697632180639	-2.67329604202279E-02
67250000	0.999673076272523	-0.026777250639412
67500000	0.999627498841025	-2.69339570984496E-02
67750000	0.999663304338657	-2.69176394871631E-02
68000000	0.999612646941658	-0.027070136078855
68250000	0.999607774813757	-0.027170193106656
68500000	0.99961161735393	-2.72606801560129E-02
68750000	0.999686193609559	-2.73558609273484E-02
69000000	0.999610857499044	-2.74920568943433E-02
69250000	0.999695996342673	-2.76498434564899E-02
69500000	0.999569126812337	-2.76282227297705E-02
69750000	0.999607411226743	-2.77838233369185E-02
70000000	0.999615775450946	-2.79140611818716E-02
70250000	0.999626036506513	-2.79582830240165E-02
70500000	0.99955451923225	-2.80176103308513E-02
70750000	0.999534879724092	-2.81873796207662E-02
71000000	0.999563830937252	-2.82123956239163E-02
71250000	0.999555850516132	-2.84612914268206E-02
71500000	0.999711756166743	-2.84908437967603E-02
71750000	0.999619475474955	-2.86207672917037E-02
72000000	0.999578000697836	-2.86900007190564E-02
72250000	0.99961428415133	-2.87027541829016E-02
72500000	0.999553727480382	-0.02885797558848
72750000	0.999514334153798	-2.89192458976911E-02
73000000	0.999624144528	-2.91123744632889E-02
73250000	0.999587540495479	-2.92181559346454E-02
73500000	0.999649072920855	-2.92593209551405E-02
73750000	0.999570498595904	-2.94222449262359E-02
74000000	0.999606431937292	-2.94669092467511E-02
74250000	0.999628664363196	-2.95948058400736E-02
74500000	0.999518370181265	-2.96861055963747E-02
74750000	0.999589017951484	-2.97443854139125E-02
75000000	0.999570904381555	-2.98988702424423E-02
75250000	0.999474994146102	-2.99948860381524E-02
75500000	0.999600443278442	-3.01149187043785E-02
75750000	0.99960423922912	-3.01135091945263E-02
76000000	0.999601514193202	-3.02617405722295E-02
76250000	0.999546475450269	-3.04068890620261E-02
76500000	0.999580365635103	-3.04913523596807E-02
76750000	0.999439796614403	-0.03057249974046
77000000	0.999492754286082	-3.06063110712567E-02
77250000	0.999461363488195	-0.030821726243502
77500000	0.999559996086862	-3.08173038247997E-02
77750000	0.99946843663791	-3.09693160798281E-02
78000000	0.99955177848845	-0.031132981949185
78250000	0.999537858017542	-3.11908617428139E-02
78500000	0.999471942260675	-3.11373009955505E-02
78750000	0.999442178610713	-3.13893714717543E-02
79000000	0.999565129222306	-3.14056745301702E-02
79250000	0.999584271403744	-3.15079633642807E-02
79500000	0.999490503533173	-3.16417200607236E-02
79750000	0.999527692700838	-3.18047180337038E-02
80000000	0.999433294648324	-3.18892054751422E-02
80250000	0.999462455690541	-3.19982427474923E-02
80500000	0.999580025273435	-3.21483070603237E-02
80750000	0.999544578578897	-3.21258209643271E-02
81000000	0.99951827296367	-3.22418903770588E-02
81250000	0.999405886291007	-3.23202795442237E-02
81500000	0.99950479606811	-3.24910970010218E-02
81750000	0.999477999534961	-3.25021410922076E-02
82000000	0.999488959460948	-3.27551200853742E-02
82250000	0.999492278268067	-3.27853029602751E-02
82500000	0.999448249358708	-3.28775106340373E-02
82750000	0.999444836443122	-3.29883264100846E-02
83000000	0.999497419122217	-3.31119654143498E-02
83250000	0.999495420238203	-3.31491131832022E-02
83500000	0.999480777860434	-3.32353115710396E-02
83750000	0.999405691693222	-3.33997810696395E-02
84000000	0.999505124654594	-0.033443870370185
84250000	0.999436421746063	-3.36215890371296E-02
84500000	0.999396883122441	-3.37036372936804E-02
84750000	0.999413682594167	-3.38108550968444E-02
85000000	0.999448376075465	-3.38378158609174E-02
85250000	0.999355970632152	-3.39862380755218E-02
85500000	0.999375307689219	-3.40186765621806E-02
85750000	0.999457129912013	-3.40648930048274E-02
86000000	0.999439617891069	-3.42619147306393E-02
86250000	0.999455003325123	-3.43412836027891E-02
86500000	0.999431806238307	-3.44346407378189E-02
86750000	0.999530956515548	-3.45772690026469E-02
87000000	0.999392691356001	-3.46109789624948E-02
87250000	0.999454708611654	-3.46896373437507E-02
87500000	0.999444389765257	-3.48270787897119E-02
87750000	0.999433181707759	-3.48581271434524E-02
88000000	0.999356502826391	-3.51403258704755E-02
88250000	0.999409707878933	-3.51608227514403E-02
88500000	0.999392589284783	-3.52220027355423E-02
88750000	0.999415650442404	-3.53417106581198E-02
89000000	0.999327600849448	-3.54271571995526E-02
89250000	0.999331755514956	-3.56333178104397E-02
89500000	0.999352429840657	-3.55913233057916E-02
89750000	0.999326943202421	-3.56915460061761E-02
90000000	0.999386280619898	-3.59522395234612E-02
90250000	0.999418398283963	-3.59380049091787E-02
90500000	0.999409088302115	-3.60878631397894E-02
90750000	0.999384195127988	-3.61799912738278E-02
91000000	0.999311040847271	-0.036296419029156
91250000	0.999326167407032	-3.64060994422373E-02
91500000	0.999369295230997	-3.63842121263182E-02
91750000	0.999259732147979	-0.036520260097108
92000000	0.999257606439574	-3.66256860526713E-02
92250000	0.999332475878138	-3.67556353938512E-02
92500000	0.999317414158908	-3.68734902407514E-02
92750000	0.99930694816773	-3.69293960511014E-02
93000000	0.999391178316667	-3.69853002370354E-02
93250000	0.999305846086878	-3.71037864803285E-02
93500000	0.999326755371145	-3.73354281758735E-02
93750000	0.999391278994966	-3.73794362456907E-02
94000000	0.999300912380056	-3.74051084340221E-02
94250000	0.999301269218505	-3.75107896061031E-02
94500000	0.99933249010007	-3.76116047387471E-02
94750000	0.999313954418818	-3.77577344947118E-02
95000000	0.99922757341869	-3.77921797482729E-02
95250000	0.999220605549251	-3.79404003942854E-02
95500000	0.999297660784399	-3.79969946160773E-02
95750000	0.999352297367017	-3.81159619253517E-02
96000000	0.999282013394378	-3.82079611549969E-02
96250000	0.999293744227221	-3.84057808200015E-02
96500000	0.999309509826723	-3.84724239081224E-02
96750000	0.999168542592264	-3.84703393655205E-02
97000000	0.999300935019671	-3.86840379578658E-02
97250000	0.999254880251212	-3.87712278782657E-02
97500000	0.999291933853547	-0.038854618755194
97750000	0.999342761618666	-3.88937895531744E-02
98000000	0.999233957025214	-3.90641401632164E-02
98250000	0.999205335219086	-3.91104674801405E-02
98500000	0.999256669209546	-3.92858258604011E-02
98750000	0.999202978975501	-3.92735352206801E-02
99000000	0.99921703854874	-3.94310328487661E-02
99250000	0.999246903057727	-3.96249357340984E-02
99500000	0.999188062978858	-3.96231775448628E-02
99750000	0.999215071835418	-3.97010383681106E-02
100000000	0.999215908194312	-3.98775693369299E-02
100250000	0.999259789393387	-3.98865202712027E-02
100500000	0.999229222479556	-4.00200896131206E-02
100750000	0.999153938734296	-4.00220645778716E-02
101000000	0.999159905071255	-4.02215470331813E-02
101250000	0.999202368160572	-4.02190917270487E-02
101500000	0.99914601185325	-4.04464589185166E-02
101750000	0.99922205356372	-4.05766753752762E-02
102000000	0.999203947265914	-4.05767270258858E-02
102250000	0.99918237711148	-4.07589217597037E-02
102500000	0.999150478220208	-4.08121764223106E-02
102750000	0.999202488699493	-4.09683473501459E-02
103000000	0.999156092728675	-0.041031007990969
103250000	0.999125960613632	-4.10549052692244E-02
103500000	0.999179581443394	-4.12698947011247E-02
103750000	0.999166353832204	-4.13994820573322E-02
104000000	0.999155276879079	-4.14337257966723E-02
104250000	0.99910131553319	-4.14915102549251E-02
104500000	0.999116396927941	-0.041516333324274
104750000	0.999151254310533	-4.16285520411293E-02
105000000	0.999230457190083	-0.041877940349827
105250000	0.999083380377826	-4.19632271429306E-02
105500000	0.99909528136245	-4.18945600581053E-02
105750000	0.999189875023681	-4.21176501769506E-02
106000000	0.999112932500302	-4.21285761832747E-02
106250000	0.999121900335194	-4.23934437204417E-02
106500000	0.999063418085731	-4.24086716164765E-02
106750000	0.999065347318839	-4.25966514271991E-02
107000000	0.999126505606398	-4.26363179644429E-02
107250000	0.999079095562834	-4.26914869610033E-02
107500000	0.999039025335418	-4.27341709628747E-02
107750000	0.999177915161992	-4.29160537485746E-02
108000000	0.99913947541038	-4.31307540487894E-02
108250000	0.999139606706376	-4.31064514127039E-02
108500000	0.999102503804897	-4.32257509966736E-02
108750000	0.999094127342553	-4.33951736995039E-02
109000000	0.999045726993216	-4.33674894745611E-02
109250000	0.999071594473105	-4.35731017666818E-02
109500000	0.999019297149046	-4.36481205480848E-02
109750000	0.998987431889056	-4.37219576548356E-02
110000000	0.99908354744306	-4.38578204485044E-02
110250000	0.999059710778155	-4.38869537007724E-02
110500000	0.999089044945002	-4.40126408990622E-02
110750000	0.999027138769278	-4.41645507304615E-02
111000000	0.999003885127134	-4.42469277384188E-02
111250000	0.999130968624914	-4.43302769863593E-02
111500000	0.99899206190963	-4.43997784239521E-02
111750000	0.999042721383777	-4.45004287334046E-02
112000000	0.998952593029526	-4.46328002913016E-02
112250000	0.998994869726245	-4.47000593616741E-02
112500000	0.998930390841649	-4.47614456903056E-02
112750000	0.998940587448859	-4.47982095659772E-02
113000000	0.998965442352991	-4.49489448478383E-02
113250000	0.998985552236837	-4.52070367226966E-02
113500000	0.998930714879915	-4.51696047569477E-02
113750000	0.999005140656899	-4.54000432783252E-02
114000000	0.999043150507009	-4.54341118994928E-02
114250000	0.998935813076506	-4.54865760211777E-02
114500000	0.998958821607262	-4.56764026884403E-02
114750000	0.998896431077429	-4.56898964308374E-02
115000000	0.998984468566118	-4.58010909219704E-02
115250000	0.998999032339458	-4.59169752635196E-02
115500000	0.99890955942149	-4.59279403620705E-02
115750000	0.998890948988085	-4.60741099747411E-02
116000000	0.998911811083335	-4.62299465972755E-02
116250000	0.99895574341889	-4.62827472247263E-02
116500000	0.998937860670169	-4.63777708288962E-02
116750000	0.998821577536818	-4.65541506529074E-02
117000000	0.998953729074363	-4.65658276671543E-02
117250000	0.99895207953381	-4.66549303850842E-02
117500000	0.998883540736802	-4.67833525205848E-02
117750000	0.998887418266597	-4.68764892328243E-02
118000000	0.998861704445712	-4.70396241420002E-02
118250000	0.99890503558389	-4.71520653740396E-02
118500000	0.998881966366003	-4.72191673609984E-02
118750000	0.998872890353877	-0.047321899614786
119000000	0.998907899180552	-4.73921287873036E-02
119250000	0.998866882138294	-4.75116569405868E-02
119500000	0.998870282394107	-4.75730665837367E-02
119750000	0.998914975890621	-4.77722782208028E-02
120000000	0.998867777998806	-4.78027926662465E-02
120250000	0.99891849201769	-4.78981828201164E-02
120500000	0.998818673771372	-4.79821885050676E-02
120750000	0.998867556654384	-4.81015899413701E-02
121000000	0.998770105410024	-4.82003364586502E-02
121250000	0.99895010784896	-4.82250779115377E-02
121500000	0.998852377943803	-4.83964162234667E-02
121750000	0.998749759127227	-4.85337809694382E-02
122000000	0.998769409317558	-0.048641481069111
122250000	0.998687555479828	-0.048750366659403
122500000	0.998852244328218	-4.88652782199316E-02
122750000	0.998834915499772	-4.88160776279004E-02
123000000	0.998825992359391	-4.89295534123619E-02
123250000	0.998776594005676	-4.91422045555858E-02
123500000	0.998890731098146	-4.91159889274166E-02
123750000	0.998772943932192	-4.93462499707759E-02
124000000	0.998770782909987	-4.93588515836937E-02
124250000	0.998760452777397	-4.95257274035288E-02
124500000	0.998729579952961	-4.95290734829645E-02
124750000	0.99882898859347	-4.97092021008714E-02
125000000	0.998791263334664	-4.97371252047962E-02
125250000	0.998770822288625	-4.97505630998236E-02
125500000	0.998781994015423	-4.99152865305524E-02
125750000	0.998743686736501	-5.00695096170404E-02
126000000	0.998728243465161	-5.01329064458656E-02
126250000	0.998717917200505	-5.02375819356002E-02
126500000	0.998850799455	-5.03268090333541E-02
126750000	0.998716364070822	-5.04399021989589E-02
127000000	0.998674597036403	-5.05374986526987E-02
127250000	0.998819897679542	-5.07218506501233E-02
127500000	0.998739731179045	-5.06958507678129E-02
127750000	0.998688053102557	-0.050817361475936
128000000	0.998645450277254	-0.05092341527361
128250000	0.998701430646879	-5.10961996634825E-02
128500000	0.998667884395126	-5.11789842741471E-02
128750000	0.998830519470041	-5.12780744335198E-02
129000000	0.998693554452294	-5.13203337481807E-02
129250000	0.99867258793218	-5.14759451258292E-02
129500000	0.998617456568015	-5.16505588055692E-02
129750000	0.99866305452205	-5.17233320205253E-02
130000000	0.998653571436608	-5.17180333116145E-02
130250000	0.99865678215706	-5.17969853271226E-02
130500000	0.998657303566844	-0.051909960707498
130750000	0.998642210099194	-5.21040397288973E-02
131000000	0.998616094180253	-5.21443644432985E-02
131250000	0.998629485132517	-0.052233387386108
131500000	0.998650113594724	-5.24097388339806E-02
131750000	0.998685426385449	-5.24753008349985E-02
132000000	0.998730398206784	-5.25297711520846E-02
132250000	0.99859365385367	-5.26196274332386E-02
132500000	0.998607983200185	-5.27191507768282E-02
132750000	0.998590766313746	-5.28507489201459E-02
133000000	0.998466153698411	-5.30317865382895E-02
133250000	0.998629123088284	-0.053016632207502
133500000	0.998661639695118	-5.31731042255648E-02
133750000	0.998579699699971	-5.32677264306588E-02
134000000	0.998569221228164	-5.33411215688775E-02
134250000	0.998558075622995	-5.34713712966052E-02
134500000	0.998597881294522	-0.05358523597657
134750000	0.998578861000575	-5.35639970315156E-02
135000000	0.998584834910254	-5.37089384624181E-02
135250000	0.998580026791473	-5.38612643198246E-02
135500000	0.99848811212122	-5.38642232844054E-02
135750000	0.998526481902901	-0.054116840385687
136000000	0.998603541343791	-5.41376446921251E-02
136250000	0.998499695203123	-5.43334028548909E-02
136500000	0.998498755365793	-5.43751547238886E-02
136750000	0.998442142002799	-5.44205773679111E-02
137000000	0.998498980253558	-5.45514457036232E-02
137250000	0.998512766044882	-5.46459573005628E-02
137500000	0.998486227519466	-0.054737450009504
137750000	0.998468322197674	-5.48669838167886E-02
138000000	0.998501089231185	-5.48740945016896E-02
138250000	0.998451246952623	-5.51173400948737E-02
138500000	0.998454822922531	-5.51632593942003E-02
138750000	0.998445864916497	-5.52359385157568E-02
139000000	0.998413574767064	-5.53514958469958E-02
139250000	0.998431890914353	-5.54427727482267E-02
139500000	0.998470027089192	-5.55707008976802E-02
139750000	0.998417085644958	-5.56233802456788E-02
