# Hz S RI R 50
40000000	-5.87794032280058E-03	2.22669883203962E-02
40250000	-5.74636227414215E-03	2.22040161333617E-02
40500000	-5.59685049368376E-03	0.022141977113332
40750000	-5.4353747897826E-03	2.20971990526184E-02
41000000	-5.31986136149902E-03	2.20735605538974E-02
41250000	-5.18476395704975E-03	2.20170614249243E-02
41500000	-5.02029370696657E-03	2.20156012433457E-02
41750000	-4.88398448705858E-03	2.20351613157042E-02
42000000	-0.004761227831565	2.19828198606272E-02
42250000	-4.58578201180132E-03	2.20079968822178E-02
42500000	-4.44453045320268E-03	2.19385230496518E-02
42750000	-4.31249589349651E-03	2.19498071563009E-02
43000000	-4.21458518977604E-03	2.19682228600572E-02
43250000	-4.03832437290358E-03	0.021936385980365
43500000	-3.86794092225025E-03	2.19510903327432E-02
43750000	-3.69700433603917E-03	2.19082484874843E-02
44000000	-3.56807501825545E-03	2.18868586471814E-02
44250000	-3.38273054111565E-03	2.19178547712651E-02
44500000	-3.19939344322871E-03	2.18672256861579E-02
44750000	-3.03698469818523E-03	2.18295920628164E-02
45000000	-2.91562044642424E-03	2.18146691861412E-02
45250000	-2.75407426720651E-03	2.17649802141246E-02
45500000	-2.55491377479156E-03	2.17200088169633E-02
45750000	-2.39106289742327E-03	2.17055829657431E-02
46000000	-2.24173876987313E-03	2.16279671419461E-02
46250000	-2.04966344684872E-03	2.15920239190071E-02
46500000	-1.8541204690708E-03	2.15739914594345E-02
46750000	-1.71414130460162E-03	2.14503604991047E-02
47000000	-1.56053075006394E-03	2.13908549219998E-02
47250000	-1.38669577812205E-03	2.13246370835098E-02
47500000	-1.22153551103529E-03	2.12937155175787E-02
47750000	-1.05479060017703E-03	2.11529058181323E-02
48000000	-9.04371983933806E-04	2.10803139844648E-02
48250000	-7.61747571403049E-04	2.10357735752475E-02
48500000	-5.78424498834136E-04	2.08809631611791E-02
48750000	-4.88217166844057E-04	2.07836962584003E-02
49000000	-3.64893389918217E-04	2.06434188246502E-02
49250000	-1.57909048706049E-04	2.05983034526114E-02
49500000	-3.37245878286971E-05	2.04766929015147E-02
49750000	1.0412131654894E-04	2.03662297542449E-02
50000000	2.37953932753553E-04	2.02428488705199E-02
50250000	3.68791361206912E-04	2.01514059045729E-02
50500000	4.11423356908632E-04	2.00152642730551E-02
50750000	6.00619909076002E-04	1.99006697565714E-02
51000000	7.03863623091355E-04	1.97722584706032E-02
51250000	8.20217936255778E-04	1.96489133950781E-02
51500000	9.16835081067898E-04	1.95048492773187E-02
51750000	9.99758467394681E-04	1.93722254719138E-02
52000000	1.11709575787145E-03	1.92272929899112E-02
52250000	1.19723745704828E-03	1.91035228877663E-02
52500000	1.24940435571898E-03	1.89437390173719E-02
52750000	1.35039105590406E-03	1.88010278415905E-02
53000000	1.41309683401725E-03	1.86716904058077E-02
53250000	1.46198291266304E-03	1.85762398637842E-02
53500000	1.57165513589854E-03	1.84605518002646E-02
53750000	1.63907218500432E-03	1.82971844094738E-02
54000000	1.66736377675537E-03	1.81578551922167E-02
54250000	1.77274254492492E-03	1.79745507799417E-02
54500000	1.77643899091049E-03	1.79011754129292E-02
54750000	1.84286850298578E-03	1.77550665691835E-02
55000000	1.88336129951724E-03	0.017622254551425
55250000	1.90323363063871E-03	1.74779244075039E-02
55500000	2.00080154458351E-03	1.73417533069701E-02
55750000	1.96739111266376E-03	1.72004245158389E-02
56000000	2.02107681550141E-03	1.70738050805845E-02
56250000	2.02043046166406E-03	1.69682396018739E-02
56500000	2.07556718509962E-03	0.016847468390314
56750000	2.07031780263505E-03	1.67115079552374E-02
57000000	2.13947138535569E-03	1.65847575954194E-02
57250000	2.10979686900735E-03	1.64212109899167E-02
57500000	2.07437891118639E-03	1.63085571020674E-02
57750000	2.17682296726736E-03	1.62011634927495E-02
58000000	2.11962704427414E-03	1.61281410919538E-02
58250000	2.13747913612539E-03	1.59791238590686E-02
58500000	2.14048152059183E-03	1.58764110455325E-02
58750000	2.13806448804658E-03	1.57446363861715E-02
59000000	2.16633419971314E-03	1.56475485919169E-02
59250000	2.11014157617198E-03	1.55251095103331E-02
59500000	2.11149396813671E-03	1.54210779290371E-02
59750000	2.10640548622804E-03	1.53237205153961E-02
60000000	2.10127218657259E-03	1.52160088772542E-02
60250000	2.09806195808779E-03	1.51216673837533E-02
60500000	2.0943717897099E-03	1.50169531294457E-02
60750000	2.03866812404385E-03	1.49011666538683E-02
61000000	2.03903964462936E-03	0.014786156300647
61250000	2.00548502559243E-03	1.46979338192154E-02
61500000	2.00629085532996E-03	0.0146678539415
61750000	1.99831636441107E-03	1.45338917271401E-02
62000000	1.94816873628423E-03	1.44557042159409E-02
62250000	1.96000470428002E-03	1.43636354386006E-02
62500000	1.91723281321801E-03	1.43085058131898E-02
62750000	1.8857376637366E-03	1.41837021485926E-02
63000000	1.85724427477548E-03	1.41278247592038E-02
63250000	1.81411707925198E-03	1.40012116583738E-02
63500000	1.82467683622105E-03	1.39079003654527E-02
63750000	1.76376660183566E-03	0.013884340400948
64000000	1.73270597547178E-03	1.37809865130337E-02
64250000	1.71327855093047E-03	1.37128330717674E-02
64500000	1.66748607000646E-03	1.36513319753226E-02
64750000	1.62785974311178E-03	1.36074823789606E-02
65000000	1.62331145315802E-03	1.35001109673921E-02
65250000	1.58294446061307E-03	1.34351394369514E-02
65500000	1.55418477082283E-03	1.33814898256078E-02
65750000	1.47517370878581E-03	1.33119621580824E-02
66000000	1.45669325897505E-03	1.32130179638225E-02
66250000	1.41047541182169E-03	1.31554370184221E-02
66500000	1.40189272052923E-03	1.31179845101397E-02
66750000	1.37662889175194E-03	1.30600689911038E-02
67000000	1.34224501005131E-03	1.30159810925765E-02
67250000	1.28922293512576E-03	1.29596742671979E-02
67500000	1.24980040391408E-03	1.29130706756349E-02
67750000	1.20038813601024E-03	1.28398043015696E-02
68000000	1.16164154386743E-03	1.27654819465818E-02
68250000	1.13807987711601E-03	1.27312182182067E-02
68500000	1.12881079664455E-03	1.26567253811572E-02
68750000	1.08461227443158E-03	1.26168397784716E-02
69000000	1.04396316492221E-03	1.25469825701331E-02
69250000	9.28674735046706E-04	1.25478991074659E-02
69500000	9.58270178200356E-04	1.24643556758173E-02
69750000	9.4200014284749E-04	1.24363514321249E-02
70000000	8.64539210188084E-04	1.23690831933544E-02
70250000	8.37757286338802E-04	1.23451484525189E-02
70500000	8.08629201861062E-04	1.22830841669239E-02
70750000	7.65580621116454E-04	0.01225674197438
71000000	7.02807961990477E-04	1.22367932528957E-02
71250000	6.9459151305382E-04	0.012157763213009
71500000	6.82504506658396E-04	1.21239283151966E-02
71750000	5.89532143754227E-04	0.012086944979984
72000000	5.73345474745082E-04	1.20687016151756E-02
72250000	5.28557537190368E-04	1.20142056783664E-02
72500000	4.99075352266719E-04	1.19652452742171E-02
72750000	4.33288162772838E-04	1.19153192678254E-02
73000000	4.13790031462388E-04	1.18957176806686E-02
73250000	3.56526266526627E-04	0.011873206874111
73500000	3.359254759484E-04	1.18471106097375E-02
73750000	2.83781515336922E-04	1.17634209474547E-02
74000000	2.42420815174113E-04	1.17701402531412E-02
74250000	1.82325683859652E-04	1.17305390167631E-02
74500000	1.44294679400889E-04	1.16603619192817E-02
74750000	1.21148794940162E-04	1.16303457927587E-02
75000000	7.35671083721886E-05	1.16227561186424E-02
75250000	1.64396857767816E-05	1.15951984498092E-02
75500000	8.79612732178654E-06	1.15618286517694E-02
75750000	-5.82559247808131E-06	1.15138859406484E-02
76000000	-1.14620148747725E-04	1.15075775712504E-02
76250000	-1.09160495712157E-04	1.14690439418688E-02
76500000	-1.78755412804524E-04	1.14083904448678E-02
76750000	-2.16180489900414E-04	1.14480859757533E-02
77000000	-2.52646113825751E-04	0.011391581304213
77250000	-2.96066651817507E-04	1.13452653589454E-02
77500000	-3.61870288638669E-04	1.13329809783341E-02
77750000	-3.60368212376754E-04	1.13368481319037E-02
78000000	-4.60335246055878E-04	1.12697452135923E-02
78250000	-5.10519798364691E-04	1.12416870042831E-02
78500000	-5.63059495949724E-04	1.12204689569025E-02
78750000	-5.55453919887571E-04	1.12196777154506E-02
79000000	-6.64545060190287E-04	1.11769638814223E-02
79250000	-6.93460193246171E-04	1.11767155619162E-02
79500000	-7.38569570714398E-04	1.11398155954912E-02
79750000	-7.32562032192226E-04	1.11378145717338E-02
80000000	-8.25748889040651E-04	1.10891894332158E-02
80250000	-8.66765403737743E-04	1.10825374760096E-02
80500000	-8.85206828691457E-04	1.10377998296486E-02
80750000	-9.93453621964777E-04	1.10451198828436E-02
81000000	-9.85107481122498E-04	1.09726831593547E-02
81250000	-1.05751879500516E-03	1.09690022709954E-02
81500000	-1.12289158933737E-03	1.09719538567374E-02
81750000	-1.19325129386069E-03	1.09384802676735E-02
82000000	-1.18774522389149E-03	1.09604902718463E-02
82250000	-1.26580162788375E-03	1.09330020362492E-02
82500000	-0.001298490222566	1.08833342506806E-02
82750000	-1.39217912338406E-03	1.09165978621324E-02
83000000	-1.47003512451592E-03	1.09072536732465E-02
83250000	-0.001469592846731	1.08764686406091E-02
83500000	-1.52430901987787E-03	1.08722323283265E-02
83750000	-1.58289069865769E-03	1.08329660255323E-02
84000000	-1.65411665894183E-03	1.08065346883113E-02
84250000	-1.67716528428487E-03	1.08423438100205E-02
84500000	-1.72822923420743E-03	1.08928333012152E-02
84750000	-1.78966979013911E-03	1.08149329627563E-02
85000000	-1.8793431019357E-03	1.08002979691142E-02
85250000	-1.92353480459352E-03	1.08139792261656E-02
85500000	-1.96830056468559E-03	1.07536908080393E-02
85750000	-2.04617611674943E-03	1.08153393224481E-02
86000000	-2.12340786901373E-03	1.07981433887403E-02
86250000	-2.13169653316398E-03	1.07848257678896E-02
86500000	-2.19431787734987E-03	0.010774211189647
86750000	-2.23204576592985E-03	1.07687654618524E-02
87000000	-2.31030012495761E-03	1.07806555775976E-02
87250000	-2.32970218365712E-03	1.07653524306748E-02
87500000	-2.41734040096798E-03	1.07188451975388E-02
87750000	-2.49745590663054E-03	1.07362131257923E-02
88000000	-2.57876868084037E-03	0.010748759754041
88250000	-2.61669421786324E-03	1.07782517427702E-02
88500000	-2.6741984767495E-03	1.07313616655076E-02
88750000	-2.73673879905349E-03	1.07529801514233E-02
89000000	-2.77792903059708E-03	0.010766921264087
89250000	-2.88814472966968E-03	1.07709844912717E-02
89500000	-2.91077125077991E-03	1.07299770006301E-02
89750000	-3.0052351885433E-03	1.07686245753615E-02
90000000	-3.03278384064592E-03	1.07942919127307E-02
90250000	-3.09398686292866E-03	1.07571911556165E-02
90500000	-3.17036299270105E-03	1.08009215199573E-02
90750000	-3.23279789166157E-03	1.08074600194589E-02
91000000	-3.31706644312891E-03	1.08557611301502E-02
91250000	-3.37934923818762E-03	1.08190043401111E-02
91500000	-3.4188251880278E-03	0.010839203569389
91750000	-3.46714191393294E-03	1.08400657933399E-02
92000000	-3.56617581740741E-03	1.08516123750402E-02
92250000	-3.58000560158473E-03	1.08534870911086E-02
92500000	-3.67523475941921E-03	1.08634304327918E-02
92750000	-3.79061375260466E-03	1.08670414238637E-02
93000000	-3.84608815305759E-03	1.08898228248399E-02
93250000	-3.86730188673429E-03	1.09239287348923E-02
93500000	-3.97057337175017E-03	1.09401252254769E-02
93750000	-0.00401094129395	1.09167756909021E-02
94000000	-4.13424262548617E-03	1.09865088710361E-02
94250000	-4.12225244141172E-03	1.09761578663609E-02
94500000	-4.24332552389701E-03	1.10121279796039E-02
94750000	-4.26156421819573E-03	0.011016856734626
95000000	-4.38304421784026E-03	1.10597211225489E-02
95250000	-4.42606103008095E-03	1.10970676711168E-02
95500000	-4.48710074232944E-03	1.11135608620305E-02
95750000	-4.57128934338268E-03	1.11619109147632E-02
96000000	-4.63621620303576E-03	1.11905187349092E-02
96250000	-4.65684842313917E-03	1.11773818835901E-02
96500000	-4.75474979625603E-03	1.12307272815502E-02
96750000	-4.81888157127272E-03	1.12336087886395E-02
97000000	-4.91523254005913E-03	1.12692925823168E-02
97250000	-4.99578988698161E-03	1.12997275803974E-02
97500000	-5.04549474637872E-03	1.13483515950375E-02
97750000	-5.10884106008771E-03	1.14055047244447E-02
98000000	-5.21136346344628E-03	1.13861667620548E-02
98250000	-5.30358379558379E-03	1.14383034656845E-02
98500000	-5.33467031704788E-03	1.14887690431187E-02
98750000	-5.37699313206067E-03	1.15035181590141E-02
99000000	-5.50537892935953E-03	1.15683622265386E-02
99250000	-5.53843861874632E-03	1.16118400522798E-02
99500000	-5.59311528989178E-03	1.16361346734515E-02
99750000	-5.65253821087906E-03	0.011663761999321
100000000	-5.74902825396098E-03	1.16989787164427E-02
100250000	-5.84187572434135E-03	1.17597383799755E-02
100500000	-5.8847752852651E-03	1.17757617113236E-02
100750000	-5.97806151879756E-03	1.18363522582977E-02
101000000	-6.03633929328155E-03	0.011880725362141
101250000	-6.10956349935119E-03	1.19361389524545E-02
101500000	-6.16062293179338E-03	0.011957818817921
101750000	-6.2473297396595E-03	1.20224374499063E-02
102000000	-6.30668252939933E-03	1.20916825646906E-02
102250000	-6.40927343190586E-03	1.21265143757789E-02
102500000	-6.48040496292946E-03	1.21690398574098E-02
102750000	-6.51235835908463E-03	1.22599155149472E-02
103000000	-6.58921182740446E-03	1.23194224591246E-02
103250000	-6.63924391298886E-03	1.23579540501987E-02
103500000	-6.73483505582053E-03	1.23888698767745E-02
103750000	-6.8569099707517E-03	1.24645440726086E-02
104000000	-6.89475330783351E-03	1.24895186015032E-02
104250000	-6.96332358064834E-03	1.25960678397178E-02
104500000	-7.03703983478551E-03	0.012617561185613
104750000	-7.10233207465321E-03	1.26960240781317E-02
105000000	-7.16421915711807E-03	0.012732653787961
105250000	-7.20269857785984E-03	1.28504480618526E-02
105500000	-7.30765405219663E-03	0.012869371232349
105750000	-7.38496333295493E-03	1.29388913086277E-02
106000000	-7.42042954110406E-03	1.29917151531668E-02
106250000	-7.50138616708626E-03	1.30888972173716E-02
106500000	-7.54512245168615E-03	1.31241970855724E-02
106750000	-7.6231184156816E-03	1.32583049165286E-02
107000000	-7.6852050204923E-03	0.013248990385509
107250000	-7.77522233977649E-03	1.33599342826984E-02
107500000	-7.85496275099287E-03	1.34176116214907E-02
107750000	-7.87406210748417E-03	1.34642880462967E-02
108000000	-7.98577960358683E-03	1.35758033498227E-02
108250000	-8.01135520215595E-03	1.36712559195021E-02
108500000	-8.0824203496134E-03	0.013697572814473
108750000	-8.13043505710998E-03	1.37873511133078E-02
109000000	-8.19712650264429E-03	1.38567271857704E-02
109250000	-8.3052071547162E-03	1.39416869995536E-02
109500000	-8.36233025830776E-03	0.013990268513601
109750000	-8.41122592229202E-03	1.40872474434058E-02
110000000	-8.46547144047106E-03	1.41725202812222E-02
110250000	-8.50885925464077E-03	1.42670265388657E-02
110500000	-8.62441419551973E-03	1.43293281588481E-02
110750000	-8.7031224382663E-03	0.014434900067696
111000000	-8.75222939271837E-03	1.44806795926658E-02
111250000	-8.78880559429999E-03	1.46144470781941E-02
111500000	-8.87217055207114E-03	1.46855147035079E-02
111750000	-8.94454148634554E-03	1.47618040843039E-02
112000000	-8.99617481206808E-03	1.48403041548986E-02
112250000	-0.009089636289848	1.49549687136466E-02
112500000	-9.08770039250509E-03	1.50763437994886E-02
112750000	-9.16272597345618E-03	1.51032523103675E-02
113000000	-9.20798060254294E-03	1.52496446690604E-02
113250000	-9.28286075670813E-03	1.52964052158016E-02
113500000	-9.36599038328805E-03	1.53855674620267E-02
113750000	-9.42444373237148E-03	1.55055643292621E-02
114000000	-9.47011524881068E-03	1.55939901834559E-02
114250000	-9.52769484666425E-03	1.57380807843828E-02
114500000	-9.62075605710139E-03	1.57968503702818E-02
114750000	-9.6427989515706E-03	1.59421174307714E-02
115000000	-9.71220128384765E-03	1.60136206803134E-02
115250000	-9.77232383257046E-03	0.016100711117898
115500000	-9.76236908353294E-03	1.62201058236398E-02
115750000	-9.91358146636828E-03	1.63086645598167E-02
116000000	-9.89942301074276E-03	1.64461568955722E-02
116250000	-9.97870602950433E-03	1.65657365983253E-02
116500000	-1.00121096063868E-02	1.66355908594469E-02
116750000	-1.00471758271249E-02	1.67452781014932E-02
117000000	-1.01315079655938E-02	1.68908540690717E-02
117250000	-1.01882382443871E-02	1.69467162783139E-02
117500000	-1.02062196764152E-02	1.70964165478995E-02
117750000	-1.02607818096418E-02	1.71883656408986E-02
118000000	-1.03214205612402E-02	1.72957586764903E-02
118250000	-1.03615467761511E-02	1.74602006102628E-02
118500000	-1.03905206084995E-02	1.75599233555702E-02
118750000	-0.010501832236216	1.76776934312125E-02
119000000	-1.04766650275547E-02	1.77930924446398E-02
119250000	-1.05441830278752E-02	1.79213316584357E-02
119500000	-1.05941797097541E-02	0.018043919562615
119750000	-1.06186953026695E-02	0.018147240307193
120000000	-1.06798334851896E-02	1.82646574255197E-02
120250000	-1.07274782104262E-02	1.83515891165899E-02
120500000	-1.08016119327692E-02	1.84753563332359E-02
120750000	-1.08030553877748E-02	1.86309927009177E-02
121000000	-1.08346207703209E-02	1.87380353821759E-02
121250000	-1.08782125074814E-02	1.88513914708472E-02
121500000	-1.09042660061386E-02	1.90009972978213E-02
121750000	-1.09668090715772E-02	1.91194701029022E-02
122000000	-1.09817438400301E-02	0.019258526158923
122250000	-0.011028995181321	1.93817468921664E-02
122500000	-1.10440955942032E-02	1.95090054350603E-02
122750000	-1.10944351257564E-02	1.96374055354232E-02
123000000	-1.11116340320331E-02	1.97565728233731E-02
123250000	-1.11732479625632E-02	1.98836044130362E-02
123500000	-0.011197022640966	2.00370868772347E-02
123750000	-1.12488381773284E-02	2.01362304119049E-02
124000000	-0.011240874027082	2.03088846000256E-02
124250000	-1.12677528517351E-02	2.04306845898059E-02
124500000	-1.13653430483901E-02	2.05365836924784E-02
124750000	-1.13023942322701E-02	2.07025784419446E-02
125000000	-0.011376677724369	2.08521902898288E-02
125250000	-1.13897241369613E-02	2.09909957509107E-02
125500000	-1.14059229916677E-02	2.10989655999577E-02
125750000	-1.13926289232556E-02	0.021230215698656
126000000	-1.14416284302847E-02	0.021380879902671
126250000	-1.14802533324316E-02	2.15521063782259E-02
126500000	-1.15033259668546E-02	2.16706808983192E-02
126750000	-1.14965760774139E-02	2.18049847512413E-02
127000000	-1.15810261384806E-02	2.20034399267888E-02
127250000	-1.15511964131286E-02	2.21262920534579E-02
127500000	-1.15578560326009E-02	0.022260793365909
127750000	-1.15314519647121E-02	2.24282264360235E-02
128000000	-1.15699674105578E-02	0.022533643488612
128250000	-1.16414025679881E-02	2.26480029736537E-02
128500000	-0.011637018912975	0.022846418916082
128750000	-1.16208983927371E-02	2.30114536871747E-02
129000000	-1.16322685557341E-02	2.31092440073414E-02
129250000	-1.16377253091453E-02	2.32345949027409E-02
129500000	-1.16510280664218E-02	2.34600511472917E-02
129750000	-1.16759061570923E-02	2.35722653248707E-02
130000000	-1.16559137164125E-02	2.37447318108546E-02
130250000	-1.16580836035603E-02	2.38579702121254E-02
130500000	-1.16595087740074E-02	2.40323864355026E-02
130750000	-1.16586672672572E-02	2.41870010130767E-02
131000000	-1.16262245063317E-02	2.43142571131502E-02
131250000	-1.16069763548335E-02	2.44359681647818E-02
131500000	-1.16337866322553E-02	0.02463411134652
131750000	-1.16184627945575E-02	0.024782995695992
132000000	-0.011700018478992	2.49270323374845E-02
132250000	-1.16505591837717E-02	2.50574122669429E-02
132500000	-1.16880013648948E-02	2.52200973823819E-02
132750000	-1.16288522171159E-02	2.54194040610913E-02
133000000	-1.16184936500223E-02	2.55599324730064E-02
133250000	-1.16444158742388E-02	2.56864050619888E-02
133500000	-1.15764159683616E-02	2.58796761314754E-02
133750000	-1.15845208879078E-02	2.60111563239131E-02
134000000	-1.16369561701069E-02	2.61743804684406E-02
134250000	-1.15662866256065E-02	2.63601614066022E-02
134500000	-0.011568832493672	2.65214552539739E-02
