# Hz S RI R 50
40000000	-0.999260866131583	1.65399683507046E-02
40250000	-0.999219366250463	1.67292132733637E-02
40500000	-0.999322493353015	1.67690865104228E-02
40750000	-0.99922938600259	1.69140260372366E-02
41000000	-0.999295892887686	1.70051812001762E-02
41250000	-0.999237317498811	1.70996525494128E-02
41500000	-0.999272880777142	0.017177842595267
41750000	-0.999254956651438	1.73278421354171E-02
42000000	-0.999208061353227	1.74269271787201E-02
42250000	-0.99919168819645	1.74821322128564E-02
42500000	-0.999262441584342	1.75910575891923E-02
42750000	-0.999251666487204	1.77429069398031E-02
43000000	-0.999168605440697	1.77236629716851E-02
43250000	-0.999201460321231	1.79326854513018E-02
43500000	-0.999260496731533	0.017943018462499
43750000	-0.9992602339163	1.80120678915993E-02
44000000	-0.999129109299196	1.82999531684512E-02
44250000	-0.999177566900472	1.82602262516144E-02
44500000	-0.999108216831263	1.84088080457797E-02
44750000	-0.999189374565543	1.85052647956405E-02
45000000	-0.999085972142564	1.86007293708707E-02
45250000	-0.999195061000335	1.86436385482788E-02
45500000	-0.999121735397767	1.88007353987828E-02
45750000	-0.999217193418251	1.88862299936771E-02
46000000	-0.999168891710056	1.90188888501457E-02
46250000	-0.999023376146079	1.91686335851848E-02
46500000	-0.999129576981315	1.93131948565836E-02
46750000	-0.999106461287271	1.93566826178089E-02
47000000	-0.999147084692784	1.94654837955682E-02
47250000	-0.999134591856743	1.95305764304607E-02
47500000	-0.999109261014099	1.96478233546139E-02
47750000	-0.999108119232797	1.97367008848965E-02
48000000	-0.999077668052106	0.019883090310482
48250000	-0.999131176567007	1.98604310626847E-02
48500000	-0.999089408956651	2.00212204415645E-02
48750000	-0.999134505757699	2.01085126592375E-02
49000000	-0.999066811723658	2.02896702040652E-02
49250000	-0.999241274966764	2.03687342955479E-02
49500000	-0.999122857833964	2.03980337299615E-02
49750000	-0.999126747002237	2.05491764954692E-02
50000000	-0.999054969616603	0.020660692915958
50250000	-0.999085846025327	2.07110580651048E-02
50500000	-0.999142132217844	2.07894533167449E-02
50750000	-0.999012660663549	2.09344154870405E-02
51000000	-0.999121482858219	2.10774412513263E-02
51250000	-0.999093138175375	2.11317407147782E-02
51500000	-0.999118751004523	2.12087527027034E-02
51750000	-0.999095525908998	2.14014516410005E-02
52000000	-0.999100829789631	2.14287321903475E-02
52250000	-0.999066113955467	2.15617889915046E-02
52500000	-0.998987302043993	2.17263877779664E-02
52750000	-0.999032680212539	2.18104459467767E-02
53000000	-0.999099955796942	2.19199026258856E-02
53250000	-0.999060878738291	2.19783385690855E-02
53500000	-0.999081402810819	2.21097427503845E-02
53750000	-0.999130520644472	0.022197729032004
54000000	-0.999092734541378	2.22366124867972E-02
54250000	-0.999099842604253	2.23309809497873E-02
54500000	-0.998976046222805	2.24641076600516E-02
54750000	-0.999077744592314	2.25043628647911E-02
55000000	-0.998982078046384	2.27364914536212E-02
55250000	-0.998951433723634	2.27928831075777E-02
55500000	-0.999011007080012	2.28798406725028E-02
55750000	-0.99908129288453	2.30359158721725E-02
56000000	-0.998980931941663	2.30762650249528E-02
56250000	-0.999050127385164	2.31699923213084E-02
56500000	-0.999012921083583	2.33927315677913E-02
56750000	-0.998909283933906	2.33498906791109E-02
57000000	-0.998981218978029	2.35080104755582E-02
57250000	-0.998981357063832	2.36769600710398E-02
57500000	-0.99897596427259	2.37240311773054E-02
57750000	-0.999010434094728	2.36624610633217E-02
58000000	-0.998959418577115	0.023895637892037
58250000	-0.999008006683406	2.40441299083667E-02
58500000	-0.998987858900752	0.024123557591232
58750000	-0.998946421359311	2.41705304147639E-02
59000000	-0.998962806552842	2.42873589817763E-02
59250000	-0.998984474124634	2.44383313112123E-02
59500000	-0.998997120742953	2.45330453875636E-02
59750000	-0.999052125175755	2.46174049978369E-02
60000000	-0.999012946421463	2.47224084402282E-02
60250000	-0.999000226821177	2.48443931131984E-02
60500000	-0.998926983762415	2.49905427898769E-02
60750000	-0.998932246357243	2.50338942668641E-02
61000000	-0.998919832870904	0.025122826049516
61250000	-0.998983387459376	2.52591240142926E-02
61500000	-0.998943543816954	2.53573817112069E-02
61750000	-0.998793077427466	2.55438485410269E-02
62000000	-0.998938565181679	2.55605726862142E-02
62250000	-0.998815769765378	2.57191549747181E-02
62500000	-0.99889589188571	0.02565268941278
62750000	-0.998967635144542	0.025808358463379
63000000	-0.998894619882501	2.58693144513397E-02
63250000	-0.998855142074569	2.60302255527819E-02
63500000	-0.998951810699764	2.61584834186388E-02
63750000	-0.998791290564476	2.61708517224684E-02
64000000	-0.998872738926087	2.62910577290989E-02
64250000	-0.998793763050948	2.64645247515341E-02
64500000	-0.998773991684694	2.65164262766306E-02
64750000	-0.998937179527445	2.66277205087192E-02
65000000	-0.998840648218444	2.67310147329069E-02
65250000	-0.998824670044595	2.68491642666314E-02
65500000	-0.998855379936421	2.69970656059175E-02
65750000	-0.998793210409162	2.70202226155001E-02
66000000	-0.998817433262741	0.027226022765287
66250000	-0.998907677655182	2.72396195323183E-02
66500000	-0.998869503217608	2.73726492127518E-02
66750000	-0.998845057258528	2.74475887845575E-02
67000000	-0.998837042875763	2.75541841750149E-02
67250000	-0.998782398759889	2.75999461376031E-02
67500000	-0.998761277280562	2.78047483826809E-02
67750000	-0.998812225419585	2.78637187251044E-02
68000000	-0.998804638390063	2.79514851412683E-02
68250000	-0.99878661676993	2.80327956985123E-02
68500000	-0.998780114420542	2.81691557038494E-02
68750000	-0.998946923257653	2.82518930683676E-02
69000000	-0.998755544749023	2.83361614130388E-02
69250000	-0.998804087282225	2.83876698586961E-02
69500000	-0.998860744032529	2.85662197793954E-02
69750000	-0.998751125312849	2.86492358767665E-02
70000000	-0.998770985167646	0.028729097255003
70250000	-0.998701214615551	2.88501425634835E-02
70500000	-0.998807040576757	0.028991740991415
70750000	-0.998761933325293	2.90911016810394E-02
71000000	-0.998800266287717	2.91164933192584E-02
71250000	-0.998772193678707	2.93154251170123E-02
71500000	-0.99882685625081	2.93088627653413E-02
71750000	-0.998679204662964	2.95035379012825E-02
72000000	-0.998728633968401	2.96525392961286E-02
72250000	-0.998732016512767	2.96312298734746E-02
72500000	-0.99872373825907	2.98559712834161E-02
72750000	-0.998714693069007	2.99036071181539E-02
73000000	-0.998752239566972	2.98992173767123E-02
73250000	-0.998794068704648	0.030030507045126
73500000	-0.998730810772324	3.01012443579118E-02
73750000	-0.998646354811914	3.01896382604213E-02
74000000	-0.998692886877798	3.03481586820668E-02
74250000	-0.998697976129447	3.05607828585631E-02
74500000	-0.998726596593425	3.05334029722645E-02
74750000	-0.998687191743365	3.06996517961129E-02
75000000	-0.998548142319581	3.07212481866865E-02
75250000	-0.99863992475639	3.09481682815573E-02
75500000	-0.998703873813314	3.09793696927824E-02
75750000	-0.998684341385719	3.10919930613114E-02
76000000	-0.998701828950422	3.11399481891565E-02
76250000	-0.998611324805389	3.12977442500922E-02
76500000	-0.998698638057734	3.13678427912488E-02
76750000	-0.99863379853734	3.14645466868065E-02
77000000	-0.998583613481064	3.15349452168526E-02
77250000	-0.99865688902509	0.031668127155223
77500000	-0.998648473764346	3.17826151618806E-02
77750000	-0.99860077847691	3.19839207033695E-02
78000000	-0.998652414132107	3.20246019339468E-02
78250000	-0.998595028096926	3.21575163974473E-02
78500000	-0.998610540412331	3.22771472744644E-02
78750000	-0.998726511387696	3.23514457850849E-02
79000000	-0.998600784753635	3.23724027549374E-02
79250000	-0.998648808924138	0.032518002516868
79500000	-0.99859629746635	3.25608960769236E-02
79750000	-0.998608901121274	3.26327790899065E-02
80000000	-0.998594550683302	0.032798613765814
80250000	-0.998575027750072	3.29954875741418E-02
80500000	-0.998686523376223	3.30189539560255E-02
80750000	-0.998599591151113	3.31162816399308E-02
81000000	-0.998572745397846	3.32832511608337E-02
81250000	-0.998536917749454	3.32542629576472E-02
81500000	-0.998478994834635	3.34126472287283E-02
81750000	-0.998645757090668	3.34753346119347E-02
82000000	-0.998564702089604	3.36394460678451E-02
82250000	-0.99848359724736	3.36817376083573E-02
82500000	-0.998657722152439	3.37943564520443E-02
82750000	-0.998626026642591	3.39365252317154E-02
83000000	-0.998649995914749	3.40444802377452E-02
83250000	-0.998566632948341	0.034104565800278
83500000	-0.998552183548184	3.42231130783388E-02
83750000	-0.998559755927578	3.43813999102567E-02
84000000	-0.998487428236725	3.44034002669806E-02
84250000	-0.998574581865503	0.034533652032687
84500000	-0.998454086035022	3.45884979335205E-02
84750000	-0.998466280227222	3.47055542436352E-02
85000000	-0.998581543744256	3.48194255148468E-02
85250000	-0.998562322757328	0.03491295254577
85500000	-0.998550130573419	3.50641233452941E-02
85750000	-0.998538972998526	3.51797016305019E-02
86000000	-0.998500358617985	3.52581173222613E-02
86250000	-0.998400434893409	3.53273897953056E-02
86500000	-0.998422343733431	3.53295528542726E-02
86750000	-0.998526906622109	0.035530606921547
87000000	-0.998457102448684	3.57121256026067E-02
87250000	-0.998497547986272	3.56930599458937E-02
87500000	-0.998400708516646	3.58828580234986E-02
87750000	-0.998392140393168	3.59837483453023E-02
88000000	-0.998366788133473	3.60870557145766E-02
88250000	-0.998381459493765	3.62029370862685E-02
88500000	-0.99846773846243	3.62842706063288E-02
88750000	-0.998510567406426	3.62581349554152E-02
89000000	-0.998385851544353	3.64512050481632E-02
89250000	-0.998448677106111	3.64916901778817E-02
89500000	-0.998462676988105	3.66765517036002E-02
89750000	-0.998465517535807	3.67410468309529E-02
90000000	-0.998430697950789	3.68387420257795E-02
90250000	-0.998376523436557	3.68745901787964E-02
90500000	-0.99836069072498	3.70867896585916E-02
90750000	-0.998431338342906	3.71881802155754E-02
91000000	-0.998340352615522	3.72590433839796E-02
91250000	-0.998405404495951	0.037349048283976
91500000	-0.998395803966605	0.037449825789756
91750000	-0.998408046860828	3.75186802962549E-02
92000000	-0.99826426714198	3.76692025781317E-02
92250000	-0.998322129811215	3.77975106622463E-02
92500000	-0.998382033284744	3.78768213488884E-02
92750000	-0.998327324907501	3.79752480895546E-02
93000000	-0.998370623027005	3.80550602158137E-02
93250000	-0.998278816361155	0.038205853397947
93500000	-0.998331393166009	3.82481488659077E-02
93750000	-0.998366008674103	3.83389996931616E-02
94000000	-0.998450499736517	3.85031731891092E-02
94250000	-0.998316394329616	3.85504939338253E-02
94500000	-0.998308205039844	3.86748648586237E-02
94750000	-0.998313119118006	3.87418792057945E-02
95000000	-0.998423866711609	3.88034299119168E-02
95250000	-0.998365264649185	3.89310800881015E-02
95500000	-0.998281501730613	3.90389064445109E-02
95750000	-0.998314191890224	0.039198845237382
96000000	-0.99827534588078	3.92587409632655E-02
96250000	-0.998260224777547	3.93735980694932E-02
96500000	-0.998365196311416	3.93696689247517E-02
96750000	-0.998315851605877	3.96192399931947E-02
97000000	-0.998322593432499	3.96361596150989E-02
97250000	-0.998256771527109	3.97820794329474E-02
97500000	-0.998310133647228	0.039876774345968
97750000	-0.998217227846809	0.039984453070173
98000000	-0.99817666427445	4.01432373708016E-02
98250000	-0.998222885285816	4.01881449354361E-02
98500000	-0.998241284919042	4.02461805146375E-02
98750000	-0.998262002909818	4.03980751229225E-02
99000000	-0.998186102398219	4.04726299041658E-02
99250000	-0.998224564213985	4.05774293735487E-02
99500000	-0.998235953489877	4.06974650760508E-02
99750000	-0.998237755676129	4.07400443009569E-02
100000000	-0.998204082846894	4.08388531172246E-02
100250000	-0.998167074712842	4.09902745626986E-02
100500000	-0.99816141218883	4.10228454136157E-02
100750000	-0.998183081429497	4.12200424346332E-02
101000000	-0.998231166215817	4.12992296928992E-02
101250000	-0.998234357319884	4.14242975986718E-02
101500000	-0.998205326760752	4.15401799622601E-02
101750000	-0.998206381456486	0.041669462466121
102000000	-0.998176546624879	0.041768888580711
102250000	-0.998168009676167	4.18247682322209E-02
102500000	-0.998156904004097	4.18136056527254E-02
102750000	-0.998147594627879	4.19458104684341E-02
103000000	-0.998154547278573	4.21572401876265E-02
103250000	-0.998112818824562	4.22042172582735E-02
103500000	-0.998190101270833	4.22821843329827E-02
103750000	-0.99815496336419	4.23853771550825E-02
104000000	-0.998133361152313	4.24749683706176E-02
104250000	-0.998090025508046	4.25858356675061E-02
104500000	-0.998179516652131	4.27479265018301E-02
104750000	-0.998122688427071	4.27881892232552E-02
105000000	-0.99807637640595	0.042855991129587
105250000	-0.998029557339689	4.29226139635006E-02
105500000	-0.998012801221332	0.043219505108326
105750000	-0.998149826184167	0.043253851570306
106000000	-0.998004675802064	4.33512076381681E-02
106250000	-0.998064563625244	4.34063368132949E-02
106500000	-0.998082536018336	4.35613315881791E-02
106750000	-0.99803620236221	4.36889476768476E-02
107000000	-0.998098312712429	4.37009266015468E-02
107250000	-0.998002200524803	4.37894890357539E-02
107500000	-0.998088467381107	4.38999188789544E-02
107750000	-0.998028665486389	4.40071989669983E-02
108000000	-0.998002873078477	4.40065155284634E-02
108250000	-0.998029172188335	4.43227897299336E-02
108500000	-0.997969566768867	4.43781823970175E-02
108750000	-0.997893345749539	4.44486264860708E-02
109000000	-0.998020139411324	4.45268970312837E-02
109250000	-0.998000582341533	4.46331746695545E-02
109500000	-0.998016584155372	4.46695467671285E-02
109750000	-0.997981260310988	4.48454559853477E-02
110000000	-0.998019788861092	4.48710251202029E-02
110250000	-0.997974524048801	4.50544080099236E-02
110500000	-0.998050178753254	4.52315434646816E-02
110750000	-0.997931045842026	4.52169229444675E-02
111000000	-0.998030584874046	4.53777229594423E-02
111250000	-0.998018441801494	4.53905479928993E-02
111500000	-0.997988481575097	4.55151334001346E-02
111750000	-0.997896502745974	4.56977429644392E-02
112000000	-0.997892280052404	4.56732151235532E-02
112250000	-0.997914129027147	4.58282777871945E-02
112500000	-0.997997569639389	4.58499725950108E-02
112750000	-0.997914863471643	4.61266990975965E-02
113000000	-0.997849189658446	0.046205545349129
113250000	-0.997963347700002	0.046278591337867
113500000	-0.997892377301549	4.62896449133523E-02
113750000	-0.997906375098028	4.64884045090957E-02
114000000	-0.997831416608196	4.65951945901405E-02
114250000	-0.99783858678696	4.66818048974847E-02
114500000	-0.997866743645405	0.046698613675711
114750000	-0.997893848631205	4.68661811516955E-02
115000000	-0.997927258337229	4.69311510242702E-02
115250000	-0.997801069276523	4.69604053748902E-02
115500000	-0.997953441971744	4.70679361024409E-02
115750000	-0.997855256056239	4.72193175755356E-02
116000000	-0.997846031423146	4.72988127039795E-02
116250000	-0.997829139200432	4.74688306037931E-02
116500000	-0.997787185619472	4.75785809718906E-02
116750000	-0.99798222442968	4.76232718214317E-02
117000000	-0.997933978714934	4.77290015319767E-02
117250000	-0.997947803327569	0.047759151550734
117500000	-0.997736786189243	4.79837094329343E-02
117750000	-0.997885037929898	4.79657269190755E-02
118000000	-0.997855334014286	4.82084492185896E-02
118250000	-0.997766144839666	4.82910947051937E-02
118500000	-0.997747172407658	0.048364222403303
118750000	-0.997849758016868	4.84362846663461E-02
119000000	-0.997865457050877	4.85602765722708E-02
119250000	-0.997751890709952	4.86318584522473E-02
119500000	-0.997725833988489	4.87966059859133E-02
119750000	-0.997784510547569	4.88140672277186E-02
120000000	-0.997782458720873	4.89019600462121E-02
120250000	-0.99773118099232	4.90163205029712E-02
120500000	-0.997788566402191	4.91292138826235E-02
120750000	-0.997730351593726	4.91968662349357E-02
121000000	-0.997851534324215	4.93183100481707E-02
121250000	-0.997706463174595	4.95152107226467E-02
121500000	-0.997717768804691	0.049546373951538
121750000	-0.997603238949513	4.96651825655987E-02
122000000	-0.997766064556682	4.97341215763277E-02
122250000	-0.997717859829295	4.99910768774391E-02
122500000	-0.997630345076499	4.99920386036917E-02
122750000	-0.997648359675359	5.00362313920407E-02
123000000	-0.997646341815957	5.01216520501558E-02
123250000	-0.997677697102525	5.02673009735412E-02
123500000	-0.997729394425408	5.04712460919801E-02
123750000	-0.997591668066087	5.05650866667712E-02
124000000	-0.997690278465701	5.06166564796985E-02
124250000	-0.997561341150368	5.06919560282472E-02
124500000	-0.997591809189395	0.050675739396117
124750000	-0.997685454990029	5.08916047210698E-02
125000000	-0.997668856964042	5.09630602156192E-02
125250000	-0.997610795429726	5.10680200842577E-02
125500000	-0.997675192165605	5.10638225264343E-02
125750000	-0.997634657505615	5.12795860095277E-02
126000000	-0.997591356297798	5.13754685521925E-02
126250000	-0.997561731937414	5.14672395455541E-02
126500000	-0.997593154525984	5.16146510225581E-02
126750000	-0.99756047065987	0.051640241484211
127000000	-0.997611455194496	5.17696704889193E-02
127250000	-0.997595595002837	5.18401119131342E-02
127500000	-0.997595250648365	5.19782578066985E-02
127750000	-0.997566329474972	5.20459643426745E-02
128000000	-0.997545926058963	5.20325469504386E-02
128250000	-0.997569437362673	5.22817301551307E-02
128500000	-0.997548449541155	5.24243937400335E-02
128750000	-0.997543814190043	5.24500787242562E-02
129000000	-0.997530872879352	0.052545025424744
129250000	-0.99743889123254	5.26583488761865E-02
129500000	-0.997539606295105	5.28666879117286E-02
129750000	-0.997530280228319	5.29381072063762E-02
130000000	-0.997448942916326	5.29448556407942E-02
130250000	-0.997539929067305	5.30117675848866E-02
130500000	-0.997569847510996	5.32373245185938E-02
130750000	-0.997553223217752	5.33410215122737E-02
131000000	-0.997469975966925	5.34441479272528E-02
131250000	-0.997564060214401	5.34577802493541E-02
131500000	-0.997470911395309	0.053623264763261
131750000	-0.997523637847299	5.36375060299293E-02
132000000	-0.997449157504717	5.37685788942604E-02
132250000	-0.997481985306982	5.39405997338075E-02
132500000	-0.997380449881124	5.40892229770086E-02
132750000	-0.997370494196147	5.40554771415863E-02
133000000	-0.997453395885491	5.41566743696377E-02
133250000	-0.997423018516746	5.43443552470224E-02
133500000	-0.997460059657214	5.43813175874626E-02
133750000	-0.997408694473308	5.45316099092917E-02
134000000	-0.997496940028695	5.46375904769343E-02
134250000	-0.997458973128348	5.47395461649193E-02
134500000	-0.997389857800829	0.05484612632059
134750000	-0.99741582939669	5.48871297080787E-02
135000000	-0.99743169458342	5.50327283039594E-02
135250000	-0.997405030218321	5.50757400826185E-02
135500000	-0.997329825948198	5.52385626593492E-02
135750000	-0.997352076789857	5.53335346444753E-02
136000000	-0.997372592039771	5.54234330645821E-02
136250000	-0.997364946558068	0.055557117987116
136500000	-0.997361429097098	0.055596305415552
136750000	-0.997340609959181	0.055718224084593
137000000	-0.997418350975359	0.055795319121942
137250000	-0.997255844802139	5.59572265595753E-02
137500000	-0.997303408977944	5.58522763061763E-02
137750000	-0.997294988108957	0.056154777188565
138000000	-0.997386556307108	5.62502168825672E-02
138250000	-0.997319754023778	5.63002121747527E-02
138500000	-0.997277548051284	5.63098428578855E-02
138750000	-0.997197608830337	5.64939082620903E-02
139000000	-0.997302570173651	5.65405906888065E-02
139250000	-0.997292454788345	5.67185534729287E-02
139500000	-0.997274930084909	0.056848990298901
139750000	-0.997286237615063	5.68046937048383E-02
