!Agilent Technologies,E5072A,MY51200456,A.01.06
!Date: Wed Sep 02 21:06:03 2015
!Data & Calibration Information:
!Freq	S11:SOLT1(ON)
!PortZ  Port1:50+j0
!Above PortZ is port z conversion or system Z0 setting when saving the data.
!When reading, reference impedance value at option line is always used.
# Hz S dB R 50
50000000	-5.757213e+001	-2.107030e+001
50250000	-5.810006e+001	-1.650580e+001
50500000	-5.845876e+001	-1.238330e+001
50750000	-5.974162e+001	-1.748503e+001
51000000	-5.559790e+001	-1.035596e+001
51250000	-5.897684e+001	-2.170908e+001
51500000	-5.908578e+001	3.751294e+000
51750000	-5.650764e+001	-2.175881e+001
52000000	-5.829612e+001	-2.907895e+001
52250000	-5.848736e+001	-1.361230e+001
52500000	-5.612867e+001	-3.055254e+001
52750000	-5.676632e+001	-8.664916e+000
53000000	-5.971682e+001	4.857380e-001
53250000	-5.959089e+001	5.421288e+000
53500000	-5.764182e+001	-1.755789e+001
53750000	-5.739861e+001	-3.016472e+001
54000000	-5.734810e+001	-1.470944e+001
54250000	-5.548343e+001	-1.001194e+001
54500000	-5.815312e+001	-2.364999e+001
54750000	-5.636130e+001	-9.891044e+000
55000000	-5.678551e+001	-2.596027e+001
55250000	-5.770881e+001	-2.028761e+001
55500000	-5.894139e+001	-1.196461e+001
55750000	-6.067415e+001	-1.916771e+001
56000000	-5.512470e+001	-1.824670e+001
56250000	-5.797280e+001	-1.764065e+001
56500000	-5.665432e+001	-1.324874e+001
56750000	-5.883852e+001	-2.760950e+001
57000000	-5.893235e+001	-1.791125e+001
57250000	-5.570577e+001	-3.401999e+001
57500000	-5.654119e+001	-1.063278e+001
57750000	-5.746579e+001	-2.347463e+001
58000000	-5.748312e+001	3.833268e+001
58250000	-5.700358e+001	-3.327825e+001
58500000	-5.969929e+001	4.900912e+000
58750000	-5.883329e+001	-1.229549e+001
59000000	-5.768790e+001	-2.451524e+001
59250000	-5.772093e+001	-1.935901e+001
59500000	-5.818875e+001	-3.187525e+001
59750000	-5.847966e+001	-3.223209e+001
60000000	-5.681160e+001	-3.523643e+001
60250000	-6.028245e+001	-2.547317e+001
60500000	-5.697946e+001	-1.168845e+001
60750000	-5.939532e+001	-2.086476e+001
61000000	-6.030157e+001	-3.672057e+001
61250000	-5.800618e+001	-4.078661e+001
61500000	-5.676679e+001	-2.161569e+001
61750000	-5.887009e+001	-2.617211e+001
62000000	-5.572944e+001	-1.790606e+001
62250000	-5.804649e+001	-2.227038e+001
62500000	-5.722899e+001	-3.220744e+001
62750000	-5.622885e+001	-6.429930e+000
63000000	-5.511926e+001	-1.262627e+001
63250000	-5.630875e+001	-2.411883e+001
63500000	-5.458547e+001	-1.957338e+001
63750000	-5.614877e+001	-2.892745e+001
64000000	-5.379539e+001	-2.834878e+001
64250000	-5.944623e+001	-3.254186e+001
64500000	-5.644858e+001	-3.191014e+001
64750000	-5.767145e+001	-1.477760e+001
65000000	-5.531685e+001	-3.196944e+001
65250000	-5.628698e+001	-2.571422e+001
65500000	-5.695047e+001	-2.795632e+001
65750000	-5.597258e+001	-2.634050e+001
66000000	-5.744685e+001	-2.358846e+001
66250000	-5.727911e+001	-2.442839e+001
66500000	-5.764534e+001	-2.695165e+001
66750000	-5.842306e+001	-2.726906e+001
67000000	-5.564905e+001	-1.901505e+001
67250000	-5.994462e+001	-3.171578e+001
67500000	-5.490264e+001	-2.331071e+001
67750000	-5.670979e+001	-3.646448e+001
68000000	-5.614924e+001	-3.499629e+001
68250000	-5.674373e+001	-3.548901e+001
68500000	-5.576340e+001	-1.858216e+001
68750000	-5.730827e+001	-4.511948e+001
69000000	-5.766525e+001	-6.122928e+001
69250000	-5.760505e+001	-1.724748e+001
69500000	-5.914768e+001	-3.712928e+001
69750000	-5.477560e+001	-3.950346e+001
70000000	-5.574513e+001	-1.903578e+001
70250000	-5.739446e+001	-3.452501e+001
70500000	-5.338133e+001	-6.985784e+000
70750000	-5.663081e+001	-2.436772e+001
71000000	-5.549880e+001	-3.405207e+001
71250000	-5.472857e+001	-1.734689e+001
71500000	-5.855957e+001	-1.739128e+001
71750000	-5.564214e+001	-6.438979e+001
72000000	-5.739136e+001	-1.722691e+001
72250000	-5.729466e+001	-3.841693e+001
72500000	-5.588392e+001	-2.351785e+001
72750000	-5.603382e+001	-2.930000e+001
73000000	-5.522415e+001	-3.141511e+001
73250000	-5.640439e+001	-3.027738e+001
73500000	-5.265833e+001	1.999850e+001
73750000	-5.477748e+001	-4.618757e+001
74000000	-5.606301e+001	-3.765878e+001
74250000	-5.456770e+001	-3.684811e+001
74500000	-5.704744e+001	-3.012226e+001
74750000	-5.757039e+001	-5.323505e+001
75000000	-5.540728e+001	-2.628279e+001
75250000	-5.672662e+001	-2.425938e+001
75500000	-5.497847e+001	-4.124714e+001
75750000	-5.596832e+001	-2.313505e+001
76000000	-5.737389e+001	-2.191715e+001
76250000	-5.975673e+001	-2.183798e+001
76500000	-5.671476e+001	-3.968165e+001
76750000	-5.668465e+001	-3.624944e+001
77000000	-5.544199e+001	-4.057742e+001
77250000	-5.491783e+001	-4.448085e+001
77500000	-5.587048e+001	-4.790234e+001
77750000	-5.469673e+001	-2.620989e+001
78000000	-5.652911e+001	-3.935368e+001
78250000	-5.595265e+001	-4.729143e+001
78500000	-5.545958e+001	-3.932621e+001
78750000	-5.470755e+001	-3.975576e+001
79000000	-5.583508e+001	-3.821804e+001
79250000	-5.665573e+001	-2.804582e+001
79500000	-5.436929e+001	-3.536132e+001
79750000	-5.454775e+001	-4.321530e+001
80000000	-5.669201e+001	-4.210964e+001
80250000	-5.560227e+001	-3.950458e+001
80500000	-5.702961e+001	-3.027681e+001
80750000	-5.697034e+001	-4.278131e+001
81000000	-5.411668e+001	-4.234522e+001
81250000	-5.543884e+001	-4.664685e+001
81500000	-5.487880e+001	-2.912575e+001
81750000	-5.251200e+001	-3.971151e+001
82000000	-5.601214e+001	-4.234259e+001
82250000	-5.596505e+001	-3.173124e+001
82500000	-5.591536e+001	-3.238091e+001
82750000	-5.622844e+001	-2.959537e+001
83000000	-5.675278e+001	-3.341059e+001
83250000	-5.476732e+001	-4.092892e+001
83500000	-5.483583e+001	-4.071706e+001
83750000	-5.486660e+001	-4.685276e+001
84000000	-5.390037e+001	-3.464521e+001
84250000	-5.566279e+001	-4.449189e+001
84500000	-5.488426e+001	-3.690594e+001
84750000	-5.588822e+001	-3.945203e+001
85000000	-5.379531e+001	-4.430089e+001
85250000	-5.541922e+001	-5.742196e+001
85500000	-5.695775e+001	-4.073674e+001
85750000	-5.379468e+001	-3.188272e+001
86000000	-5.481866e+001	-2.793227e+001
86250000	-5.420589e+001	-4.722989e+001
86500000	-5.409211e+001	-2.652612e+001
86750000	-5.478092e+001	-4.152292e+001
87000000	-5.500709e+001	-4.883812e+001
87250000	-5.583271e+001	-4.577827e+001
87500000	-5.557847e+001	-4.867333e+001
87750000	-5.680919e+001	-5.067559e+001
88000000	-5.471019e+001	-5.853568e+001
88250000	-5.556861e+001	-4.385701e+001
88500000	-5.387498e+001	-3.084659e+001
88750000	-5.506263e+001	-4.652890e+001
89000000	-5.543253e+001	-3.915905e+001
89250000	-5.578263e+001	-4.973083e+001
89500000	-5.291415e+001	-3.554413e+001
89750000	-5.398056e+001	-3.600491e+001
90000000	-5.425847e+001	-5.608238e+001
90250000	-5.537137e+001	-4.168333e+001
90500000	-5.333081e+001	-5.063670e+001
90750000	-5.475897e+001	-4.176278e+001
91000000	-5.375571e+001	-3.262860e+001
91250000	-5.410987e+001	-4.101667e+001
91500000	-5.239295e+001	-2.886090e+001
91750000	-5.353803e+001	-4.244444e+001
92000000	-5.513894e+001	-4.465878e+001
92250000	-5.213739e+001	-3.691744e+001
92500000	-5.439041e+001	-3.949430e+001
92750000	-5.315010e+001	-4.354419e+001
93000000	-5.325741e+001	-4.331234e+001
93250000	-5.482963e+001	-3.904224e+001
93500000	-5.599870e+001	-4.549291e+001
93750000	-5.236873e+001	-3.637285e+001
94000000	-5.604315e+001	-5.717598e+001
94250000	-5.418698e+001	-4.992934e+001
94500000	-5.470726e+001	-3.827164e+001
94750000	-5.483559e+001	-3.569696e+001
95000000	-5.366592e+001	-4.192422e+001
95250000	-5.438658e+001	-5.083561e+001
95500000	-5.412364e+001	-3.870771e+001
95750000	-5.353669e+001	-3.521312e+001
96000000	-5.408611e+001	-4.363243e+001
96250000	-5.423467e+001	-4.800927e+001
96500000	-5.355027e+001	-4.855715e+001
96750000	-5.473108e+001	-5.859884e+001
97000000	-5.368792e+001	-5.192208e+001
97250000	-5.342414e+001	-4.249424e+001
97500000	-5.349285e+001	-5.305146e+001
97750000	-5.281711e+001	-5.117458e+001
98000000	-5.408395e+001	-2.820407e+001
98250000	-5.378370e+001	-4.303116e+001
98500000	-5.440913e+001	-5.182004e+001
98750000	-5.315521e+001	-3.948050e+001
99000000	-5.488350e+001	-3.936804e+001
99250000	-5.201214e+001	-4.363953e+001
99500000	-5.580922e+001	-5.578211e+001
99750000	-5.485698e+001	-5.599687e+001
100000000	-5.274482e+001	-2.846337e+001
