!Agilent Technologies,E5072A,MY51200456,A.01.06
!Date: Wed Sep 02 20:55:33 2015
!Data & Calibration Information:
!Freq	S11:SOLT1(ON)
!PortZ  Port1:50+j0
!Above PortZ is port z conversion or system Z0 setting when saving the data.
!When reading, reference impedance value at option line is always used.
# Hz S dB R 50
50000000	-2.513783e-002	-1.661864e+001
50250000	-2.526587e-002	-1.669270e+001
50500000	-2.807513e-002	-1.677660e+001
50750000	-3.097011e-002	-1.688340e+001
51000000	-3.001880e-002	-1.694236e+001
51250000	-3.129955e-002	-1.702582e+001
51500000	-3.047407e-002	-1.709752e+001
51750000	-3.036002e-002	-1.719717e+001
52000000	-2.645934e-002	-1.727976e+001
52250000	-3.182199e-002	-1.735508e+001
52500000	-3.084455e-002	-1.743217e+001
52750000	-2.699235e-002	-1.753179e+001
53000000	-2.514444e-002	-1.761987e+001
53250000	-3.113440e-002	-1.768581e+001
53500000	-3.113588e-002	-1.776386e+001
53750000	-2.617514e-002	-1.787651e+001
54000000	-3.119701e-002	-1.792049e+001
54250000	-2.685612e-002	-1.802812e+001
54500000	-3.004112e-002	-1.812531e+001
54750000	-3.118493e-002	-1.815365e+001
55000000	-3.110966e-002	-1.826716e+001
55250000	-2.653852e-002	-1.835167e+001
55500000	-3.015494e-002	-1.844797e+001
55750000	-2.826138e-002	-1.855785e+001
56000000	-2.635574e-002	-1.858112e+001
56250000	-3.030094e-002	-1.871418e+001
56500000	-2.754618e-002	-1.875680e+001
56750000	-2.532319e-002	-1.887199e+001
57000000	-3.055861e-002	-1.897693e+001
57250000	-2.327651e-002	-1.901512e+001
57500000	-2.603740e-002	-1.910596e+001
57750000	-2.672985e-002	-1.918361e+001
58000000	-4.019984e-002	-1.925999e+001
58250000	-2.558180e-002	-1.938713e+001
58500000	-3.096359e-002	-1.947387e+001
58750000	-2.612219e-002	-1.954927e+001
59000000	-2.411553e-002	-1.960618e+001
59250000	-2.827614e-002	-1.970237e+001
59500000	-2.835636e-002	-1.977629e+001
59750000	-2.920251e-002	-1.987939e+001
60000000	-2.470090e-002	-1.998652e+001
60250000	-3.017536e-002	-2.003477e+001
60500000	-3.244066e-002	-2.011554e+001
60750000	-2.755348e-002	-2.022342e+001
61000000	-1.672578e-002	-2.032552e+001
61250000	-2.684356e-002	-2.038576e+001
61500000	-2.868187e-002	-2.043899e+001
61750000	-2.834764e-002	-2.053473e+001
62000000	-3.025598e-002	-2.059069e+001
62250000	-3.144715e-002	-2.064707e+001
62500000	-2.438393e-002	-2.078783e+001
62750000	-3.069778e-002	-2.085717e+001
63000000	-2.707038e-002	-2.092431e+001
63250000	-3.009226e-002	-2.102197e+001
63500000	-2.839040e-002	-2.108335e+001
63750000	-3.145283e-002	-2.120180e+001
64000000	-2.786688e-002	-2.124716e+001
64250000	-2.959241e-002	-2.137773e+001
64500000	-3.229223e-002	-2.143355e+001
64750000	-3.137884e-002	-2.153837e+001
65000000	-2.704703e-002	-2.161852e+001
65250000	-2.391818e-002	-2.168996e+001
65500000	-2.408646e-002	-2.176256e+001
65750000	-2.723252e-002	-2.186275e+001
66000000	-2.244192e-002	-2.197602e+001
66250000	-2.593197e-002	-2.200645e+001
66500000	-2.682181e-002	-2.208409e+001
66750000	-2.451659e-002	-2.222816e+001
67000000	-2.795882e-002	-2.227225e+001
67250000	-2.403719e-002	-2.234936e+001
67500000	-2.543254e-002	-2.243311e+001
67750000	-2.286686e-002	-2.252063e+001
68000000	-2.474153e-002	-2.259650e+001
68250000	-2.456173e-002	-2.270555e+001
68500000	-2.758732e-002	-2.275664e+001
68750000	-2.216195e-002	-2.287549e+001
69000000	-2.235581e-002	-2.299462e+001
69250000	-2.727063e-002	-2.304301e+001
69500000	-2.778802e-002	-2.312105e+001
69750000	-2.508906e-002	-2.317489e+001
70000000	-2.123630e-002	-2.328125e+001
70250000	-2.280079e-002	-2.335714e+001
70500000	-3.352253e-002	-2.333204e+001
70750000	-2.683345e-002	-2.353195e+001
71000000	-2.348699e-002	-2.361370e+001
71250000	-2.558995e-002	-2.366820e+001
71500000	-2.567700e-002	-2.377583e+001
71750000	-1.809646e-002	-2.387587e+001
72000000	-3.050256e-002	-2.393189e+001
72250000	-2.602958e-002	-2.402682e+001
72500000	-2.194258e-002	-2.412716e+001
72750000	-2.639491e-002	-2.418994e+001
73000000	-2.604965e-002	-2.426796e+001
73250000	-2.652333e-002	-2.436591e+001
73500000	-3.559700e-002	-2.449436e+001
73750000	-1.882080e-002	-2.455158e+001
74000000	-2.232357e-002	-2.463394e+001
74250000	-2.251861e-002	-2.468350e+001
74500000	-2.672762e-002	-2.476042e+001
74750000	-2.517489e-002	-2.490223e+001
75000000	-2.750377e-002	-2.496834e+001
75250000	-2.938835e-002	-2.502947e+001
75500000	-2.315741e-002	-2.510343e+001
75750000	-2.907682e-002	-2.518764e+001
76000000	-3.295764e-002	-2.526522e+001
76250000	-3.364056e-002	-2.534784e+001
76500000	-2.360916e-002	-2.548531e+001
76750000	-2.245254e-002	-2.555415e+001
77000000	-2.565864e-002	-2.562394e+001
77250000	-2.458480e-002	-2.567498e+001
77500000	-2.324454e-002	-2.576175e+001
77750000	-2.788768e-002	-2.585488e+001
78000000	-2.959007e-002	-2.596740e+001
78250000	-2.686057e-002	-2.602948e+001
78500000	-2.160045e-002	-2.614358e+001
78750000	-2.598210e-002	-2.618543e+001
79000000	-2.689623e-002	-2.628424e+001
79250000	-2.501633e-002	-2.638101e+001
79500000	-2.919361e-002	-2.642571e+001
79750000	-2.358381e-002	-2.653455e+001
80000000	-2.292001e-002	-2.660522e+001
80250000	-2.624047e-002	-2.671978e+001
80500000	-3.039472e-002	-2.676760e+001
80750000	-2.871044e-002	-2.686529e+001
81000000	-2.490646e-002	-2.694230e+001
81250000	-3.007347e-002	-2.704359e+001
81500000	-3.133131e-002	-2.710700e+001
81750000	-2.466086e-002	-2.718699e+001
82000000	-2.416339e-002	-2.730609e+001
82250000	-2.973801e-002	-2.737773e+001
82500000	-2.332119e-002	-2.744770e+001
82750000	-2.816407e-002	-2.754447e+001
83000000	-3.455932e-002	-2.759845e+001
83250000	-2.394753e-002	-2.768991e+001
83500000	-2.508774e-002	-2.777297e+001
83750000	-2.428193e-002	-2.787254e+001
84000000	-2.734629e-002	-2.793072e+001
84250000	-2.431374e-002	-2.801688e+001
84500000	-3.046533e-002	-2.812101e+001
84750000	-2.105168e-002	-2.823739e+001
85000000	-1.925202e-002	-2.831347e+001
85250000	-2.289786e-002	-2.841631e+001
85500000	-3.010327e-002	-2.842938e+001
85750000	-2.849384e-002	-2.851205e+001
86000000	-2.383812e-002	-2.863184e+001
86250000	-2.481986e-002	-2.867082e+001
86500000	-3.049426e-002	-2.878118e+001
86750000	-2.675719e-002	-2.885734e+001
87000000	-2.595086e-002	-2.894107e+001
87250000	-2.763997e-002	-2.901856e+001
87500000	-2.721929e-002	-2.911810e+001
87750000	-2.949150e-002	-2.918425e+001
88000000	-2.148397e-002	-2.926668e+001
88250000	-2.679251e-002	-2.936204e+001
88500000	-2.659039e-002	-2.945383e+001
88750000	-2.311401e-002	-2.952818e+001
89000000	-2.681159e-002	-2.962486e+001
89250000	-2.496958e-002	-2.970961e+001
89500000	-2.982847e-002	-2.976623e+001
89750000	-2.804655e-002	-2.988330e+001
90000000	-1.972894e-002	-2.994705e+001
90250000	-2.698685e-002	-3.001556e+001
90500000	-2.876993e-002	-3.011869e+001
90750000	-2.428704e-002	-3.017573e+001
91000000	-3.009601e-002	-3.026615e+001
91250000	-2.666098e-002	-3.035887e+001
91500000	-2.877309e-002	-3.040866e+001
91750000	-3.013429e-002	-3.054404e+001
92000000	-2.699570e-002	-3.061435e+001
92250000	-2.765218e-002	-3.066237e+001
92500000	-2.728119e-002	-3.077744e+001
92750000	-2.437113e-002	-3.084550e+001
93000000	-1.970662e-002	-3.094571e+001
93250000	-2.925489e-002	-3.101034e+001
93500000	-2.559465e-002	-3.113808e+001
93750000	-2.731926e-002	-3.115946e+001
94000000	-2.808288e-002	-3.132227e+001
94250000	-2.516709e-002	-3.136499e+001
94500000	-2.894922e-002	-3.143492e+001
94750000	-3.347620e-002	-3.152192e+001
95000000	-2.318065e-002	-3.161101e+001
95250000	-2.557188e-002	-3.168005e+001
95500000	-3.245126e-002	-3.176452e+001
95750000	-3.005063e-002	-3.183725e+001
96000000	-3.231940e-002	-3.194665e+001
96250000	-2.454234e-002	-3.205313e+001
96500000	-2.799127e-002	-3.210243e+001
96750000	-2.758998e-002	-3.222167e+001
97000000	-2.681118e-002	-3.230361e+001
97250000	-2.639153e-002	-3.236810e+001
97500000	-2.740002e-002	-3.243657e+001
97750000	-1.912597e-002	-3.249163e+001
98000000	-2.689665e-002	-3.260189e+001
98250000	-2.286631e-002	-3.267087e+001
98500000	-3.291087e-002	-3.280392e+001
98750000	-2.939876e-002	-3.283738e+001
99000000	-2.939233e-002	-3.293899e+001
99250000	-2.542880e-002	-3.299108e+001
99500000	-2.613358e-002	-3.313412e+001
99750000	-2.695881e-002	-3.323920e+001
100000000	-2.841550e-002	-3.324991e+001
