!Agilent Technologies,E5072A,MY51200456,A.01.06
!Date: Tue Sep 01 20:19:15 2015
!Data & Calibration Information:
!Freq	S11:SOLT1(ON)
!PortZ  Port1:50+j0
!Above PortZ is port z conversion or system Z0 setting when saving the data.
!When reading, reference impedance value at option line is always used.
# Hz S dB R 50
50000000	-3.329733e+001	7.372876e+001
50250000	-3.334765e+001	7.299302e+001
50500000	-3.333675e+001	7.272040e+001
50750000	-3.343631e+001	7.281722e+001
51000000	-3.337572e+001	7.083738e+001
51250000	-3.355019e+001	7.177799e+001
51500000	-3.340624e+001	7.179147e+001
51750000	-3.366095e+001	6.997595e+001
52000000	-3.377109e+001	7.062946e+001
52250000	-3.370923e+001	7.015034e+001
52500000	-3.393845e+001	6.869857e+001
52750000	-3.371365e+001	6.858323e+001
53000000	-3.376526e+001	6.946148e+001
53250000	-3.375257e+001	6.928678e+001
53500000	-3.398723e+001	6.788636e+001
53750000	-3.414279e+001	6.759083e+001
54000000	-3.406293e+001	6.726499e+001
54250000	-3.404562e+001	6.601468e+001
54500000	-3.423965e+001	6.678858e+001
54750000	-3.410467e+001	6.590867e+001
55000000	-3.431094e+001	6.549610e+001
55250000	-3.436770e+001	6.575457e+001
55500000	-3.436404e+001	6.611697e+001
55750000	-3.447976e+001	6.651122e+001
56000000	-3.444524e+001	6.400392e+001
56250000	-3.453847e+001	6.489363e+001
56500000	-3.449701e+001	6.411324e+001
56750000	-3.476469e+001	6.484037e+001
57000000	-3.471566e+001	6.461674e+001
57250000	-3.491063e+001	6.312182e+001
57500000	-3.473542e+001	6.329878e+001
57750000	-3.493867e+001	6.385211e+001
58000000	-3.442478e+001	6.572162e+001
58250000	-3.519362e+001	6.309924e+001
58500000	-3.487743e+001	6.449381e+001
58750000	-3.508212e+001	6.341998e+001
59000000	-3.521953e+001	6.271399e+001
59250000	-3.517276e+001	6.240755e+001
59500000	-3.538159e+001	6.245743e+001
59750000	-3.539949e+001	6.229035e+001
60000000	-3.550672e+001	6.169211e+001
60250000	-3.544122e+001	6.293961e+001
60500000	-3.534681e+001	6.188565e+001
60750000	-3.552119e+001	6.242310e+001
61000000	-3.556829e+001	6.241235e+001
61250000	-3.579413e+001	6.200175e+001
61500000	-3.564972e+001	6.079232e+001
61750000	-3.570841e+001	6.215027e+001
62000000	-3.561028e+001	5.986783e+001
62250000	-3.573707e+001	6.122121e+001
62500000	-3.594600e+001	6.072326e+001
62750000	-3.563017e+001	6.041012e+001
63000000	-3.571239e+001	5.953563e+001
63250000	-3.592424e+001	5.972293e+001
63500000	-3.588815e+001	5.874042e+001
63750000	-3.612381e+001	5.959428e+001
64000000	-3.612358e+001	5.789230e+001
64250000	-3.618744e+001	6.138740e+001
64500000	-3.628225e+001	5.968476e+001
64750000	-3.609710e+001	6.039761e+001
65000000	-3.640155e+001	5.897082e+001
65250000	-3.635838e+001	5.947126e+001
65500000	-3.635301e+001	6.002922e+001
65750000	-3.634611e+001	5.933423e+001
66000000	-3.635918e+001	5.978699e+001
66250000	-3.645024e+001	5.975931e+001
66500000	-3.650056e+001	6.007691e+001
66750000	-3.658597e+001	6.056807e+001
67000000	-3.638468e+001	5.928059e+001
67250000	-3.663386e+001	6.163497e+001
67500000	-3.658315e+001	5.846902e+001
67750000	-3.683839e+001	5.935171e+001
68000000	-3.682731e+001	5.919433e+001
68250000	-3.687567e+001	5.947308e+001
68500000	-3.659313e+001	5.888270e+001
68750000	-3.706366e+001	5.987060e+001
69000000	-3.740520e+001	6.051320e+001
69250000	-3.678355e+001	6.010784e+001
69500000	-3.706921e+001	6.108426e+001
69750000	-3.715840e+001	5.781711e+001
70000000	-3.678248e+001	5.896782e+001
70250000	-3.707674e+001	6.031513e+001
70500000	-3.655085e+001	5.693455e+001
70750000	-3.699063e+001	5.979200e+001
71000000	-3.721103e+001	5.835915e+001
71250000	-3.691485e+001	5.838377e+001
71500000	-3.715370e+001	6.089260e+001
71750000	-3.780057e+001	5.995163e+001
72000000	-3.705164e+001	6.033923e+001
72250000	-3.739074e+001	5.990629e+001
72500000	-3.716124e+001	5.930505e+001
72750000	-3.733466e+001	5.927056e+001
73000000	-3.737681e+001	5.911542e+001
73250000	-3.734511e+001	5.957562e+001
73500000	-3.632413e+001	5.879599e+001
73750000	-3.766329e+001	5.819599e+001
74000000	-3.758904e+001	5.915185e+001
74250000	-3.760734e+001	5.817730e+001
74500000	-3.753512e+001	6.029849e+001
74750000	-3.786764e+001	6.051270e+001
75000000	-3.751757e+001	5.903366e+001
75250000	-3.748769e+001	5.986949e+001
75500000	-3.785711e+001	5.851176e+001
75750000	-3.745860e+001	5.977822e+001
76000000	-3.754070e+001	6.093790e+001
76250000	-3.750701e+001	6.180096e+001
76500000	-3.784504e+001	6.015244e+001
76750000	-3.773451e+001	6.015383e+001
77000000	-3.793315e+001	5.935209e+001
77250000	-3.800226e+001	5.915900e+001
77500000	-3.800897e+001	5.981985e+001
77750000	-3.770782e+001	5.899899e+001
78000000	-3.794888e+001	6.072277e+001
78250000	-3.809873e+001	6.060899e+001
78500000	-3.794146e+001	5.974295e+001
78750000	-3.803587e+001	5.893436e+001
79000000	-3.796155e+001	6.004654e+001
79250000	-3.779977e+001	6.023845e+001
79500000	-3.803347e+001	5.972256e+001
79750000	-3.820684e+001	5.944850e+001
80000000	-3.808266e+001	6.132172e+001
80250000	-3.806763e+001	6.101829e+001
80500000	-3.793472e+001	6.145417e+001
80750000	-3.815482e+001	6.182592e+001
81000000	-3.829052e+001	5.935012e+001
81250000	-3.835902e+001	6.094466e+001
81500000	-3.802674e+001	6.030249e+001
81750000	-3.836914e+001	5.799562e+001
82000000	-3.827169e+001	6.117343e+001
82250000	-3.807884e+001	6.170281e+001
82500000	-3.814235e+001	6.118791e+001
82750000	-3.811769e+001	6.180708e+001
83000000	-3.804898e+001	6.245627e+001
83250000	-3.842982e+001	6.098065e+001
83500000	-3.838287e+001	6.147672e+001
83750000	-3.847219e+001	6.162018e+001
84000000	-3.824411e+001	6.026421e+001
84250000	-3.847009e+001	6.259298e+001
84500000	-3.826810e+001	6.203191e+001
84750000	-3.828164e+001	6.323103e+001
85000000	-3.853399e+001	6.154713e+001
85250000	-3.876804e+001	6.282636e+001
85500000	-3.834864e+001	6.394700e+001
85750000	-3.826153e+001	6.151970e+001
86000000	-3.806422e+001	6.202052e+001
86250000	-3.860613e+001	6.214442e+001
86500000	-3.813157e+001	6.122916e+001
86750000	-3.843984e+001	6.270774e+001
87000000	-3.863947e+001	6.362280e+001
87250000	-3.854442e+001	6.405869e+001
87500000	-3.853428e+001	6.445641e+001
87750000	-3.853181e+001	6.567458e+001
88000000	-3.888695e+001	6.464617e+001
88250000	-3.850994e+001	6.496577e+001
88500000	-3.833765e+001	6.299036e+001
88750000	-3.861603e+001	6.482773e+001
89000000	-3.846022e+001	6.464122e+001
89250000	-3.851688e+001	6.549289e+001
89500000	-3.837506e+001	6.275355e+001
89750000	-3.835956e+001	6.454116e+001
90000000	-3.879953e+001	6.527870e+001
90250000	-3.843936e+001	6.617254e+001
90500000	-3.877024e+001	6.455724e+001
90750000	-3.850827e+001	6.521821e+001
91000000	-3.824007e+001	6.425696e+001
91250000	-3.838223e+001	6.506700e+001
91500000	-3.815602e+001	6.327029e+001
91750000	-3.849247e+001	6.498826e+001
92000000	-3.846017e+001	6.673124e+001
92250000	-3.834381e+001	6.312127e+001
92500000	-3.831667e+001	6.636420e+001
92750000	-3.845682e+001	6.534221e+001
93000000	-3.841339e+001	6.558973e+001
93250000	-3.827148e+001	6.748029e+001
93500000	-3.832017e+001	6.879782e+001
93750000	-3.827710e+001	6.458299e+001
94000000	-3.853137e+001	7.009337e+001
94250000	-3.846438e+001	6.838593e+001
94500000	-3.810860e+001	6.851597e+001
94750000	-3.809693e+001	6.887102e+001
95000000	-3.825869e+001	6.763800e+001
95250000	-3.837613e+001	6.861420e+001
95500000	-3.813593e+001	6.877680e+001
95750000	-3.806182e+001	6.790329e+001
96000000	-3.822065e+001	6.894444e+001
96250000	-3.831850e+001	6.930249e+001
96500000	-3.824869e+001	6.915575e+001
96750000	-3.837773e+001	7.111354e+001
97000000	-3.825928e+001	6.967765e+001
97250000	-3.806786e+001	6.883703e+001
97500000	-3.827208e+001	6.989552e+001
97750000	-3.832004e+001	6.912507e+001
98000000	-3.766577e+001	6.994992e+001
98250000	-3.799728e+001	7.066777e+001
98500000	-3.807674e+001	7.174085e+001
98750000	-3.789294e+001	6.960354e+001
99000000	-3.774275e+001	7.139669e+001
99250000	-3.798137e+001	6.891446e+001
99500000	-3.790425e+001	7.342134e+001
99750000	-3.791448e+001	7.313076e+001
100000000	-3.746230e+001	7.026292e+001
