!Agilent Technologies,E5072A,MY51200456,A.01.06
!Date: Wed Sep 02 21:00:54 2015
!Data & Calibration Information:
!Freq	S11:SOLT1(ON)
!PortZ  Port1:50+j0
!Above PortZ is port z conversion or system Z0 setting when saving the data.
!When reading, reference impedance value at option line is always used.
# Hz S dB R 50
50000000	-7.967421e-002	1.633347e+002
50250000	-8.393582e-002	1.632832e+002
50500000	-7.882321e-002	1.631779e+002
50750000	-7.869044e-002	1.631233e+002
51000000	-7.988482e-002	1.630231e+002
51250000	-7.977022e-002	1.629407e+002
51500000	-7.752762e-002	1.628547e+002
51750000	-7.877851e-002	1.627744e+002
52000000	-8.196822e-002	1.626817e+002
52250000	-8.142782e-002	1.626343e+002
52500000	-8.879455e-002	1.625130e+002
52750000	-8.218351e-002	1.624342e+002
53000000	-8.667513e-002	1.623742e+002
53250000	-7.744426e-002	1.623140e+002
53500000	-7.877110e-002	1.621872e+002
53750000	-8.293397e-002	1.621183e+002
54000000	-7.912556e-002	1.620397e+002
54250000	-7.919891e-002	1.619282e+002
54500000	-8.436171e-002	1.618481e+002
54750000	-8.029143e-002	1.617393e+002
55000000	-8.393308e-002	1.616833e+002
55250000	-8.371449e-002	1.616167e+002
55500000	-8.105834e-002	1.615424e+002
55750000	-7.939195e-002	1.614724e+002
56000000	-8.704072e-002	1.613525e+002
56250000	-8.557560e-002	1.613089e+002
56500000	-8.979839e-002	1.612075e+002
56750000	-8.469040e-002	1.611389e+002
57000000	-8.448309e-002	1.610718e+002
57250000	-8.393705e-002	1.609572e+002
57500000	-8.509478e-002	1.608616e+002
57750000	-8.505995e-002	1.607898e+002
58000000	-8.695887e-002	1.606893e+002
58250000	-8.615488e-002	1.606583e+002
58500000	-8.499938e-002	1.605624e+002
58750000	-8.565041e-002	1.605103e+002
59000000	-8.146690e-002	1.603475e+002
59250000	-8.517572e-002	1.603062e+002
59500000	-8.912854e-002	1.602374e+002
59750000	-8.632122e-002	1.601167e+002
60000000	-8.841275e-002	1.600566e+002
60250000	-8.525321e-002	1.599499e+002
60500000	-8.679650e-002	1.598823e+002
60750000	-8.420774e-002	1.597894e+002
61000000	-9.970714e-002	1.597933e+002
61250000	-8.568612e-002	1.596405e+002
61500000	-8.518418e-002	1.595589e+002
61750000	-8.635575e-002	1.594954e+002
62000000	-8.680809e-002	1.593853e+002
62250000	-8.483453e-002	1.593211e+002
62500000	-8.433456e-002	1.592449e+002
62750000	-8.710017e-002	1.591425e+002
63000000	-8.528217e-002	1.590333e+002
63250000	-8.885458e-002	1.589928e+002
63500000	-9.223293e-002	1.588896e+002
63750000	-8.510196e-002	1.588296e+002
64000000	-8.824082e-002	1.587082e+002
64250000	-8.899568e-002	1.586801e+002
64500000	-8.704309e-002	1.585720e+002
64750000	-8.642117e-002	1.585083e+002
65000000	-8.446496e-002	1.584007e+002
65250000	-8.730619e-002	1.583340e+002
65500000	-8.752300e-002	1.582450e+002
65750000	-8.688591e-002	1.581571e+002
66000000	-8.790976e-002	1.580678e+002
66250000	-8.966498e-002	1.580028e+002
66500000	-8.610345e-002	1.579344e+002
66750000	-8.593246e-002	1.578608e+002
67000000	-8.460372e-002	1.577621e+002
67250000	-8.938490e-002	1.576861e+002
67500000	-8.571950e-002	1.575720e+002
67750000	-9.082729e-002	1.575294e+002
68000000	-9.050586e-002	1.574118e+002
68250000	-8.418780e-002	1.573526e+002
68500000	-8.948161e-002	1.572573e+002
68750000	-8.819742e-002	1.571963e+002
69000000	-9.109584e-002	1.571104e+002
69250000	-8.703816e-002	1.570260e+002
69500000	-8.955707e-002	1.569714e+002
69750000	-8.878242e-002	1.568513e+002
70000000	-8.813223e-002	1.567670e+002
70250000	-8.655059e-002	1.566960e+002
70500000	-7.670231e-002	1.565677e+002
70750000	-8.681819e-002	1.565158e+002
71000000	-8.625013e-002	1.564346e+002
71250000	-8.718216e-002	1.563215e+002
71500000	-8.562790e-002	1.562666e+002
71750000	-9.626417e-002	1.562222e+002
72000000	-9.027003e-002	1.561064e+002
72250000	-8.870490e-002	1.560497e+002
72500000	-8.864787e-002	1.559580e+002
72750000	-9.030190e-002	1.558572e+002
73000000	-9.279438e-002	1.558041e+002
73250000	-8.884638e-002	1.557332e+002
73500000	-8.825167e-002	1.556134e+002
73750000	-9.394592e-002	1.555224e+002
74000000	-9.051994e-002	1.554627e+002
74250000	-9.331096e-002	1.553539e+002
74500000	-9.073752e-002	1.553113e+002
74750000	-9.099294e-002	1.552302e+002
75000000	-8.988173e-002	1.551609e+002
75250000	-9.066964e-002	1.550382e+002
75500000	-9.687529e-002	1.549433e+002
75750000	-8.802711e-002	1.548699e+002
76000000	-8.637611e-002	1.548223e+002
76250000	-8.669143e-002	1.547332e+002
76500000	-9.242921e-002	1.546589e+002
76750000	-8.971140e-002	1.545657e+002
77000000	-9.877579e-002	1.544960e+002
77250000	-9.506244e-002	1.544125e+002
77500000	-9.717240e-002	1.543299e+002
77750000	-9.402236e-002	1.542119e+002
78000000	-9.272272e-002	1.541580e+002
78250000	-9.554725e-002	1.541014e+002
78500000	-9.482315e-002	1.539957e+002
78750000	-9.418338e-002	1.538891e+002
79000000	-8.974470e-002	1.538682e+002
79250000	-9.267609e-002	1.537456e+002
79500000	-9.264683e-002	1.536473e+002
79750000	-9.428636e-002	1.535628e+002
80000000	-9.704316e-002	1.535212e+002
80250000	-8.959107e-002	1.534306e+002
80500000	-9.034141e-002	1.533286e+002
80750000	-9.103003e-002	1.532639e+002
81000000	-9.442095e-002	1.531537e+002
81250000	-9.698656e-002	1.530651e+002
81500000	-8.811023e-002	1.529666e+002
81750000	-9.386411e-002	1.528675e+002
82000000	-9.382372e-002	1.528674e+002
82250000	-9.631911e-002	1.527577e+002
82500000	-9.058916e-002	1.526802e+002
82750000	-9.584627e-002	1.526035e+002
83000000	-9.186125e-002	1.525260e+002
83250000	-9.871746e-002	1.524435e+002
83500000	-1.005223e-001	1.523114e+002
83750000	-9.860616e-002	1.522910e+002
84000000	-9.710859e-002	1.521679e+002
84250000	-9.416934e-002	1.521025e+002
84500000	-9.602254e-002	1.520139e+002
84750000	-9.369321e-002	1.519405e+002
85000000	-1.022597e-001	1.518549e+002
85250000	-9.482664e-002	1.518001e+002
85500000	-8.811095e-002	1.517078e+002
85750000	-9.234071e-002	1.515915e+002
86000000	-9.263275e-002	1.514940e+002
86250000	-9.977822e-002	1.514483e+002
86500000	-9.605420e-002	1.513188e+002
86750000	-9.794929e-002	1.512761e+002
87000000	-9.561336e-002	1.511707e+002
87250000	-9.819877e-002	1.511458e+002
87500000	-9.413881e-002	1.510486e+002
87750000	-9.630487e-002	1.509582e+002
88000000	-1.006489e-001	1.508931e+002
88250000	-9.906099e-002	1.507979e+002
88500000	-9.689136e-002	1.506885e+002
88750000	-1.009552e-001	1.506041e+002
89000000	-9.599591e-002	1.505457e+002
89250000	-9.678101e-002	1.504577e+002
89500000	-1.003301e-001	1.503504e+002
89750000	-9.668089e-002	1.502942e+002
90000000	-1.018997e-001	1.502336e+002
90250000	-9.570644e-002	1.501415e+002
90500000	-1.007355e-001	1.500528e+002
90750000	-9.431122e-002	1.499836e+002
91000000	-9.666609e-002	1.498651e+002
91250000	-9.842117e-002	1.497991e+002
91500000	-9.573904e-002	1.496668e+002
91750000	-9.901964e-002	1.496221e+002
92000000	-1.015080e-001	1.495640e+002
92250000	-1.011460e-001	1.494580e+002
92500000	-9.859641e-002	1.493739e+002
92750000	-1.004313e-001	1.492784e+002
93000000	-1.005305e-001	1.492221e+002
93250000	-9.993235e-002	1.491392e+002
93500000	-9.687982e-002	1.490892e+002
93750000	-9.893868e-002	1.489127e+002
94000000	-9.850079e-002	1.489188e+002
94250000	-9.803090e-002	1.488239e+002
94500000	-9.788103e-002	1.487441e+002
94750000	-9.544608e-002	1.486612e+002
95000000	-9.944016e-002	1.485682e+002
95250000	-1.021581e-001	1.485171e+002
95500000	-9.678450e-002	1.483873e+002
95750000	-9.600054e-002	1.483117e+002
96000000	-9.490247e-002	1.482348e+002
96250000	-9.667729e-002	1.481511e+002
96500000	-1.021979e-001	1.480663e+002
96750000	-1.023284e-001	1.480077e+002
97000000	-1.016741e-001	1.479387e+002
97250000	-1.035004e-001	1.478353e+002
97500000	-1.049093e-001	1.477348e+002
97750000	-1.042917e-001	1.476746e+002
98000000	-9.848839e-002	1.475750e+002
98250000	-9.865370e-002	1.474920e+002
98500000	-1.006742e-001	1.474314e+002
98750000	-1.047951e-001	1.473434e+002
99000000	-9.940489e-002	1.472307e+002
99250000	-1.035186e-001	1.471222e+002
99500000	-9.745020e-002	1.471262e+002
99750000	-1.065108e-001	1.470475e+002
100000000	-9.269749e-002	1.469021e+002
