# Hz S RI R 50
40000000	-7.96185079520916E-02	-0.23355780579774
40250000	-9.13100428180275E-02	-0.228378729312248
40500000	-0.102706545869032	-0.222598092566115
40750000	-0.113783874766425	-0.216238872967018
41000000	-0.124508839120129	-0.209311284226266
41250000	-0.13484664386313	-0.201842977008491
41500000	-0.14477273036167	-0.193845058815551
41750000	-0.154265398953985	-0.185345152247631
42000000	-0.163291914928639	-0.176369008611281
42250000	-0.171832224024854	-0.166937524765848
42500000	-0.179869254133481	-0.157077122929376
42750000	-0.187368705210968	-0.146820153266644
43000000	-0.19431741927027	-0.13619523453828
43250000	-0.200691741103039	-0.125224783111866
43500000	-0.206485221708227	-0.113945906640246
43750000	-0.211675986244152	-0.102387722505095
44000000	-0.216249874289748	-9.05780418487371E-02
44250000	-0.220197624260678	-7.85620263091599E-02
44500000	-0.223509280435248	-6.63603144150634E-02
44750000	-0.226171910647074	-5.40122135934243E-02
45000000	-0.228184702227247	-4.15504132537319E-02
45250000	-0.229541848034897	-2.90116660614226E-02
45500000	-0.230239885443877	-1.64284245681333E-02
45750000	-0.230277884700849	-3.83430006513215E-03
46000000	-0.229656324444739	8.73302826394644E-03
46250000	-0.228380319592548	2.12404445609803E-02
46500000	-0.226446790507151	3.36559012104828E-02
46750000	-0.223874110758291	4.59414404258227E-02
47000000	-0.220662164048873	5.80704525201868E-02
47250000	-0.216820739139056	7.00030226104431E-02
47500000	-0.212368021537105	8.17141015771536E-02
47750000	-0.20731332387714	9.31571800004026E-02
48000000	-0.201667828049708	0.104317532230461
48250000	-0.195452072233382	0.115161770295441
48500000	-0.188684104658353	0.125656114673264
48750000	-0.181382947025492	0.135772042244766
49000000	-0.173568433182557	0.145491216930118
49250000	-0.165255736661523	0.154781494095647
49500000	-0.156481552013389	0.163622593396084
49750000	-0.147265128832202	0.171984730218449
50000000	-0.137629674468652	0.179848175573672
50250000	-0.127601864349697	0.187195042310304
50500000	-0.117212604358238	0.194009213009101
50750000	-0.106487731189578	0.200266732096498
51000000	-9.54592924759018E-02	0.205948267888231
51250000	-8.41551815961653E-02	0.211055343463123
51500000	-7.26014420721133E-02	0.215561247404853
51750000	-6.08419295613199E-02	0.219461941891821
52000000	-4.89006644899123E-02	0.222736410363473
52250000	-3.68034493628875E-02	0.225395939758076
52500000	-0.02459864988277	0.227412420143512
52750000	-1.23050552711302E-02	0.228797729614472
53000000	4.37711361036754E-05	0.229542810130629
53250000	1.24007763845985E-02	0.229642997598651
53500000	2.47531189234131E-02	0.229115140195409
53750000	3.70545381235085E-02	0.227942510216828
54000000	0.049272000247905	0.226134975558416
54250000	6.13779599820524E-02	0.223693333364805
54500000	7.33468843424681E-02	0.220630669465112
54750000	8.51352873579059E-02	0.216961180177024
55000000	9.67138127172588E-02	0.2126863527039
55250000	0.108062317840806	0.207815699616942
55500000	0.119141561434502	0.202370191858248
55750000	0.12992484949404	0.196366264105902
56000000	0.140386493040245	0.189807934660337
56250000	0.150494245024575	0.182720993042226
56500000	0.160228430616953	0.175127282064847
56750000	0.169554279294556	0.167034084094679
57000000	0.178458247486513	0.158479259836929
57250000	0.18691573797826	0.149470224471715
57500000	0.194894224381254	0.140040530152222
57750000	0.202386493776761	0.130209846123223
58000000	0.209362585084529	0.120012465588248
58250000	0.215809332974711	0.109462431573904
58500000	0.22171448233839	9.85935654084426E-02
58750000	0.227048509329926	0.08743103404828
59000000	0.231809417229409	7.60053404614349E-02
59250000	0.235982366612111	6.43526614408072E-02
59500000	0.239551647810829	5.24930487987088E-02
59750000	0.242512866641206	4.04619512676482E-02
60000000	0.2448594006858	2.82864519261064E-02
60250000	0.246578711049656	1.60078167490439E-02
60500000	0.247675769497603	3.64641956816997E-03
60750000	0.248137882245428	-8.76054447268958E-03
61000000	0.247962179480697	-2.11818990208269E-02
61250000	0.24715805085791	-3.35821440132549E-02
61500000	0.245711850574484	-4.59322158663305E-02
61750000	0.2436478997729	-5.82012653301304E-02
62000000	0.240961410718417	-7.03584726695258E-02
62250000	0.237649034342438	-0.082366490489558
62500000	0.233733468901689	-9.41979693699454E-02
62750000	0.229212909632741	-0.105815430426869
63000000	0.224108092263697	-0.117205347530985
63250000	0.218432532116994	-0.128327093675037
63500000	0.212183354005176	-0.139149060841079
63750000	0.205395759281267	-0.149640059718395
64000000	0.198066844581595	-0.159782408787721
64250000	0.190237996978514	-0.169551148535015
64500000	0.181917882861682	-0.178913054678893
64750000	0.173131221448088	-0.187843827475454
65000000	0.163888560278797	-0.196327365263636
65250000	0.154223037270572	-0.204327877170701
65500000	0.144154878479405	-0.211836075978106
65750000	0.133713554838857	-0.21882340160608
66000000	0.122929698963231	-0.225278674384963
66250000	0.111820026953121	-0.231179144190105
66500000	0.100423777792778	-0.236513640737995
66750000	8.87577198675355E-02	-0.241256969232177
67000000	7.68603737596435E-02	-0.245409401570539
67250000	0.064764549054576	-0.248958797129787
67500000	5.24973732693799E-02	-0.251888446244464
67750000	4.00869087721231E-02	-0.254186380816649
68000000	2.75731963171706E-02	-0.255854855730836
68250000	1.49867108618716E-02	-0.256886670417971
68500000	2.35342503308567E-03	-0.257279163314591
68750000	-1.02797646065183E-02	-0.257029860583329
69000000	-0.022898986240225	-0.256135303719905
69250000	-3.54574088846003E-02	-0.25459524967228
69500000	-4.79246597778717E-02	-0.252430616555015
69750000	-6.02710297671781E-02	-0.249623454219392
70000000	-7.24529986874011E-02	-0.246198418714822
70250000	-0.084460832912166	-0.242153835240276
70500000	-0.096245004969768	-0.237506120310005
70750000	-0.10778022935049	-0.232254326950438
71000000	-0.11903410241289	-0.22642347853262
71250000	-0.129979543632534	-0.220035585205899
71500000	-0.140583987102716	-0.213092246347213
71750000	-0.150823626756986	-0.205615995259059
72000000	-0.160670510330473	-0.197635084603816
72250000	-0.170097863200591	-0.189156560403135
72500000	-0.179078976192769	-0.180206302181608
72750000	-0.187592779009096	-0.170816352245704
73000000	-0.195613766538588	-0.160997755604636
73250000	-0.203129050477222	-0.150788897740979
73500000	-0.210107597030819	-0.140215961486856
73750000	-0.216534787608625	-0.12929861594296
74000000	-0.222398153011896	-0.118072389516451
74250000	-0.227678496129269	-0.106561677838046
74500000	-0.232363578642569	-9.47984050322512E-02
74750000	-0.236439152966155	-8.28183958644888E-02
75000000	-0.239897751412789	-7.06483525487589E-02
75250000	-0.242728318576461	-5.83215330420575E-02
75500000	-0.244922935337506	-0.045874100318959
75750000	-0.246479684279179	-3.33350776872723E-02
76000000	-0.2473910433325	-2.07400433757877E-02
76250000	-0.24765604404295	-8.12070989766151E-03
76500000	-0.247273771436656	4.4840817734626E-03
76750000	-0.246248839386153	0.017050629122491
77000000	-0.244581827785176	2.95416016145046E-02
77250000	-0.24228372632701	4.19184431049906E-02
77500000	-0.239352115686154	5.41556339621581E-02
77750000	-0.235800043040624	0.066217963042891
78000000	-0.231636408292568	7.80715889459364E-02
78250000	-0.226876120102506	8.96917650154125E-02
78500000	-0.221523396944054	0.101040935741044
78750000	-0.215606545563039	0.112087647742381
79000000	-0.209136998873617	0.122809635252124
79250000	-0.202124118498405	0.13318026540831
79500000	-0.194600098311826	0.143166322466511
79750000	-0.186577761736028	0.152741099254428
80000000	-0.178083088136972	0.161881177778188
80250000	-0.169134321334818	0.170567312645225
80500000	-0.15976025976202	0.178774723659525
80750000	-0.149989605914193	0.186484850654332
81000000	-0.139842915330775	0.193667729255395
81250000	-0.12934834510935	0.200317402346083
81500000	-0.118534388352198	0.206406038114407
81750000	-0.107436025532076	0.211929247920661
82000000	-9.60798545999587E-02	0.21686656799506
82250000	-0.08448731206949	0.22120616525915
82500000	-7.27035862158204E-02	0.224936662831968
82750000	-0.06075434282117	0.228057653758472
83000000	-4.86743402036612E-02	0.230548029780281
83250000	-0.036494130539332	0.232412713432126
83500000	-2.42390793891816E-02	0.233641783157002
83750000	-1.19585946710999E-02	0.234237495312596
84000000	3.26296130622875E-04	0.234199030423167
84250000	1.25827391133927E-02	0.2335269451061
84500000	2.47761485129036E-02	0.232223002039
84750000	3.68737153799511E-02	0.230286131897983
85000000	4.88394025017441E-02	0.227731750730261
85250000	0.060653125014521	0.224564450675654
85500000	7.22698602171366E-02	0.220792357538549
85750000	8.36693639593403E-02	0.216429103128612
86000000	9.48109026201926E-02	0.21148271726545
86250000	0.105677978159022	0.20597233795973
86500000	0.116232316124302	0.1999095432202
86750000	0.126451991118611	0.193314516308059
87000000	0.136300341883489	0.186203717952403
87250000	0.145764526825314	0.178592284746759
87500000	0.154814721861936	0.170510727803114
87750000	0.16342260436877	0.161977370431329
88000000	0.171568048739403	0.15301585863294
88250000	0.179237141501103	0.143645173726134
88500000	0.186401164455234	0.133900485747928
88750000	0.193044689509884	0.12379704548663
89000000	0.19915191543525	0.113373191747318
89250000	0.204696560861498	0.102648286150792
89500000	0.209681301662989	9.16612492750818E-02
89750000	0.214086108580771	8.04298858538074E-02
90000000	0.217891157689171	6.89909843607853E-02
90250000	0.221100967410118	5.73692979347925E-02
90500000	0.223692779708786	0.045617963694426
90750000	0.225672432541486	3.37423342798841E-02
91000000	0.227033189383328	2.17842587889681E-02
91250000	0.227765799391851	9.77261727120986E-03
91500000	0.227874538119442	-2.25044625403184E-03
91750000	0.227352896463033	-1.42628407084806E-02
92000000	0.226202671705324	-2.62286549748637E-02
92250000	0.224436131206447	-3.81115757328502E-02
92500000	0.222047664350106	-4.98870401503592E-02
92750000	0.219058464987622	-6.15167633522348E-02
93000000	0.21545777120366	-7.29851662511074E-02
93250000	0.211268378023927	-8.42380666213932E-02
93500000	0.206497015832899	-9.52652611705186E-02
93750000	0.20115041572077	-0.106021269182014
94000000	0.195260954285184	-0.116487117666192
94250000	0.188827397491936	-0.126634787547703
94500000	0.181878331150803	-0.136430117363592
94750000	0.174418378625472	-0.145854099516021
95000000	0.166483451407897	-0.154876224886571
95250000	0.158086961633391	-0.163469316808443
95500000	0.149251501468442	-0.171626303830967
95750000	0.139999776113887	-0.179300747945086
96000000	0.130360377497043	-0.186491422574616
96250000	0.120358021940461	-0.193172324003679
96500000	0.110014286289522	-0.199323897801064
96750000	9.93662438692071E-02	-0.204931191523861
97000000	8.84313249495291E-02	-0.209979502356055
97250000	7.72438943546201E-02	-0.214448356079065
97500000	6.58363755817353E-02	-0.218334887970164
97750000	5.42360803538465E-02	-0.221626125061841
98000000	4.24790438767048E-02	-0.224304224410257
98250000	3.05847691509245E-02	-0.226377188913332
98500000	1.86010312282622E-02	-0.227825642265187
98750000	6.55201456633231E-03	-0.228653419931463
99000000	-5.52861126016313E-03	-0.228850343421367
99250000	-1.76169444870091E-02	-0.228418965140002
99500000	-2.96651615781092E-02	-0.227361825346681
99750000	-4.16530441036384E-02	-0.225684030779915
100000000	-5.35407420077943E-02	-0.223384255661648
100250000	-6.53077490121682E-02	-0.220469642101485
100500000	-7.69087011549851E-02	-0.216947092028782
100750000	-8.83182907051198E-02	-0.212828385458429
101000000	-9.95066371006783E-02	-0.208119605895038
101250000	-0.110446346948532	-0.202840567877307
101500000	-0.121102854843163	-0.196992635961658
101750000	-0.131451142916062	-0.190604319799305
102000000	-0.141458313974052	-0.183686207620655
102250000	-0.151103791608112	-0.176253388432048
102500000	-0.160356302893809	-0.16833273100618
102750000	-0.169195218769251	-0.159938262666568
103000000	-0.177593022437523	-0.151094941640623
103250000	-0.185529787600466	-0.141827585590793
103500000	-0.192985245199802	-0.132156721160422
103750000	-0.199936065051749	-0.122111694306146
104000000	-0.206372588158653	-0.111714467081473
104250000	-0.212266553493898	-0.101000685490079
104500000	-0.217602734291029	-8.99902686934028E-02
104750000	-0.222371021996843	-7.87134101964491E-02
105000000	-0.22655963413475	-0.067200323701953
105250000	-0.230154361639955	-0.055486389569917
105500000	-0.23315120897422	-0.04359449139294
105750000	-0.235531684651702	-3.15603853307464E-02
106000000	-0.237300022211384	-1.94144702524957E-02
106250000	-0.238440531648576	-7.19225807717995E-03
106500000	-0.238959465449564	5.08238400878976E-03
106750000	-0.238850098541994	1.73709500428936E-02
107000000	-0.238122489795893	2.96435283608876E-02
107250000	-0.236760158031869	4.18629986212751E-02
107500000	-0.234780248025396	5.40033848363341E-02
107750000	-0.232184991147879	6.60359797514497E-02
108000000	-0.228989717652399	7.79188357513905E-02
108250000	-0.225186295276241	0.089634087867643
108500000	-0.22079139018138	0.101140531098947
108750000	-0.21582178535073	0.112409486853374
109000000	-0.210276954217079	0.123418736276447
109250000	-0.204192637733973	0.134133649059324
109500000	-0.19756618896609	0.144528066067556
109750000	-0.190417819110093	0.154574454752375
110000000	-0.182777104987923	0.164248831194242
110250000	-0.174650743811435	0.173525141889479
110500000	-0.166066296221413	0.182381774588432
110750000	-0.157045950929983	0.190794252907184
111000000	-0.147607590904717	0.198736036579349
111250000	-0.137785597697804	0.206197613337371
111500000	-0.127599796938614	0.213148269439617
111750000	-0.117074399675025	0.219587310520837
112000000	-0.106238310927389	0.225475287880556
112250000	-9.51223457429971E-02	0.230817208316012
112500000	-8.37536141730526E-02	0.235587561401161
112750000	-7.21581274701843E-02	0.239784552612645
113000000	-6.03637725512759E-02	0.243380018860213
113250000	-4.83857569092916E-02	0.246381455527907
113500000	-3.62937244393977E-02	0.248784159088732
113750000	-2.41083411940601E-02	0.25056700539851
114000000	-1.18433553601121E-02	0.251745615017549
114250000	4.62153688646398E-04	0.252298757273067
114500000	1.27737081326397E-02	0.252230282937813
114750000	2.50640414997225E-02	0.25154224579356
115000000	3.73053160724975E-02	0.250249945082195
115250000	0.049452365968101	0.248329097115284
115500000	6.14867914762128E-02	0.245804634344062
115750000	7.33745573663831E-02	0.242679443687456
116000000	8.50911207070602E-02	0.238959621951909
116250000	9.65921645937292E-02	0.234664890064663
116500000	0.107866180210846	0.229792272010838
116750000	0.118874997070851	0.224360909284744
117000000	0.129584894748351	0.218385008489458
117250000	0.139985372426928	0.211883223277765
117500000	0.150030514789079	0.204861240919985
117750000	0.15970812533379	0.197352287700937
118000000	0.168992586572746	0.189365687740563
118250000	0.177852162054413	0.180928794340235
118500000	0.186273772652758	0.172055260034361
118750000	0.194228501634755	0.162773220379083
119000000	0.201700268998525	0.153112843744738
119250000	0.20868271716684	0.143089030887869
119500000	0.215130385023835	0.132726411606631
119750000	0.221045980443651	0.122060172871963
120000000	0.226411650812963	0.111118483897983
120250000	0.231211671936307	9.99220592531711E-02
120500000	0.235433500520133	8.85056345489024E-02
120750000	0.239069013804186	7.68987621165169E-02
121000000	0.242109967359565	6.51206247218212E-02
121250000	0.244546215103102	5.32221363612788E-02
121500000	0.246373432769364	4.12136082784849E-02
121750000	0.247591333043701	2.91418009740339E-02
122000000	0.248189521285976	1.70322344277993E-02
122250000	0.248163225292339	4.90707700252552E-03
122500000	0.247517437239688	-7.18995475900737E-03
122750000	0.246264319714601	-1.92238502407428E-02
123000000	0.244394829489541	-0.031167681128984
123250000	0.241916942533317	-4.29976992925313E-02
123500000	0.238840533375871	-5.46805798007027E-02
123750000	0.235177316949296	-6.61789425275846E-02
124000000	0.230916560939919	-7.74684979862479E-02
124250000	0.226096525863491	-8.85104327712073E-02
124500000	0.220713816053104	-9.92936202720463E-02
124750000	0.214791341468917	-0.109767981880367
125000000	0.208342029503607	-0.119917545299657
125250000	0.201382910005594	-0.129714625760313
125500000	0.193929137355484	-0.13913016726359
125750000	0.186004077910152	-0.148152030829978
126000000	0.177630132308623	-0.156736474305156
126250000	0.168826990874447	-0.164877948337879
126500000	0.15961818354568	-0.172542395453552
126750000	0.150033350907464	-0.179716484513254
127000000	0.140093978962111	-0.186382818258928
127250000	0.12983113516185	-0.192513489036619
127500000	0.119264605534979	-0.198099285169921
127750000	0.108426612671314	-0.203118682921345
128000000	9.73608868744536E-02	-0.207573457267343
128250000	0.086073153252967	-0.211432751456743
128500000	7.46110386526419E-02	-0.214705923576685
128750000	6.30014972023867E-02	-0.217367706998171
129000000	5.12703003293068E-02	-0.21941889436288
129250000	0.039456643406525	-0.220854213851555
129500000	2.75890425957176E-02	-0.221661582931394
129750000	1.57035985589555E-02	-0.221854455741535
130000000	3.82881952090687E-03	-0.221418764031411
130250000	-8.00043390973611E-03	-0.220361435789893
130500000	-1.97525973817797E-02	-0.21868603964596
130750000	-3.13895916717143E-02	-0.216397690088151
131000000	-4.28909216498982E-02	-0.21349947868883
131250000	-5.42164369450078E-02	-0.210001997964884
131500000	-6.53369276291759E-02	-0.205915431499695
131750000	-7.62221784741564E-02	-0.201254379954047
132000000	-8.68464995340598E-02	-0.196024713102808
132250000	-9.71744224274684E-02	-0.190240249120538
132500000	-0.107176186498379	-0.183923552839394
132750000	-0.116831003824848	-0.177091676827293
133000000	-0.126106244116755	-0.16976715807185
133250000	-0.134979868536395	-0.161963156512031
133500000	-0.143428552194907	-0.153701705860279
133750000	-0.151425777581209	-0.145008828463851
134000000	-0.158953800867405	-0.135909164866178
134250000	-0.16598561707615	-0.126425514016767
134500000	-0.172509057769721	-0.116587674543414
134750000	-0.178501668062303	-0.10642050187393
135000000	-0.183948298378885	-9.59551264321032E-02
135250000	-0.188834413177897	-8.52125294355799E-02
135500000	-0.193147183401686	-7.42342128730845E-02
135750000	-0.196870582102604	-6.30409097317722E-02
136000000	-0.200000466349533	-5.16745493496592E-02
136250000	-0.202532588024784	-4.01515713324616E-02
136500000	-0.204447458905224	-2.85167990373265E-02
136750000	-0.205747163608696	-0.016795053981577
137000000	-0.206429262012354	-5.02358829193853E-03
137250000	-0.206489086556203	6.76581316226815E-03
137500000	-0.205933413351523	1.85423040649315E-02
137750000	-0.204757243675005	3.02787761493387E-02
138000000	-0.202965114114963	4.19319488050946E-02
138250000	-0.200566673471275	5.34816948895473E-02
138500000	-0.197565763661277	6.48865127601669E-02
138750000	-0.193965782603366	7.61193229588296E-02
139000000	-0.189789452028704	8.71499109019375E-02
139250000	-0.18503585988802	9.79509738030838E-02
139500000	-0.17972498864709	0.108492917544529
139750000	-0.173873173443333	0.118742150232479
140000000	-0.167489897780765	0.128677154557867
140250000	-0.160594527880885	0.138263720010443
140500000	-0.15321088213593	0.147475440894697
140750000	-0.145355330661236	0.156304364714125
141000000	-0.137047991155012	0.164706566184325
141250000	-0.128317452951424	0.172678917336223
141500000	-0.119184257198527	0.180177704556049
141750000	-0.109663349114771	0.187203759208348
142000000	-9.97913661826537E-02	0.193727913329705
142250000	-8.95942047463929E-02	0.19973323739534
