# Hz S RI R 50
40000000	8.27692240313523E-03	-1.51435631106956E-02
40250000	8.11831210050025E-03	-1.51690160970268E-02
40500000	7.95934062688556E-03	-1.51949530931106E-02
40750000	0.007800124355639	-1.52161735150596E-02
41000000	7.6389982197219E-03	-1.52367031142597E-02
41250000	7.47842498350083E-03	-1.52538076133987E-02
41500000	7.31871335794846E-03	-1.52711698205204E-02
41750000	7.15706291754391E-03	-1.52859803950134E-02
42000000	6.99840016937957E-03	-1.52969335174144E-02
42250000	6.8353914257439E-03	-1.53088706143172E-02
42500000	6.67368040699847E-03	-1.53161940886067E-02
42750000	6.51256845071624E-03	-1.53241815117503E-02
43000000	6.35227471787565E-03	-1.53295123965094E-02
43250000	6.18938190595857E-03	-1.53319434048771E-02
43500000	6.02912052056096E-03	-1.53343956775042E-02
43750000	5.86591174056931E-03	-1.53325387927596E-02
44000000	5.70419006295498E-03	-1.53312869510498E-02
44250000	5.5419777237612E-03	-1.53262656373368E-02
44500000	5.37874159840539E-03	-1.53204743272879E-02
44750000	5.21562974723524E-03	-1.53097536802735E-02
45000000	5.0536824418198E-03	-1.52997975186802E-02
45250000	4.89138262894395E-03	-1.52876391513168E-02
45500000	4.73032055694375E-03	-1.52744667195439E-02
45750000	4.56881208530615E-03	-1.52574410042388E-02
46000000	4.40626684831406E-03	-1.52407804407848E-02
46250000	4.24702275577617E-03	-1.52198028648279E-02
46500000	4.08524443525729E-03	-1.51986952759882E-02
46750000	3.9240116096953E-03	-1.51749770689091E-02
47000000	3.76300426281959E-03	-1.51484309040528E-02
47250000	3.60283142774769E-03	-1.51205830258074E-02
47500000	3.44071783696463E-03	-1.50910371844256E-02
47750000	3.2810902703927E-03	-1.50597890079936E-02
48000000	3.12200261037645E-03	-1.50261534648839E-02
48250000	2.96213865451959E-03	-1.49917866341072E-02
48500000	2.80200309466068E-03	-0.014955541586405
48750000	2.6443188005106E-03	-1.49160724348188E-02
49000000	2.48527016847626E-03	-1.48745103864799E-02
49250000	2.32875576582811E-03	-1.48315709396902E-02
49500000	2.17024625202044E-03	-1.47863477812615E-02
49750000	2.01460909573995E-03	-0.014739490644802
50000000	1.85783034854214E-03	-1.46905342204916E-02
50250000	1.69974980072074E-03	-1.46407308805761E-02
50500000	1.54643343251225E-03	-1.45890860653236E-02
50750000	1.39068351853092E-03	-1.45353846971276E-02
51000000	1.23890239643323E-03	-1.44802472045982E-02
51250000	1.08431626335476E-03	-1.44228946392462E-02
51500000	9.30651668805745E-04	-1.43623221100397E-02
51750000	7.79118438016817E-04	-1.43004967322288E-02
52000000	6.27348091450749E-04	-1.42370619567896E-02
52250000	4.7583010249846E-04	-1.41730758859429E-02
52500000	3.26904335775484E-04	-0.014107800864291
52750000	1.75802562093766E-04	-1.40377558115498E-02
53000000	2.75683388827438E-05	-1.39669165411572E-02
53250000	-1.19095177178641E-04	-1.38959342875754E-02
53500000	-2.64626057287595E-04	-1.38219023117975E-02
53750000	-4.11067831363028E-04	-1.37451333021595E-02
54000000	-5.56614642008364E-04	-1.36678231485373E-02
54250000	-7.01144829447687E-04	-0.013589390651626
54500000	-8.44569322536927E-04	-1.35078605961385E-02
54750000	-9.8793613089327E-04	-1.34251286199319E-02
55000000	-1.12968544210613E-03	-1.33416404652206E-02
55250000	-1.26939266969919E-03	-1.32548240072839E-02
55500000	-1.40933286755596E-03	-1.31679978861995E-02
55750000	-1.54753547047634E-03	-1.30765539486498E-02
56000000	-1.68648783304559E-03	-1.29861569211875E-02
56250000	-1.82128762022688E-03	-1.28938399956071E-02
56500000	-1.95651167576162E-03	-1.27991381386852E-02
56750000	-2.09130139010795E-03	-0.01270593097508
57000000	-2.22446346804099E-03	-1.26062939380106E-02
57250000	-2.3566667346317E-03	-1.25064952742464E-02
57500000	-2.4876264955169E-03	-1.24051171218798E-02
57750000	-2.61692682903767E-03	-1.23031821118756E-02
58000000	-2.74619552934578E-03	-0.012198823637446
58250000	-2.87406784824743E-03	-1.20939678580844E-02
58500000	-3.00113918476697E-03	-1.19872490018168E-02
58750000	-3.1240322672376E-03	-1.18771189558603E-02
59000000	-3.24812654240705E-03	-1.17682703530614E-02
59250000	-3.37159878582332E-03	-1.16575682307132E-02
59500000	-3.49201591401553E-03	-1.15441220489736E-02
59750000	-3.61137363943993E-03	-1.14278431253291E-02
60000000	-3.72958346730506E-03	-1.13132060828844E-02
60250000	-3.84807965092883E-03	-1.11949992120782E-02
60500000	-3.96280083057081E-03	-1.10737693015094E-02
60750000	-4.07758883833509E-03	-1.09553979957618E-02
61000000	-4.18982235121162E-03	-1.08336695496037E-02
61250000	-4.30174394459054E-03	-1.07106767897712E-02
61500000	-4.4108319861172E-03	-1.05860504181181E-02
61750000	-4.52012464869683E-03	-1.04608896161332E-02
62000000	-4.62498593830575E-03	-1.03337589259814E-02
62250000	-4.7323429578919E-03	-1.02051102834271E-02
62500000	-4.83710396520476E-03	-1.00743416063857E-02
62750000	-4.94035178264577E-03	-9.94371161337213E-03
63000000	-5.04020212398059E-03	-9.81281554165641E-03
63250000	-5.13973013614045E-03	-9.67885016442025E-03
63500000	-5.23738199361945E-03	-9.54466430319956E-03
63750000	-5.33238322808255E-03	-9.40780714704324E-03
64000000	-5.42891432065561E-03	-9.26951404663295E-03
64250000	-5.52180367573758E-03	-9.13199293128821E-03
64500000	-5.6144684785228E-03	-8.99383106329179E-03
64750000	-5.70324249754865E-03	-8.8533802718935E-03
65000000	-5.79075541364055E-03	-8.71142701795511E-03
65250000	-5.87656807902834E-03	-8.56819151154554E-03
65500000	-5.96142972219373E-03	-8.42429478956972E-03
65750000	-6.04408125035449E-03	-8.27876016488286E-03
66000000	-6.12767958441315E-03	-8.13358220015381E-03
66250000	-6.2058664931566E-03	-7.98654284224307E-03
66500000	-6.2844447133941E-03	-7.84061341623831E-03
66750000	-6.36011799807338E-03	-7.68955432290231E-03
67000000	-6.43505764446177E-03	-7.54063677672505E-03
67250000	-6.50806057824781E-03	-7.3897045564305E-03
67500000	-6.57798135128885E-03	-7.23749393744466E-03
67750000	-6.64816090226197E-03	-7.08503767766012E-03
68000000	-6.71394898875561E-03	-6.93278119197219E-03
68250000	-6.78136463231294E-03	-6.77606722625278E-03
68500000	-6.84411942422896E-03	-6.62225386489395E-03
68750000	-6.90615289318841E-03	-6.46760248791514E-03
69000000	-6.96481839597251E-03	-6.30888147234885E-03
69250000	-7.02415971701577E-03	-6.15072133396783E-03
69500000	-7.07946497377833E-03	-5.99454974462115E-03
69750000	-7.13409431785098E-03	-5.83381048260014E-03
70000000	-7.1865513900884E-03	-5.67592617488594E-03
70250000	-7.23706264967385E-03	-5.51590707978298E-03
70500000	-7.28529845261842E-03	-5.35327754969832E-03
70750000	-7.3333042631927E-03	-5.19307842120507E-03
71000000	-7.3787200308417E-03	-5.02924910601781E-03
71250000	-7.41839120855281E-03	-4.86703084452832E-03
71500000	-7.46206926517567E-03	-4.70453031562831E-03
71750000	-7.49989473313287E-03	-4.54010291901233E-03
72000000	-7.53876835627281E-03	-4.37642062946415E-03
72250000	-7.57237419766268E-03	-4.21074959896945E-03
72500000	-7.60635882094555E-03	-4.04624783589823E-03
72750000	-7.6372272905031E-03	-3.88009289489085E-03
73000000	-7.66557884395123E-03	-3.7124499540434E-03
73250000	-7.69224141639327E-03	-3.54628002623954E-03
73500000	-7.7162717408784E-03	-3.37885132632926E-03
73750000	-7.7410925607809E-03	-3.21220744647355E-03
74000000	-7.76450047141283E-03	-3.04492318191994E-03
74250000	-7.78033066693366E-03	-2.87786883545612E-03
74500000	-7.79872970817289E-03	-2.70808502242698E-03
74750000	-7.81430471021128E-03	-2.53964950862801E-03
75000000	-7.82609431062493E-03	-2.3714696648247E-03
75250000	-7.83754167730177E-03	-2.20205812900898E-03
75500000	-7.84787211752233E-03	-2.03218573481041E-03
75750000	-7.85447136212446E-03	-1.86259737578393E-03
76000000	-7.85958228171415E-03	-1.69342402787518E-03
76250000	-7.86225783477143E-03	-1.52519632483586E-03
76500000	-7.86253607122419E-03	-1.35494579939119E-03
76750000	-7.86265927541742E-03	-1.18460786649531E-03
77000000	-7.85804218812784E-03	-1.0134661413444E-03
77250000	-7.85345670869472E-03	-8.42774776324852E-04
77500000	-7.84599462075366E-03	-6.74470548971758E-04
77750000	-7.83744470615087E-03	-5.04356097470303E-04
78000000	-7.82537851680592E-03	-3.35519389357706E-04
78250000	-7.81365039365117E-03	-1.65199878594636E-04
78500000	-7.79658055847847E-03	5.45620840942412E-06
78750000	-7.78041283508599E-03	1.75486339303956E-04
79000000	-7.7594150536423E-03	3.44156916218373E-04
79250000	-7.73828052672538E-03	5.1491577155189E-04
79500000	-7.71421806363292E-03	6.83017388942719E-04
79750000	-7.69015438237599E-03	8.52141472071894E-04
80000000	-7.66246500767117E-03	1.02106502454695E-03
80250000	-7.63197518278753E-03	1.19027931593985E-03
80500000	-7.60078321045337E-03	1.35903269356692E-03
80750000	-7.56737868539744E-03	1.5264095276161E-03
81000000	-7.53179494047601E-03	1.69368722914458E-03
81250000	-7.49361490449076E-03	1.86007493312029E-03
81500000	-7.45396029510369E-03	2.02763935270953E-03
81750000	-7.41280575540282E-03	2.19466780686938E-03
82000000	-7.37005416062313E-03	2.3612815258593E-03
82250000	-7.32233681855968E-03	2.5256705550003E-03
82500000	-7.27467436416069E-03	2.68968866787508E-03
82750000	-7.2253318986863E-03	2.85538593758631E-03
83000000	-7.17207599428859E-03	3.01849382779373E-03
83250000	-7.11800678259029E-03	3.18191393985458E-03
83500000	-7.06345520830552E-03	3.34400794385506E-03
83750000	-7.00412278370597E-03	3.50842401950874E-03
84000000	-6.94436084679689E-03	3.66975665462418E-03
84250000	-6.88262319229084E-03	3.8302380266024E-03
84500000	-6.81947745039445E-03	3.99231581059573E-03
84750000	-6.75409666812396E-03	4.15148951187833E-03
85000000	-6.68452578796635E-03	4.31070824159915E-03
85250000	-6.61781719600985E-03	4.46786041723794E-03
85500000	-6.54538940151667E-03	4.62734236470367E-03
85750000	-6.47150081126435E-03	4.78298383408674E-03
86000000	-6.39616427300069E-03	4.94055097000133E-03
86250000	-6.31940805624115E-03	5.0940885770333E-03
86500000	-6.24199880559028E-03	5.25008030834939E-03
86750000	-6.16042145736827E-03	5.40241595279799E-03
87000000	-6.07668402176757E-03	5.5569118300185E-03
87250000	-5.99154016624003E-03	5.70832549681545E-03
87500000	-5.90365107228387E-03	5.85912584962463E-03
87750000	-5.81538881493465E-03	6.00868940208012E-03
88000000	-5.7256059204751E-03	6.15702878673995E-03
88250000	-5.63270823694692E-03	6.30463113994232E-03
88500000	-5.53937237059998E-03	6.45350627314853E-03
88750000	-5.44261233311066E-03	6.59802594827725E-03
89000000	-5.34642313219042E-03	6.74286385831294E-03
89250000	-5.24566099547329E-03	6.8858164792971E-03
89500000	-5.14550912664989E-03	7.02874690661398E-03
89750000	-5.04079490711628E-03	7.17019186820234E-03
90000000	-4.9374313858045E-03	7.30991543055124E-03
90250000	-4.83163561655258E-03	7.44859521646874E-03
90500000	-4.72374817839537E-03	7.58813925663558E-03
90750000	-4.61395851656185E-03	7.72463427160373E-03
91000000	-4.50230457723919E-03	7.86107609387169E-03
91250000	-4.3891489086193E-03	7.9935770859748E-03
91500000	-4.27458339573202E-03	8.12713721833351E-03
91750000	-4.15719862480053E-03	8.2602271491322E-03
92000000	-4.04028766058829E-03	8.38795977865734E-03
92250000	-3.91805424619448E-03	8.51717452592621E-03
92500000	-3.79871043592015E-03	8.64661590243415E-03
92750000	-3.67478827116046E-03	8.77401123714936E-03
93000000	-3.55093312467358E-03	8.89780681364142E-03
93250000	-3.42448635264392E-03	9.0222586702838E-03
93500000	-3.29530405685306E-03	9.14530951015081E-03
93750000	-3.16703076176754E-03	9.26645485732874E-03
94000000	-3.03682896882574E-03	9.38514455281656E-03
94250000	-2.90388459888791E-03	9.50335985520091E-03
94500000	-2.77063042466782E-03	9.62050586216432E-03
94750000	-2.63457570897669E-03	9.73302969478602E-03
95000000	-2.49813615154426E-03	9.8467298095651E-03
95250000	-2.35959116462875E-03	9.96028138650903E-03
95500000	-2.22008102208435E-03	1.00694025788369E-02
95750000	-2.08017689208085E-03	1.01773571298247E-02
96000000	-1.93734093789601E-03	1.02853894817528E-02
96250000	-1.79319004124253E-03	1.03918264434944E-02
96500000	-1.65055543672233E-03	1.04953331238248E-02
96750000	-1.50296796617436E-03	1.05973483149235E-02
97000000	-1.35403332050404E-03	0.010698071612499
97250000	-1.20641035561306E-03	1.07969561082122E-02
97500000	-1.05652843511436E-03	1.08939798365489E-02
97750000	-9.05423896559105E-04	1.09909472042509E-02
98000000	-7.5216743008294E-04	1.10842223372957E-02
98250000	-5.97106710524764E-04	1.11766539843593E-02
98500000	-4.42630930442824E-04	1.12665426902223E-02
98750000	-2.84701051247659E-04	1.13540886854733E-02
99000000	-1.27987067120149E-04	1.14412431208114E-02
99250000	3.00176407463469E-05	1.15261312906496E-02
99500000	1.90060420600901E-04	0.011610569245544
99750000	3.51887911574818E-04	0.011691863791838
100000000	5.13124678454456E-04	1.17721836066393E-02
100250000	6.7577480918396E-04	1.18482476613959E-02
100500000	8.39804629371211E-04	1.19255919359788E-02
100750000	1.00483399517963E-03	1.19989469983669E-02
101000000	1.16966707807087E-03	1.20719833925041E-02
101250000	1.33757219427413E-03	1.21415805394596E-02
101500000	1.50492419453216E-03	0.01220956205743
101750000	1.67460945555769E-03	1.22758854190662E-02
102000000	1.84274547836899E-03	1.23408418001772E-02
102250000	2.01513198313155E-03	1.24021017243486E-02
102500000	2.18688528030739E-03	1.24634408129087E-02
102750000	2.35813524413557E-03	1.25222972073999E-02
103000000	2.53243676013508E-03	1.25802471478397E-02
103250000	2.70703824473588E-03	1.26338804220392E-02
103500000	2.88036647523393E-03	1.26874791989549E-02
103750000	3.05720306432625E-03	1.27373130903882E-02
104000000	3.23245578663376E-03	1.27861888394455E-02
104250000	3.40842391629144E-03	1.28333309069167E-02
104500000	3.58630361832767E-03	1.28787166369093E-02
104750000	3.7653577212624E-03	1.29206043110408E-02
105000000	3.94501855062637E-03	1.29616763856717E-02
105250000	4.12275907514997E-03	1.30006052607636E-02
105500000	4.30293331680765E-03	1.30347064530476E-02
105750000	4.48412011436089E-03	1.30702058929306E-02
106000000	4.6655203245005E-03	1.31029778285731E-02
106250000	4.84690108592486E-03	1.31337697900339E-02
106500000	5.02927018532309E-03	1.31606790805078E-02
106750000	5.21288227091614E-03	1.31877457355167E-02
107000000	5.39650089290426E-03	1.32116694852193E-02
107250000	5.58010545302077E-03	1.32328045757082E-02
107500000	5.76479458425207E-03	1.32521638807125E-02
107750000	5.94858994421063E-03	1.32714237533345E-02
108000000	6.13291589495675E-03	1.32867595993302E-02
108250000	6.31833629361328E-03	1.33005688393399E-02
108500000	6.50251022520002E-03	1.33117745983523E-02
108750000	6.68794542669506E-03	1.33216396523356E-02
109000000	6.87436065322582E-03	1.33281626020834E-02
109250000	7.05992692050224E-03	1.33306812195452E-02
109500000	7.24649247428257E-03	1.33358833906156E-02
109750000	7.43433388171838E-03	1.33368132874406E-02
110000000	7.61981789586199E-03	1.33330046601205E-02
110250000	7.80684706908781E-03	1.33312300100851E-02
110500000	7.99554540204582E-03	1.33249225704226E-02
110750000	8.17990046153705E-03	1.33172213752594E-02
111000000	8.37005166770563E-03	1.33076146974285E-02
111250000	8.55645839183491E-03	1.32951092415839E-02
111500000	8.74392424594988E-03	1.32802154269112E-02
111750000	8.93225401813177E-03	1.32623691318022E-02
112000000	9.11760560938437E-03	1.32433233036801E-02
112250000	9.30425916581862E-03	1.32226605608448E-02
112500000	9.49197321339936E-03	1.32006424450044E-02
112750000	9.67833806005195E-03	1.31761184597244E-02
113000000	9.86707285653612E-03	1.31465434275082E-02
113250000	1.00524516516505E-02	1.31172405475171E-02
113500000	1.02386668319242E-02	1.30857507129336E-02
113750000	1.04249721183073E-02	1.30507865438361E-02
114000000	1.06121548247409E-02	1.30154558149437E-02
114250000	1.07960707954507E-02	1.29768973278581E-02
114500000	1.09822785750776E-02	0.012935860663199
114750000	1.11679919066186E-02	1.28931692020807E-02
115000000	1.13531361096262E-02	1.28489246778505E-02
115250000	1.15372722143077E-02	1.28015125484623E-02
115500000	1.17209419125291E-02	1.27528484063317E-02
115750000	1.19061415783712E-02	1.27014033277787E-02
116000000	1.20872893002746E-02	1.26484177285168E-02
116250000	1.22703930431922E-02	1.25928353867895E-02
116500000	1.24523458093697E-02	1.25354654380733E-02
116750000	1.26348196121756E-02	1.24756746996292E-02
117000000	1.28164060119573E-02	1.24138673930312E-02
117250000	1.29972755302442E-02	1.23505076592662E-02
117500000	1.31773776347537E-02	1.22833642028707E-02
117750000	1.33565135412743E-02	1.22151541500371E-02
118000000	1.35377962818504E-02	1.21446556768216E-02
118250000	1.37150045871339E-02	0.012072772710002
118500000	1.38932095409149E-02	1.19985631487732E-02
118750000	1.40671235716703E-02	1.19232922077046E-02
119000000	1.42465538626668E-02	1.18425518126563E-02
119250000	1.44231310312384E-02	1.17636466486474E-02
119500000	1.45948481774514E-02	1.16798077618879E-02
119750000	1.47701834338901E-02	1.15942560559419E-02
120000000	1.49421741794632E-02	1.15100347788293E-02
120250000	1.51164791742667E-02	1.14196329906819E-02
120500000	1.52854519124691E-02	1.13282415366588E-02
120750000	1.54564091148486E-02	0.011236300481734
121000000	1.56272850372736E-02	1.11415687018884E-02
121250000	1.57958313837794E-02	1.10444558566251E-02
121500000	1.59640852273683E-02	1.09466815026307E-02
121750000	1.61325919421391E-02	1.08459407919032E-02
122000000	1.62989446330082E-02	1.07439742169463E-02
122250000	1.64618359411003E-02	1.06383240573294E-02
122500000	1.66264766926073E-02	0.010532163830359
122750000	1.67894356563463E-02	1.04224623400974E-02
123000000	1.69511132205738E-02	0.010312140699145
123250000	1.71107083405172E-02	1.02017819057193E-02
123500000	1.72699440781695E-02	1.00852641609997E-02
123750000	1.74299644265321E-02	9.97011840030771E-03
124000000	1.75849242705983E-02	9.8515980665663E-03
124250000	1.77438204355862E-02	9.73043171754556E-03
124500000	1.78961139492534E-02	9.60948570236252E-03
124750000	1.80505249054915E-02	9.48506443688089E-03
125000000	1.82027460478495E-02	9.35994285596829E-03
125250000	1.83529680268766E-02	9.23407863840396E-03
125500000	1.85022774478287E-02	9.10607947876577E-03
125750000	1.86492280139763E-02	8.97476125986408E-03
126000000	1.87984608473805E-02	8.84208894745251E-03
126250000	1.89425540150779E-02	8.70641286833353E-03
126500000	1.90881512544356E-02	8.57158876384065E-03
126750000	1.92320578575992E-02	8.43272587772447E-03
127000000	1.93711851241452E-02	8.29309053145442E-03
127250000	1.95118575621648E-02	8.15253893581104E-03
127500000	1.96499660784157E-02	8.01136301925723E-03
127750000	1.97883600212072E-02	7.86618964450185E-03
128000000	1.99233200359306E-02	7.72057165412622E-03
128250000	0.020058591561126	7.5706168764094E-03
128500000	2.01891952197313E-02	7.42199985450454E-03
128750000	2.03197824470155E-02	7.27301984878647E-03
129000000	2.04499705516676E-02	7.12003513251581E-03
129250000	2.05792169447853E-02	6.96768477731181E-03
129500000	2.07038830740245E-02	6.81162852796745E-03
129750000	2.08292558470667E-02	6.65339600836347E-03
130000000	0.020953462981134	6.49617343687398E-03
130250000	2.10750764916209E-02	6.33663378357529E-03
130500000	2.11936118669897E-02	6.17381651158043E-03
130750000	2.13100156732425E-02	6.01068515700644E-03
131000000	2.14273973164376E-02	5.84640137691849E-03
131250000	2.15428196307781E-02	5.67988100344167E-03
131500000	2.16540314394798E-02	5.51474091952129E-03
131750000	2.17667524289816E-02	5.34522631187461E-03
132000000	0.02187516507142	5.17530777383938E-03
132250000	2.19840266917901E-02	5.00356676118695E-03
132500000	2.20881145641957E-02	4.83221624683285E-03
132750000	2.21931689443764E-02	4.65748550365618E-03
133000000	2.22968601748708E-02	4.48120522785372E-03
133250000	2.23947121725677E-02	4.30566399611527E-03
133500000	2.24936551634564E-02	4.12741803995736E-03
133750000	2.25897011451179E-02	3.95125817566913E-03
134000000	2.26848785130152E-02	3.76890168269973E-03
