# Hz S RI R 50
40000000	-0.226274308009461	-0.967137236728402
40250000	-0.237239068313058	-0.964399506975287
40500000	-0.24814588126835	-0.961542597620056
40750000	-0.259008121004887	-0.958557941554593
41000000	-0.269865838329854	-0.955428535920561
41250000	-0.280662484989947	-0.952204698865409
41500000	-0.291423224249321	-0.94883116510789
41750000	-0.302152971154277	-0.945372993888862
42000000	-0.312843351235122	-0.941763343083732
42250000	-0.323474179855681	-0.938045678898189
42500000	-0.334103202734751	-0.934192499709652
42750000	-0.344647417967786	-0.930227394178114
43000000	-0.355146050395836	-0.926154100519914
43250000	-0.365620958209815	-0.921937538240551
43500000	-0.376038795676346	-0.917613486737845
43750000	-0.386400560576193	-0.913185209901944
44000000	-0.396718704967129	-0.908595995908444
44250000	-0.406962519772499	-0.903927042404569
44500000	-0.417180265557587	-0.899139987553467
44750000	-0.42731578475946	-0.894222456339741
45000000	-0.437412823608545	-0.889191661709734
45250000	-0.447432584862196	-0.88404913928083
45500000	-0.457415340279797	-0.878806353094763
45750000	-0.467327869353346	-0.873430348266152
46000000	-0.477174698972878	-0.867944825894126
46250000	-0.486965358438893	-0.862359145021369
46500000	-0.496685774321384	-0.856635175290305
46750000	-0.506333061101201	-0.850823662053986
47000000	-0.515906556944482	-0.84488084035181
47250000	-0.525432270881183	-0.838847138555346
47500000	-0.534889639410058	-0.832708236804436
47750000	-0.544262301837123	-0.826453329028531
48000000	-0.553556146449219	-0.820096217545914
48250000	-0.562779361016388	-0.813643066017099
48500000	-0.571930997440492	-0.807059253625578
48750000	-0.581003058911525	-0.800395656387081
49000000	-0.590002826982941	-0.793606101587939
49250000	-0.598911546847441	-0.786740272225794
49500000	-0.60776525486611	-0.779772905301207
49750000	-0.616514758203882	-0.77267534461359
50000000	-0.625191103489917	-0.765496134064327
50250000	-0.633791291769337	-0.75821910355023
50500000	-0.642292914586436	-0.750856136904663
50750000	-0.65072143120069	-0.743383945138192
51000000	-0.659063252326566	-0.735818474786191
51250000	-0.66729742313777	-0.728155664719292
51500000	-0.675468175187873	-0.720382800388469
51750000	-0.683536657822095	-0.712563289450161
52000000	-0.691498468701366	-0.704619706413578
52250000	-0.69939763721082	-0.696588403912312
52500000	-0.707175124707353	-0.688478218525937
52750000	-0.714879495714912	-0.680259746634868
53000000	-0.722479007546924	-0.67198145519056
53250000	-0.729986832782698	-0.663592971852493
53500000	-0.737399495531281	-0.655150985431784
53750000	-0.744721093842398	-0.646609893637644
54000000	-0.751934020877645	-0.637978483828286
54250000	-0.759039593464074	-0.629261158825446
54500000	-0.766050740686724	-0.620469677455955
54750000	-0.772955741788334	-0.611601761189431
55000000	-0.779772385584125	-0.602675323304836
55250000	-0.786464112934163	-0.59364535531041
55500000	-0.793069238009078	-0.584569492719216
55750000	-0.799545572422007	-0.575395934990042
56000000	-0.805945849353012	-0.566157534031482
56250000	-0.81223786134856	-0.556825085041931
56500000	-0.818401983079698	-0.547461219231173
56750000	-0.824475054622163	-0.538007588603265
57000000	-0.830414782810671	-0.528472034146468
57250000	-0.836259776941581	-0.518897842055845
57500000	-0.841992684908318	-0.509257255467871
57750000	-0.847594623295662	-0.499541045837711
58000000	-0.853117386197763	-0.489762199384721
58250000	-0.858529616341445	-0.47992229549232
58500000	-0.863817835358045	-0.470034702804207
58750000	-0.868971225342191	-0.460061413717223
59000000	-0.874032510777657	-0.450064758389197
59250000	-0.878979400179246	-0.439999639061322
59500000	-0.883782783578759	-0.429865564581586
59750000	-0.88848798700191	-0.419689318366373
60000000	-0.89309299721597	-0.409460736371958
60250000	-0.897528276729151	-0.399190309954572
60500000	-0.901909849238495	-0.388862286081208
60750000	-0.906147561656813	-0.378488922825388
61000000	-0.910257790832977	-0.368066611903222
61250000	-0.914254211057557	-0.357604199281059
61500000	-0.91812543077861	-0.34710249282156
61750000	-0.921880818771338	-0.33653507485927
62000000	-0.925515423052088	-0.325971377692984
62250000	-0.929022798506072	-0.315319219561526
62500000	-0.932408232315083	-0.304659357417819
62750000	-0.935647836846992	-0.293972390019894
63000000	-0.93880493581091	-0.283221844616242
63250000	-0.941829832602006	-0.272466367992698
63500000	-0.944718993286523	-0.261643865498864
63750000	-0.947481850870881	-0.250832094890705
64000000	-0.950132664159346	-0.239963045682647
64250000	-0.952650427481505	-0.229071897526924
64500000	-0.955041399253206	-0.218156127423222
64750000	-0.95731462559696	-0.207217329660658
65000000	-0.959477743798591	-0.196267355943196
65250000	-0.961488313492447	-0.18526283823364
65500000	-0.963374555185795	-0.174268583681957
65750000	-0.965144426314184	-0.163240873465269
66000000	-0.966794296840066	-0.152200472759561
66250000	-0.968304062002208	-0.14115730777945
66500000	-0.969696641119901	-0.130072749212726
66750000	-0.97095722854591	-0.119000785929173
67000000	-0.972097727481422	-0.107889545013035
67250000	-0.973101692787926	-9.67840398220358E-02
67500000	-0.973986788655725	-8.56746235599083E-02
67750000	-0.974737393500919	-7.45465604880833E-02
68000000	-0.975357634639784	-6.34210028361036E-02
68250000	-0.97586746813116	-5.22993783401939E-02
68500000	-0.976231078669244	-4.11606615745359E-02
68750000	-0.976493143506726	-3.00185718488989E-02
69000000	-0.976617384721083	-1.88889774307322E-02
69250000	-0.976589627808492	-7.74932679994019E-03
69500000	-0.976467789002972	3.37336163416918E-03
69750000	-0.976200750300962	1.45028456090643E-02
70000000	-0.975814497523634	2.56215737933367E-02
70250000	-0.975316600463286	3.67289013538669E-02
70500000	-0.974673576753594	4.78406069510897E-02
70750000	-0.973910750077322	5.89467340092836E-02
71000000	-0.973007259367489	7.00284872563652E-02
71250000	-0.972000679858624	8.10759021941378E-02
71500000	-0.970854133165368	9.21228298435379E-02
71750000	-0.969586412871669	0.103166786040093
72000000	-0.968204701474107	0.114190175356484
72250000	-0.966685737896314	0.125187497931496
72500000	-0.965028868898038	0.136156548684425
72750000	-0.963271103227198	0.147122866365915
73000000	-0.961360066880279	0.158060143139066
73250000	-0.959367628762011	0.168969736642889
73500000	-0.957217272505914	0.179849281632
73750000	-0.954962438936	0.190692967069561
74000000	-0.952586410283879	0.201518400904858
74250000	-0.950059433513904	0.212312489989741
74500000	-0.947436578796837	0.223101446571595
74750000	-0.944691416592526	0.233812951343017
75000000	-0.941830089153293	0.244531993984949
75250000	-0.938827735550077	0.255186424071147
75500000	-0.935720793294686	0.265794081540657
75750000	-0.932490482235993	0.276384603290144
76000000	-0.929149386920635	0.286932606468146
76250000	-0.925650818125848	0.297460748653584
76500000	-0.92208504848034	0.30789665280713
76750000	-0.918376646115061	0.318323801948602
77000000	-0.914551530073672	0.32869827120228
77250000	-0.910629847676269	0.339005437754847
77500000	-0.906570487238701	0.349287744156174
77750000	-0.902391168652556	0.359531022623275
78000000	-0.8981141789489	0.369682352083355
78250000	-0.89372101161506	0.379844906283602
78500000	-0.889222661058555	0.389908891462075
78750000	-0.8845811638348	0.399921372258251
79000000	-0.879851214784929	0.409882131590781
79250000	-0.875014815163666	0.419802907919471
79500000	-0.870047497514228	0.429649425578714
79750000	-0.864977776712519	0.43944946581025
80000000	-0.859794054106395	0.449187123749705
80250000	-0.854521393634886	0.458831253137942
80500000	-0.849131433342254	0.468446972733648
80750000	-0.843652764746253	0.47798178618844
81000000	-0.838006745316505	0.487459583840839
81250000	-0.832323721834388	0.496860147384323
81500000	-0.826503221318824	0.506204546970499
81750000	-0.820596375747788	0.515470585260408
82000000	-0.81456224921964	0.524666967527682
82250000	-0.808443128767039	0.533819551410787
82500000	-0.802228466034942	0.542878696107372
82750000	-0.795917066588155	0.551856481693903
83000000	-0.789496569793382	0.56078346684617
83250000	-0.782954065175371	0.569624113097277
83500000	-0.776332015127635	0.578373407603176
83750000	-0.769596262796677	0.5870464465402
84000000	-0.76279626881355	0.595677430909
84250000	-0.755887695397021	0.604178559926486
84500000	-0.748901094705999	0.612621322999033
84750000	-0.741800291795159	0.621004916609928
85000000	-0.734636395031503	0.629262074846736
85250000	-0.727333528984364	0.637478185440839
85500000	-0.71996931428265	0.645567699060204
85750000	-0.712523163005959	0.653614931264084
86000000	-0.7049678994595	0.661520348354432
86250000	-0.697339110400399	0.669377944187866
86500000	-0.689641272567923	0.677167207218445
86750000	-0.681807647225892	0.684820896140322
87000000	-0.673931916615657	0.6924008595717
87250000	-0.665978476671571	0.699890609236202
87500000	-0.657919025545995	0.70731855649794
87750000	-0.649782373103642	0.714603367889314
88000000	-0.641568519893954	0.721802784921182
88250000	-0.633305093467525	0.728938372961011
88500000	-0.624931702183663	0.73596384901326
88750000	-0.616481855395579	0.742895804448659
89000000	-0.607970477870412	0.749723273305407
89250000	-0.599381256265137	0.756446985588969
89500000	-0.590735654599329	0.763088476927632
89750000	-0.581991329890435	0.769614385920897
90000000	-0.573167122023756	0.776037389374089
90250000	-0.564294905583969	0.782383323147306
90500000	-0.55536851392077	0.788623135842976
90750000	-0.546355087577752	0.794733509562174
91000000	-0.537257075660128	0.800778026238154
91250000	-0.528125521086784	0.806699946737
91500000	-0.518923006065998	0.812483904876416
91750000	-0.509651538214802	0.818193737594066
92000000	-0.500316703259994	0.823815662860193
92250000	-0.490938368360418	0.829315588732249
92500000	-0.481491847773006	0.834708162783694
92750000	-0.472015372590837	0.839953825364161
93000000	-0.462426791526813	0.84518182101034
93250000	-0.452821534802608	0.85022671590698
93500000	-0.443158479125786	0.855187310948323
93750000	-0.433423774857419	0.860025290936848
94000000	-0.423662853936781	0.864770074009092
94250000	-0.413874237294849	0.869398998887287
94500000	-0.403984604236057	0.873907642458317
94750000	-0.394067159912277	0.878315817582492
95000000	-0.384082108747328	0.882582291870315
95250000	-0.374065704907896	0.88678649156083
95500000	-0.364040338392054	0.890830382750292
95750000	-0.35393380038988	0.89477910907864
96000000	-0.343808962138258	0.898623380536604
96250000	-0.333653626238494	0.902348126517871
96500000	-0.323450334740227	0.905957376999642
96750000	-0.313193409468875	0.909445953831347
97000000	-0.302895628660312	0.912807578110638
97250000	-0.292564049883807	0.916057678142837
97500000	-0.282211177932392	0.919224914763072
97750000	-0.271834672324936	0.922244483007102
98000000	-0.261429083935944	0.925154573239054
98250000	-0.250974315404296	0.927942814751573
98500000	-0.240502602255303	0.930618736036563
98750000	-0.230010235455008	0.933174103621079
99000000	-0.219487570612688	0.935626044182869
99250000	-0.208936276234484	0.937919966513006
99500000	-0.198388237600365	0.940130656162916
99750000	-0.187776110426115	0.942240536411216
100000000	-0.177181283326732	0.944186160511905
100250000	-0.166558616867936	0.946048354876181
100500000	-0.155896137261009	0.947763161722812
100750000	-0.145222834119612	0.949388005038021
101000000	-0.134543644222552	0.950850591112739
101250000	-0.123877626056443	0.952241952208682
101500000	-0.113172748284578	0.953487696470257
101750000	-0.102450430611612	0.954627553560247
102000000	-9.17176301707588E-02	0.955637426463374
102250000	-8.09862044289821E-02	0.956523615593622
102500000	-7.02746021131061E-02	0.9572853607478
102750000	-0.05952247060637	0.957946724162416
103000000	-4.87698120122013E-02	0.958486082481067
103250000	-3.80532866051153E-02	0.958891889883576
103500000	-2.72917034242251E-02	0.959179535107308
103750000	-1.65335177125105E-02	0.95932773809421
104000000	-5.76939236723988E-03	0.959393702609089
104250000	4.97077602758854E-03	0.959350651372694
104500000	1.56946106934083E-02	0.95915457326435
104750000	2.64240652267436E-02	0.958846304386719
105000000	3.71924495112346E-02	0.958396310039251
105250000	4.78944566640457E-02	0.957862473594939
105500000	5.86253719304866E-02	0.957214750840804
105750000	6.93034256570737E-02	0.956433630789923
106000000	7.99978959921126E-02	0.955541046739705
106250000	9.06667556910592E-02	0.954523237563327
106500000	0.10133465647467	0.953376983248109
106750000	0.11197259115898	0.952138363285159
107000000	0.12261617820516	0.950751537877534
107250000	0.133239869662304	0.949252840762007
107500000	0.143822612855247	0.947653987170227
107750000	0.15440948452203	0.945916008962432
108000000	0.164934673679974	0.944089458586434
108250000	0.175473655774594	0.942113717000727
108500000	0.185979993344777	0.940057843288016
108750000	0.196447243353655	0.937871743301616
109000000	0.206916689170586	0.935544076018967
109250000	0.217340054100282	0.93316123788069
109500000	0.227719495028918	0.930621641802162
109750000	0.238063344137456	0.927966194532915
110000000	0.24841894015014	0.925207125379393
110250000	0.258709154721145	0.922326202598949
110500000	0.268959933764982	0.919329023526991
110750000	0.279207722879073	0.916222376350192
111000000	0.289375356384872	0.913008522564379
111250000	0.299531605976208	0.909688357669979
111500000	0.30963701746646	0.906235534477086
111750000	0.319724513251138	0.90269001258467
112000000	0.329730825009907	0.899018742402338
112250000	0.339712973651492	0.895250933442254
112500000	0.349661358915379	0.891388140007333
112750000	0.359574085099838	0.887391180744016
113000000	0.369409470623504	0.883293089187591
113250000	0.379207209286055	0.879085803536533
113500000	0.388957218391479	0.874765116528281
113750000	0.39865740987435	0.87035554557653
114000000	0.40831571880779	0.865828108827275
114250000	0.417905133124652	0.861198168559458
114500000	0.42745232366751	0.856477015605501
114750000	0.436943949542676	0.851612939913044
115000000	0.446403002079519	0.846687027453648
115250000	0.455753123169875	0.841627356752597
115500000	0.465071505488387	0.836486681768365
115750000	0.474342918089505	0.83121319637273
116000000	0.483541288298324	0.825883001029471
116250000	0.492652875686242	0.820422072170859
116500000	0.50176042053925	0.814879131290518
116750000	0.510776208907714	0.809206091213337
117000000	0.519704421593128	0.80346723737646
117250000	0.528592124640719	0.797616441955195
117500000	0.537415829076319	0.79167285258539
117750000	0.546168580238394	0.785639433754673
118000000	0.55485209807103	0.779487733654527
118250000	0.563458018129014	0.773265297789809
118500000	0.571994416513555	0.766944117055111
118750000	0.580453064674179	0.760518963412547
119000000	0.588855933614612	0.754025829452861
119250000	0.59718939000915	0.747423859999653
119500000	0.605416057273721	0.740730592794644
119750000	0.613598638441456	0.73393590383575
120000000	0.621690151413255	0.7270834196507
120250000	0.62970917421973	0.720120780157405
120500000	0.637650834678212	0.713075893413619
120750000	0.645507991846685	0.705935524773484
121000000	0.653282279388176	0.698744583013383
121250000	0.660980362705317	0.691426259751731
121500000	0.668592812878489	0.684044481262771
121750000	0.67614273088108	0.676572132522141
122000000	0.683596492209378	0.669024198646101
122250000	0.690946420525261	0.661399913909972
122500000	0.698231571018237	0.653687804943719
122750000	0.705429336197579	0.645901995842825
123000000	0.712519290021883	0.638047180432019
123250000	0.719553429592765	0.630078652847931
123500000	0.726476784764339	0.622092183697331
123750000	0.733327228872205	0.61398993188711
124000000	0.740088786408892	0.605810443173569
124250000	0.74672722428061	0.597567721545983
124500000	0.753305564147029	0.589257160217424
124750000	0.759787765377887	0.580887392453836
125000000	0.766152267298926	0.572444552056397
125250000	0.772427359455863	0.563910631799348
125500000	0.778632367729985	0.555330111477307
125750000	0.784726706469685	0.546675702130151
126000000	0.790726198685502	0.537956904345021
126250000	0.796625084048343	0.529170540240925
126500000	0.802434102598281	0.520315881498026
126750000	0.808114892373165	0.511396000733314
127000000	0.813753855092034	0.502413938269417
127250000	0.819245947297377	0.493395184010614
127500000	0.824666878561046	0.484295318649766
127750000	0.829953520964919	0.475129611773951
128000000	0.835170425778216	0.465941516712231
128250000	0.840282879790328	0.456685940124913
128500000	0.845270496877742	0.447359577662068
128750000	0.850155251518134	0.437984930021981
129000000	0.854957392943599	0.428571717413811
129250000	0.859652997431909	0.419096725414043
129500000	0.864238231270178	0.409539060653005
129750000	0.868692100565002	0.399974414026807
130000000	0.873059221716416	0.390347813584843
130250000	0.877348196816627	0.380678576883586
130500000	0.881496851832756	0.370954478377856
130750000	0.885549863368014	0.361219399106462
131000000	0.889499778003327	0.351386663621266
131250000	0.893314178166021	0.341563079061992
131500000	0.897049676627533	0.331682207626305
131750000	0.900680985488329	0.321752016764263
132000000	0.904182463189245	0.311789930468393
132250000	0.9075715708572	0.301761998328127
132500000	0.910855066470394	0.291750911100053
132750000	0.914027251854112	0.281651042145924
133000000	0.917097016607481	0.271561848697515
133250000	0.920056565104429	0.261419841319838
133500000	0.922891856659858	0.251240743055855
133750000	0.925613738797084	0.24105861983585
134000000	0.928233961611518	0.230809056778739
134250000	0.930740849970083	0.220544077922327
134500000	0.933120158276403	0.210267872609161
134750000	0.93540072811723	0.199954877969
135000000	0.937565479414408	0.189641822366845
135250000	0.939633494266332	0.179279215951376
135500000	0.941539298282706	0.168901299267511
135750000	0.943361728592823	0.15849125704579
136000000	0.94507551196197	0.148094165269229
136250000	0.946661106926725	0.137640072950166
136500000	0.948147487650805	0.127188907108089
136750000	0.949512950342865	0.11669887910033
137000000	0.950751717939628	0.106231949767896
137250000	0.951887573555202	9.57426247568067E-02
137500000	0.952877224695455	8.52536307326311E-02
137750000	0.953775703209802	0.074746546235095
138000000	0.954589675118724	0.06421465873114
138250000	0.95523698388564	5.36768856669038E-02
138500000	0.955803834960977	4.31306311493792E-02
138750000	0.956232797155604	3.25676696078616E-02
139000000	0.956556123322945	2.20482857648016E-02
139250000	0.956758487478893	1.15004441421135E-02
139500000	0.956830465514405	9.31987621723062E-04
139750000	0.956812773068759	-9.60047220341735E-03
140000000	0.956667778425843	-2.01766575239282E-02
140250000	0.956390650754195	-3.07205597457417E-02
140500000	0.956027663785011	-4.12552441057184E-02
140750000	0.955535168260928	-5.18140637582169E-02
141000000	0.954925597902713	-6.23585694348277E-02
141250000	0.954191759842984	-7.28730961761344E-02
141500000	0.953367879937768	-0.083383022702064
141750000	0.952413013011029	-9.39155125786794E-02
142000000	0.951301881842644	-0.104409682422194
142250000	0.95014748808078	-0.114891627572991
142500000	0.948826985839558	-0.125378666505812
142750000	0.94739843711222	-0.135823695451579
143000000	0.945874008109333	-0.14625970977275
143250000	0.944209892636691	-0.156717346733545
143500000	0.942458161498185	-0.16708946040183
143750000	0.94056397392784	-0.177459862898643
144000000	0.938593745374843	-0.187838554357235
144250000	0.93646343370552	-0.198198959222735
144500000	0.934263034293605	-0.208503729800892
144750000	0.931934557096882	-0.218801684974285
145000000	0.929482430139906	-0.22904020462966
