# Hz S RI R 50
40000000	0.23910512732703	0.933982935138968
40250000	0.249488396487741	0.931208330913412
40500000	0.259826662963674	0.92832009720383
40750000	0.270154637593029	0.925339003118171
41000000	0.280421918515341	0.922220425946799
41250000	0.290668453656642	0.919035954578359
41500000	0.300880599754558	0.915678620494416
41750000	0.311028614815114	0.912230206016981
42000000	0.321161296518448	0.908681532653346
42250000	0.331250672072418	0.905014823442591
42500000	0.341310531006825	0.901260103016423
42750000	0.351314368916849	0.897376232927612
43000000	0.361278518553283	0.893366174487654
43250000	0.371154643914564	0.889263493235751
43500000	0.381030086748592	0.885058149275371
43750000	0.390826034688292	0.880728563147405
44000000	0.400589901717545	0.876299947221979
44250000	0.410296547662648	0.871770389957312
44500000	0.419971873266521	0.867134700654786
44750000	0.429568482227024	0.862400646769635
45000000	0.439120169140728	0.857539700895465
45250000	0.44860761432161	0.852578053238379
45500000	0.458052117910985	0.847508384803887
45750000	0.467417594982857	0.84236948604466
46000000	0.476741012294275	0.837089799230299
46250000	0.486025619381685	0.831748832893284
46500000	0.495210222220151	0.826268536901284
46750000	0.504359004395776	0.820707190516364
47000000	0.513430491355686	0.815039647890899
47250000	0.52244014828242	0.809261709357885
47500000	0.531404679784027	0.803424178807031
47750000	0.540271251407015	0.797441531179294
48000000	0.549071767870085	0.791396615012284
48250000	0.557809337351307	0.785218276630786
48500000	0.566506074902862	0.778995558250774
48750000	0.575106196584467	0.772640991932195
49000000	0.583633001202	0.766205848573282
49250000	0.592093012724439	0.759655381468388
49500000	0.600478513513696	0.753052428294258
49750000	0.608807872636136	0.746339439870668
50000000	0.617041250878141	0.739542129376031
50250000	0.625197406339214	0.732632936511061
50500000	0.633281319380777	0.72565427460142
50750000	0.641293139878189	0.718582368663639
51000000	0.64921341333607	0.711425808500645
51250000	0.657063378643938	0.704176795545201
51500000	0.664823956389431	0.696843599007822
51750000	0.67251784347979	0.689445802392267
52000000	0.680099870781911	0.681928125078674
52250000	0.687644976955589	0.674369771487377
52500000	0.695057345987957	0.666712613453241
52750000	0.702406535668268	0.658948449575729
53000000	0.709683503530935	0.651121996027353
53250000	0.716836914345642	0.643245279648851
53500000	0.723926421413464	0.635234760799075
53750000	0.730949072690417	0.627203351833996
54000000	0.737846180148403	0.619075801268604
54250000	0.744649144072625	0.610855712512162
54500000	0.751380508961544	0.602583970451274
54750000	0.758012542970376	0.594224982225603
55000000	0.764562802280407	0.585806980455747
55250000	0.770998121129891	0.577292599652018
55500000	0.777374837399465	0.568725463324244
55750000	0.783625592985924	0.560087580507545
56000000	0.789782775236972	0.551373351121968
56250000	0.795845670890997	0.542608829731381
56500000	0.801815956446113	0.533778396885812
56750000	0.807677157534159	0.524872642894068
57000000	0.813458717916795	0.515907086055977
57250000	0.819127322682217	0.506888381489225
57500000	0.824686761176969	0.497785458375069
57750000	0.830173323806115	0.488627616271184
58000000	0.835538565818801	0.479417772710396
58250000	0.840810941746718	0.470173697026071
58500000	0.845986621371809	0.460832794303294
58750000	0.851038824611265	0.451440849866887
59000000	0.855984235831096	0.442002545139201
59250000	0.860829582688699	0.432519879796563
59500000	0.865598900554771	0.42298651072532
59750000	0.870230365304324	0.413400982275165
60000000	0.874779183772153	0.403736970257954
60250000	0.879198952023107	0.394038045743187
60500000	0.883526140383426	0.384299082752576
60750000	0.887743078554699	0.374510705773798
61000000	0.891852832611269	0.364678685417848
61250000	0.895849596750176	0.354780945150375
61500000	0.899749973495242	0.344868952435602
61750000	0.903528723936279	0.33490632477282
62000000	0.90719401183215	0.324891802302022
62250000	0.910758144889848	0.314857916348677
62500000	0.914203266582482	0.304764690721924
62750000	0.917531419941995	0.294628026443616
63000000	0.920759384355392	0.28447367632816
63250000	0.923888612186742	0.274271934336247
63500000	0.9268780941142	0.264074540993944
63750000	0.929775187369614	0.253795835066145
64000000	0.932544501349447	0.243515855010093
64250000	0.935188739788317	0.233166755903561
64500000	0.937739234471639	0.222837889971941
64750000	0.940176218893202	0.212449343665372
65000000	0.942488313781544	0.202052078334337
65250000	0.944701275493099	0.191610933263261
65500000	0.946783708300265	0.181168455412904
65750000	0.948748883693467	0.170697953968574
66000000	0.950618873824232	0.160190894443003
66250000	0.952345165782819	0.149671169790945
66500000	0.953971277438916	0.139139006021657
66750000	0.955464896528612	0.128569904388066
67000000	0.956861764992964	0.118003957151419
67250000	0.958141905292501	0.107416639423547
67500000	0.959302981805897	9.68158557738916E-02
67750000	0.960333122929237	8.61944779381486E-02
68000000	0.961261488748276	7.55743530550341E-02
68250000	0.962060486056613	6.49391102413405E-02
68500000	0.962748738536964	5.42948493682843E-02
68750000	0.96330971378965	4.36395360758197E-02
69000000	0.96377364501798	3.29785727991007E-02
69250000	0.9641073261726	2.23287254403915E-02
69500000	0.964329548540386	1.16647533707311E-02
69750000	0.964420164281955	9.90207588474681E-04
70000000	0.964410035173104	-9.66625708983398E-03
70250000	0.964267848785719	-2.03400546148613E-02
70500000	0.964012686684933	-3.09942875118876E-02
70750000	0.963650640651436	-4.16678008754893E-02
71000000	0.96316382234053	-5.23357495602867E-02
71250000	0.962555133397979	-6.29866040724413E-02
71500000	0.961821125534329	-7.36384148536853E-02
71750000	0.960983805674093	-0.084270226320324
72000000	0.960011709828404	-9.48934463049697E-02
72250000	0.958931219892107	-0.105518565157916
72500000	0.957716941956999	-0.116113153733024
72750000	0.956425683349219	-0.126722412835217
73000000	0.954979625621692	-0.137303089075195
73250000	0.953446439971469	-0.147865100637151
73500000	0.951798867793011	-0.15841487226392
73750000	0.949972355053941	-0.168933080317717
74000000	0.948086217141423	-0.179446938166211
74250000	0.946082208035542	-0.189948270323853
74500000	0.943941693481338	-0.200393791538028
74750000	0.941702925703951	-0.210841468520872
75000000	0.939318852307767	-0.221265747372402
75250000	0.93685615169991	-0.231654539833009
75500000	0.934254831425866	-0.242022074825081
75750000	0.931548889138111	-0.252368047495617
76000000	0.928724817439082	-0.262661935017744
76250000	0.925770168286894	-0.272955971342909
76500000	0.922717667181043	-0.283182530688497
76750000	0.919555422046503	-0.293389204673641
77000000	0.916264111177041	-0.303572005568184
77250000	0.912880266288706	-0.31369493056849
77500000	0.909391256804358	-0.323805749871587
77750000	0.905760818781783	-0.333872602961056
78000000	0.902017139039119	-0.343893478335289
78250000	0.898186309523611	-0.353878576435893
78500000	0.894218692862687	-0.363820387500102
78750000	0.890172624882677	-0.373704237050905
79000000	0.885997085848123	-0.383564618025934
79250000	0.881703491077839	-0.393376698215292
79500000	0.877311097649859	-0.403110230422481
79750000	0.872825617088168	-0.412828067503833
80000000	0.868205837365068	-0.422507509048154
80250000	0.863505232472829	-0.432098468712197
80500000	0.858662793091663	-0.441669129416255
80750000	0.853739829111653	-0.451154150451862
81000000	0.848695679986469	-0.460611013691017
81250000	0.843565928609624	-0.470007290754641
81500000	0.838330624283301	-0.479325173575913
81750000	0.832986749202196	-0.48862333440853
82000000	0.827514203635162	-0.497851010496161
82250000	0.821947362924499	-0.507001614492861
82500000	0.81629468975198	-0.51611729977512
82750000	0.810534105821266	-0.52513104693923
83000000	0.804666783620984	-0.534120279607516
83250000	0.798726867295997	-0.543025222180874
83500000	0.792652466575998	-0.551868616136617
83750000	0.786472764122288	-0.560637800903368
84000000	0.780228720602969	-0.569332684012449
84250000	0.773871970101173	-0.577977578399608
84500000	0.767424014405172	-0.586550415622935
84750000	0.760860860607576	-0.595025188007968
85000000	0.754234399721618	-0.603454135174265
85250000	0.747512232637332	-0.61182933516145
85500000	0.740678017167427	-0.620079639993035
85750000	0.733740846200477	-0.628279134076726
86000000	0.726728317617807	-0.636424956290995
86250000	0.719627996162088	-0.644467009352126
86500000	0.712416103858865	-0.652429063223563
86750000	0.705129730365188	-0.660306148721656
87000000	0.697782300793651	-0.668092598578619
87250000	0.690299076495264	-0.675835621877538
87500000	0.682746420648937	-0.683473462535265
87750000	0.675119296397591	-0.691032970423595
88000000	0.667403191821428	-0.698481410117076
88250000	0.659593784117001	-0.705898052243724
88500000	0.651728748837278	-0.713186113621029
88750000	0.643734251681466	-0.720393055464462
89000000	0.635696791893988	-0.727532163523444
89250000	0.627543762281699	-0.734550999383359
89500000	0.619362256594282	-0.741489954806604
89750000	0.61106351672057	-0.748345935841526
90000000	0.602681717678257	-0.755115697461289
90250000	0.594232670000771	-0.761781547756432
90500000	0.585736405418399	-0.768332924393514
90750000	0.577158609996702	-0.7748126077459
91000000	0.568481263403016	-0.781200450788104
91250000	0.559759063524273	-0.787497961770252
91500000	0.550949929929759	-0.793697538766203
91750000	0.542082770830391	-0.799770685206255
92000000	0.533120841538325	-0.805773931619836
92250000	0.524142909709374	-0.811646234686129
92500000	0.515032463217166	-0.817432482604762
92750000	0.50587536774379	-0.823134263907459
93000000	0.496664786586395	-0.828750496635303
93250000	0.487386532137222	-0.834209794645124
93500000	0.478091002065253	-0.839600224447241
93750000	0.468667494277479	-0.844878793710748
94000000	0.459232544185318	-0.850024457850505
94250000	0.449714854877806	-0.855106562381702
94500000	0.440152241702965	-0.860050866400863
94750000	0.430513941122913	-0.864923501401523
95000000	0.420827178846158	-0.869655672627993
95250000	0.411087934778035	-0.874313060495407
95500000	0.401289398830679	-0.878835391276763
95750000	0.391459581914567	-0.883252596911798
96000000	0.381586112528772	-0.887550071233156
96250000	0.371636402609301	-0.891736938999452
96500000	0.36164450329068	-0.89583460746578
96750000	0.351622887604008	-0.899814166163644
97000000	0.341540029995696	-0.90367709196061
97250000	0.331405742232205	-0.907431700803536
97500000	0.321253400279346	-0.911061320234374
97750000	0.311033220612962	-0.914579362306669
98000000	0.30079298580354	-0.917987389058221
98250000	0.290498537161176	-0.921282899896416
98500000	0.280170218531103	-0.924461768967054
98750000	0.269809973847886	-0.927513811518528
99000000	0.259405542963712	-0.930454951385774
99250000	0.248970303436572	-0.933316120641123
99500000	0.238517662457535	-0.936010354755431
99750000	0.228028954115674	-0.938578502752574
100000000	0.217507365559775	-0.941060725848617
100250000	0.206950159169679	-0.943421197236158
100500000	0.196369436097279	-0.945643645429126
100750000	0.185771920803197	-0.947751103771385
101000000	0.175135603572638	-0.949769873646172
101250000	0.16448655746097	-0.951649286167888
101500000	0.153795676473443	-0.953413000161148
101750000	0.143121773568519	-0.955046969104718
102000000	0.132384149899409	-0.956555038739012
102250000	0.121667469608828	-0.957955608450055
102500000	0.110918674875554	-0.959251608717568
102750000	0.100150072539639	-0.960400789998511
103000000	8.93657575179847E-02	-0.961430879655554
103250000	7.85986097688071E-02	-0.962354180972131
103500000	6.77946448633985E-02	-0.963118335462082
103750000	0.056989556365457	-0.963791608197702
104000000	4.61703649245536E-02	-0.964355068455412
104250000	3.53455215490039E-02	-0.964755241320464
104500000	2.45264110206334E-02	-0.965089802508179
104750000	1.36946060448142E-02	-0.965251562248074
105000000	2.85037176753377E-03	-0.965312508713677
105250000	-7.97651318007069E-03	-0.965241670809504
105500000	-1.88493664019619E-02	-0.965070524191688
105750000	-2.96583560724197E-02	-0.964732306006966
106000000	-4.04939785196997E-02	-0.964338754394223
106250000	-5.13001773089765E-02	-0.963757069268802
106500000	-0.062122272568328	-0.963094870591339
106750000	-7.29554951722471E-02	-0.962277646758463
107000000	-8.37536603440552E-02	-0.961380538568104
107250000	-9.45500533777036E-02	-0.960334123637983
107500000	-0.105355535391664	-0.959143456789146
107750000	-0.116111205754644	-0.957859728696196
108000000	-0.126854422180623	-0.956490346675369
108250000	-0.137604610520726	-0.954934657607704
108500000	-0.148327954584728	-0.953270547338998
108750000	-0.159043065103894	-0.951518039124792
109000000	-0.169713582303565	-0.949596196040802
109250000	-0.180391369710411	-0.947591085673586
109500000	-0.191044957242682	-0.945470336689381
109750000	-0.201653406748711	-0.943206618851617
110000000	-0.212239607304308	-0.940824639185497
110250000	-0.222794192228865	-0.9383154641608
110500000	-0.233357257967554	-0.935726018296182
110750000	-0.2438568571728	-0.932955868441192
111000000	-0.254330873327157	-0.930120276941394
111250000	-0.264794518442696	-0.927136492967406
111500000	-0.275196615039972	-0.924034871124698
111750000	-0.285599644153409	-0.920821451282956
112000000	-0.29591848546338	-0.917489218346763
112250000	-0.306232999128763	-0.914054285660949
112500000	-0.316491428165109	-0.910491496123463
112750000	-0.326711744317035	-0.906779875318641
113000000	-0.336902296461238	-0.903009785754156
113250000	-0.347036001035869	-0.899077830975256
113500000	-0.357140771755087	-0.895077692209864
113750000	-0.36718145452979	-0.890918545077105
114000000	-0.377191940811878	-0.886680022389542
114250000	-0.387148980409572	-0.882310020339214
114500000	-0.397051156410583	-0.877811469630216
114750000	-0.40690345053568	-0.873232429203727
115000000	-0.416702283993988	-0.868518241113902
115250000	-0.426474984188183	-0.863697710540484
115500000	-0.436160584118759	-0.858765242250095
115750000	-0.44578405229907	-0.853740855265234
116000000	-0.455391222083575	-0.848572742897286
116250000	-0.464909768170966	-0.843331568396593
116500000	-0.474365230075836	-0.83796612235619
116750000	-0.48375524555275	-0.832493501695056
117000000	-0.493098536616722	-0.826903513698609
117250000	-0.502372583743656	-0.821225458330739
117500000	-0.511609249217845	-0.815426163878294
117750000	-0.520720431316766	-0.809528563685097
118000000	-0.529824275430442	-0.803539707938183
118250000	-0.538831804285201	-0.797445562200574
118500000	-0.547764924643397	-0.791223180908627
118750000	-0.556639043592877	-0.784933814118413
119000000	-0.565436832178379	-0.77852266434007
119250000	-0.574153894627563	-0.772025710532149
119500000	-0.582810364240331	-0.765389430025331
119750000	-0.591381047998213	-0.758704772128552
120000000	-0.599886115670759	-0.751893649811825
120250000	-0.608304198526305	-0.745013774005101
120500000	-0.616638090195555	-0.738003079460562
120750000	-0.624900920253399	-0.730911210988645
121000000	-0.633075778827737	-0.723739312900953
121250000	-0.64118687971246	-0.716449626305774
121500000	-0.649193022012937	-0.709077284416486
121750000	-0.657134659212964	-0.70164184315535
122000000	-0.664985052294637	-0.694115914345122
122250000	-0.672723781804002	-0.686438047776391
122500000	-0.680421540235667	-0.678716054710021
122750000	-0.687989434796043	-0.670911326883225
123000000	-0.695489023582149	-0.662998459496156
123250000	-0.702899248334093	-0.655047021737883
123500000	-0.710205286814727	-0.646969610164381
123750000	-0.71744120360389	-0.638819459786823
124000000	-0.724549529688596	-0.630589595537851
124250000	-0.731591144314916	-0.622275013921779
124500000	-0.73853036777124	-0.613907483932737
124750000	-0.745366500509127	-0.605419877212081
125000000	-0.75210824926493	-0.596878008200569
125250000	-0.758764630704211	-0.588247379285906
125500000	-0.765284755001553	-0.579566904337371
125750000	-0.77178627941262	-0.570797901921573
126000000	-0.778116330506195	-0.561936812555361
126250000	-0.784357513785713	-0.553018444408469
126500000	-0.790520347059524	-0.54404449224739
126750000	-0.796540285752348	-0.534975972744059
127000000	-0.802498856890005	-0.525844692699048
127250000	-0.808343772071624	-0.516671865706545
127500000	-0.814063075538247	-0.507388602919488
127750000	-0.819678985304809	-0.498078466651586
128000000	-0.825198460850793	-0.488698178986124
128250000	-0.83060234902757	-0.479261156801545
128500000	-0.835923957087826	-0.469746252251802
128750000	-0.841089003663519	-0.460182189385344
129000000	-0.846181711587107	-0.450549455293879
129250000	-0.851165300484927	-0.440879241852718
129500000	-0.856015036279888	-0.43114498576547
129750000	-0.860777933202956	-0.42134274116548
130000000	-0.865417095702997	-0.411489362207947
130250000	-0.869946955641715	-0.401585558097417
130500000	-0.874369888070787	-0.391659167589022
130750000	-0.878658415404636	-0.38166400424
131000000	-0.88285079466887	-0.37159691099961
131250000	-0.886921676116841	-0.361511913580594
131500000	-0.890869821422799	-0.351382845667785
131750000	-0.894722705227502	-0.341204528057323
132000000	-0.898427532885402	-0.330975201151023
132250000	-0.902052665710385	-0.320704993868909
132500000	-0.905523111308962	-0.310400246500431
132750000	-0.908896425919032	-0.300043345896934
133000000	-0.912149536785409	-0.289654393078269
133250000	-0.915278268493032	-0.279257419716694
133500000	-0.918306280019127	-0.268798640324815
133750000	-0.921204581774249	-0.258319308433621
134000000	-0.923985106963413	-0.247812239515538
134250000	-0.926627668366303	-0.237249668644551
134500000	-0.929153668892642	-0.226679664541239
134750000	-0.931576101674507	-0.216077953574978
135000000	-0.933879668293006	-0.205440841650833
135250000	-0.936023137027024	-0.194798885608949
135500000	-0.938102145670648	-0.184108394061495
135750000	-0.940015641804446	-0.173414920106941
136000000	-0.941806719949304	-0.162696076219374
136250000	-0.943520669379165	-0.151942233900867
136500000	-0.945061864213683	-0.141201594533031
136750000	-0.946514105607651	-0.13042947015353
137000000	-0.947819131117614	-0.11962442329389
137250000	-0.949022006586379	-0.108832473070831
137500000	-0.95007750439452	-9.80409196736279E-02
137750000	-0.951014163485666	-8.71863704575323E-02
138000000	-0.951825857162412	-0.076380359180471
138250000	-0.952557150218029	-6.55353441507364E-02
138500000	-0.953121430279398	-5.46876654874194E-02
138750000	-0.953577809398558	-0.043826008994792
139000000	-0.953882751458053	-3.29891329099619E-02
139250000	-0.954096356111401	-2.21250494004319E-02
139500000	-0.954174240442281	-1.12484802347188E-02
139750000	-0.954141648187965	-3.89671792359432E-04
140000000	-0.953963763471782	1.04558862213666E-02
140250000	-0.953675465569786	2.13150350325652E-02
140500000	-0.953249686890932	0.032134371438941
140750000	-0.952723476968423	4.29962200904097E-02
141000000	-0.952054352277934	5.38264222653435E-02
141250000	-0.951290308752267	6.46503816026425E-02
141500000	-0.95037004579277	7.54394982198792E-02
141750000	-0.949336161081423	8.62605742710083E-02
142000000	-0.948187522268838	9.70519257467152E-02
142250000	-0.946922283885924	0.107796238611335
142500000	-0.945509782862483	0.11856104635265
142750000	-0.943982555437067	0.129302096412826
143000000	-0.942324679202709	0.140027384849987
143250000	-0.940592020485134	0.150720998937511
143500000	-0.938709859460947	0.161405978080554
143750000	-0.936695796055492	0.172067034073861
144000000	-0.934552178814325	0.182693129382165
144250000	-0.932314846806579	0.193290530092483
144500000	-0.929946545807834	0.203852755991224
