!Agilent Technologies,E5072A,MY51200456,A.01.06
!Date: Tue Sep 01 19:49:04 2015
!Data & Calibration Information:
!Freq	S11:SOLT1(ON)
!PortZ  Port1:50+j0
!Above PortZ is port z conversion or system Z0 setting when saving the data.
!When reading, reference impedance value at option line is always used.
# Hz S dB R 50
50000000	-8.891201e-001	9.795801e+001
50250000	-9.085512e-001	9.109367e+001
50500000	-9.269616e-001	8.421698e+001
50750000	-9.438977e-001	7.733077e+001
51000000	-9.595659e-001	7.043647e+001
51250000	-9.736057e-001	6.353796e+001
51500000	-9.860054e-001	5.663307e+001
51750000	-9.966143e-001	4.972728e+001
52000000	-1.005377e+000	4.282214e+001
52250000	-1.012122e+000	3.591927e+001
52500000	-1.017113e+000	2.902133e+001
52750000	-1.020092e+000	2.212949e+001
53000000	-1.021337e+000	1.524644e+001
53250000	-1.020646e+000	8.374669e+000
53500000	-1.018305e+000	1.515857e+000
53750000	-1.014347e+000	-5.329145e+000
54000000	-1.008769e+000	-1.215788e+001
54250000	-1.002101e+000	-1.896879e+001
54500000	-9.941194e-001	-2.576168e+001
54750000	-9.850087e-001	-3.253438e+001
55000000	-9.749590e-001	-3.928711e+001
55250000	-9.642062e-001	-4.601690e+001
55500000	-9.529325e-001	-5.272651e+001
55750000	-9.411437e-001	-5.941520e+001
56000000	-9.292222e-001	-6.608134e+001
56250000	-9.172313e-001	-7.272553e+001
56500000	-9.053603e-001	-7.934940e+001
56750000	-8.937429e-001	-8.595367e+001
57000000	-8.823912e-001	-9.253829e+001
57250000	-8.716346e-001	-9.910509e+001
57500000	-8.613944e-001	-1.056545e+002
57750000	-8.519673e-001	-1.121892e+002
58000000	-8.433516e-001	-1.187088e+002
58250000	-8.356294e-001	-1.252179e+002
58500000	-8.288830e-001	-1.317156e+002
58750000	-8.230825e-001	-1.382057e+002
59000000	-8.183645e-001	-1.446885e+002
59250000	-8.148102e-001	-1.511673e+002
59500000	-8.123326e-001	-1.576436e+002
59750000	-8.109123e-001	-1.641200e+002
60000000	-8.105277e-001	-1.705985e+002
60250000	-8.113966e-001	-1.770808e+002
60500000	-8.134056e-001	1.764297e+002
60750000	-8.163173e-001	1.699328e+002
61000000	-8.203413e-001	1.634238e+002
61250000	-8.252320e-001	1.569037e+002
61500000	-8.309481e-001	1.503681e+002
61750000	-8.376470e-001	1.438167e+002
62000000	-8.449985e-001	1.372465e+002
62250000	-8.531308e-001	1.306581e+002
62500000	-8.617366e-001	1.240467e+002
62750000	-8.710750e-001	1.174140e+002
63000000	-8.808447e-001	1.107575e+002
63250000	-8.909065e-001	1.040784e+002
63500000	-9.011683e-001	9.737356e+001
63750000	-9.116744e-001	9.064440e+001
64000000	-9.222371e-001	8.389009e+001
64250000	-9.327799e-001	7.711138e+001
64500000	-9.433649e-001	7.030840e+001
64750000	-9.536222e-001	6.348222e+001
65000000	-9.637582e-001	5.663505e+001
65250000	-9.721034e-001	4.976589e+001
65500000	-9.815539e-001	4.287771e+001
65750000	-9.905844e-001	3.597349e+001
66000000	-9.990774e-001	2.905338e+001
66250000	-1.006928e+000	2.212045e+001
66500000	-1.014345e+000	1.517691e+001
66750000	-1.021132e+000	8.226197e+000
67000000	-1.027380e+000	1.271501e+000
67250000	-1.033047e+000	-5.684652e+000
67500000	-1.038085e+000	-1.264089e+001
67750000	-1.042603e+000	-1.959371e+001
68000000	-1.046652e+000	-2.653911e+001
68250000	-1.049998e+000	-3.347390e+001
68500000	-1.052930e+000	-4.039524e+001
68750000	-1.055214e+000	-4.730373e+001
69000000	-1.057423e+000	-5.419557e+001
69250000	-1.058824e+000	-6.106600e+001
69500000	-1.059963e+000	-6.791410e+001
69750000	-1.060724e+000	-7.473868e+001
70000000	-1.061233e+000	-8.154152e+001
70250000	-1.061689e+000	-8.831925e+001
70500000	-1.061549e+000	-9.506623e+001
70750000	-1.061810e+000	-1.017865e+002
71000000	-1.061657e+000	-1.084805e+002
71250000	-1.061365e+000	-1.151516e+002
71500000	-1.060874e+000	-1.217941e+002
71750000	-1.060707e+000	-1.284073e+002
72000000	-1.060073e+000	-1.349941e+002
72250000	-1.059369e+000	-1.415615e+002
72500000	-1.058677e+000	-1.481092e+002
72750000	-1.057983e+000	-1.546322e+002
73000000	-1.057101e+000	-1.611324e+002
73250000	-1.056301e+000	-1.676175e+002
73500000	-1.055249e+000	-1.740930e+002
73750000	-1.054248e+000	1.794457e+002
74000000	-1.053093e+000	1.729996e+002
74250000	-1.051745e+000	1.665620e+002
74500000	-1.050224e+000	1.601232e+002
74750000	-1.048849e+000	1.536860e+002
75000000	-1.047194e+000	1.472546e+002
75250000	-1.045375e+000	1.408211e+002
75500000	-1.043248e+000	1.343782e+002
75750000	-1.041097e+000	1.279253e+002
76000000	-1.038745e+000	1.214669e+002
76250000	-1.036189e+000	1.149959e+002
76500000	-1.033653e+000	1.085056e+002
76750000	-1.030968e+000	1.019973e+002
77000000	-1.028045e+000	9.547458e+001
77250000	-1.025162e+000	8.892966e+001
77500000	-1.022257e+000	8.235815e+001
77750000	-1.019346e+000	7.576251e+001
78000000	-1.016404e+000	6.914504e+001
78250000	-1.013353e+000	6.249905e+001
78500000	-1.010806e+000	5.582302e+001
78750000	-1.008302e+000	4.912104e+001
79000000	-1.005963e+000	4.239583e+001
79250000	-1.004054e+000	3.563795e+001
79500000	-1.002499e+000	2.885182e+001
79750000	-1.001423e+000	2.204409e+001
80000000	-1.000917e+000	1.521113e+001
80250000	-1.000912e+000	8.351585e+000
80500000	-1.001619e+000	1.472053e+000
80750000	-1.003066e+000	-5.423417e+000
81000000	-1.005093e+000	-1.233862e+001
81250000	-1.007872e+000	-1.927129e+001
81500000	-1.011552e+000	-2.621093e+001
81750000	-1.016172e+000	-3.315810e+001
82000000	-1.021520e+000	-4.011551e+001
82250000	-1.027694e+000	-4.707401e+001
82500000	-1.034812e+000	-5.402884e+001
82750000	-1.042599e+000	-6.098091e+001
83000000	-1.050998e+000	-6.793028e+001
83250000	-1.060360e+000	-7.486757e+001
83500000	-1.070024e+000	-8.178945e+001
83750000	-1.080356e+000	-8.869987e+001
84000000	-1.091170e+000	-9.559291e+001
84250000	-1.102230e+000	-1.024630e+002
84500000	-1.113613e+000	-1.093128e+002
84750000	-1.125101e+000	-1.161428e+002
85000000	-1.136465e+000	-1.229457e+002
85250000	-1.147856e+000	-1.297199e+002
85500000	-1.159043e+000	-1.364725e+002
85750000	-1.169920e+000	-1.432002e+002
86000000	-1.180267e+000	-1.498979e+002
86250000	-1.190109e+000	-1.565691e+002
86500000	-1.199471e+000	-1.632205e+002
86750000	-1.207926e+000	-1.698456e+002
87000000	-1.215678e+000	-1.764441e+002
87250000	-1.222577e+000	1.769761e+002
87500000	-1.228500e+000	1.704141e+002
87750000	-1.233502e+000	1.638740e+002
88000000	-1.237290e+000	1.573507e+002
88250000	-1.240016e+000	1.508393e+002
88500000	-1.241717e+000	1.443408e+002
88750000	-1.242109e+000	1.378552e+002
89000000	-1.241371e+000	1.313761e+002
89250000	-1.239317e+000	1.248990e+002
89500000	-1.236285e+000	1.184270e+002
89750000	-1.232075e+000	1.119565e+002
90000000	-1.226565e+000	1.054807e+002
90250000	-1.220257e+000	9.900148e+001
90500000	-1.212803e+000	9.251629e+001
90750000	-1.204305e+000	8.602011e+001
91000000	-1.195231e+000	7.951170e+001
91250000	-1.185278e+000	7.299135e+001
91500000	-1.174488e+000	6.645647e+001
91750000	-1.163444e+000	5.990220e+001
92000000	-1.151840e+000	5.333076e+001
92250000	-1.139767e+000	4.674262e+001
92500000	-1.127599e+000	4.013228e+001
92750000	-1.115463e+000	3.349805e+001
93000000	-1.103333e+000	2.684530e+001
93250000	-1.091482e+000	2.017119e+001
93500000	-1.080039e+000	1.347057e+001
93750000	-1.069265e+000	6.747818e+000
94000000	-1.059154e+000	7.325522e-003
94250000	-1.049904e+000	-6.756711e+000
94500000	-1.041609e+000	-1.354334e+001
94750000	-1.034443e+000	-2.034643e+001
95000000	-1.028568e+000	-2.716429e+001
95250000	-1.024171e+000	-3.399823e+001
95500000	-1.021065e+000	-4.084712e+001
95750000	-1.019499e+000	-4.770758e+001
96000000	-1.019610e+000	-5.457826e+001
96250000	-1.021121e+000	-6.145409e+001
96500000	-1.024311e+000	-6.833560e+001
96750000	-1.029219e+000	-7.521666e+001
97000000	-1.035619e+000	-8.209999e+001
97250000	-1.043410e+000	-8.897911e+001
97500000	-1.052798e+000	-9.585451e+001
97750000	-1.063199e+000	-1.027239e+002
98000000	-1.074846e+000	-1.095838e+002
98250000	-1.087795e+000	-1.164319e+002
98500000	-1.101620e+000	-1.232682e+002
98750000	-1.116123e+000	-1.300898e+002
99000000	-1.131278e+000	-1.368966e+002
99250000	-1.146911e+000	-1.436884e+002
99500000	-1.162702e+000	-1.504638e+002
99750000	-1.178665e+000	-1.572225e+002
100000000	-1.194727e+000	-1.639641e+002
