!Agilent Technologies,E5072A,MY51200456,A.01.06
!Date: Tue Sep 01 19:47:54 2015
!Data & Calibration Information:
!Freq	S11:SOLT1(ON)
!PortZ  Port1:50+j0
!Above PortZ is port z conversion or system Z0 setting when saving the data.
!When reading, reference impedance value at option line is always used.
# Hz S dB R 50
50000000	-3.407977e+001	-1.517791e+002
50250000	-3.410093e+001	-1.525174e+002
50500000	-3.412433e+001	-1.532803e+002
50750000	-3.414683e+001	-1.540314e+002
51000000	-3.417273e+001	-1.547745e+002
51250000	-3.419403e+001	-1.555382e+002
51500000	-3.422012e+001	-1.562759e+002
51750000	-3.424390e+001	-1.570474e+002
52000000	-3.426835e+001	-1.577835e+002
52250000	-3.429502e+001	-1.585391e+002
52500000	-3.432042e+001	-1.592976e+002
52750000	-3.434558e+001	-1.600551e+002
53000000	-3.437294e+001	-1.607840e+002
53250000	-3.440187e+001	-1.615385e+002
53500000	-3.442929e+001	-1.622890e+002
53750000	-3.445755e+001	-1.630272e+002
54000000	-3.448064e+001	-1.637668e+002
54250000	-3.451576e+001	-1.645156e+002
54500000	-3.454279e+001	-1.652407e+002
54750000	-3.457254e+001	-1.660038e+002
55000000	-3.459852e+001	-1.667557e+002
55250000	-3.463293e+001	-1.674797e+002
55500000	-3.466085e+001	-1.682250e+002
55750000	-3.469263e+001	-1.689485e+002
56000000	-3.472214e+001	-1.696787e+002
56250000	-3.475835e+001	-1.704068e+002
56500000	-3.478902e+001	-1.711339e+002
56750000	-3.482185e+001	-1.718788e+002
57000000	-3.485510e+001	-1.726140e+002
57250000	-3.488855e+001	-1.733537e+002
57500000	-3.492304e+001	-1.740603e+002
57750000	-3.495837e+001	-1.748034e+002
58000000	-3.499913e+001	-1.755007e+002
58250000	-3.503115e+001	-1.762367e+002
58500000	-3.506728e+001	-1.769604e+002
58750000	-3.510387e+001	-1.776962e+002
59000000	-3.514064e+001	-1.784055e+002
59250000	-3.517919e+001	-1.791452e+002
59500000	-3.521868e+001	-1.798363e+002
59750000	-3.525613e+001	1.794263e+002
60000000	-3.529339e+001	1.787432e+002
60250000	-3.533719e+001	1.780130e+002
60500000	-3.537322e+001	1.772891e+002
60750000	-3.541530e+001	1.765939e+002
61000000	-3.545892e+001	1.758949e+002
61250000	-3.549896e+001	1.751817e+002
61500000	-3.554146e+001	1.744479e+002
61750000	-3.558425e+001	1.737619e+002
62000000	-3.562662e+001	1.730566e+002
62250000	-3.566912e+001	1.723586e+002
62500000	-3.571629e+001	1.716639e+002
62750000	-3.575936e+001	1.709569e+002
63000000	-3.580688e+001	1.702830e+002
63250000	-3.585273e+001	1.695783e+002
63500000	-3.589866e+001	1.688900e+002
63750000	-3.594525e+001	1.681851e+002
64000000	-3.598982e+001	1.674790e+002
64250000	-3.604052e+001	1.668014e+002
64500000	-3.608811e+001	1.661399e+002
64750000	-3.613906e+001	1.654431e+002
65000000	-3.618680e+001	1.647548e+002
65250000	-3.623781e+001	1.640412e+002
65500000	-3.628726e+001	1.633679e+002
65750000	-3.633944e+001	1.626853e+002
66000000	-3.639249e+001	1.620363e+002
66250000	-3.644452e+001	1.613322e+002
66500000	-3.649728e+001	1.606626e+002
66750000	-3.655482e+001	1.599958e+002
67000000	-3.660873e+001	1.593522e+002
67250000	-3.666444e+001	1.586308e+002
67500000	-3.672120e+001	1.579913e+002
67750000	-3.677416e+001	1.573270e+002
68000000	-3.682963e+001	1.566733e+002
68250000	-3.689278e+001	1.560179e+002
68500000	-3.695203e+001	1.553384e+002
68750000	-3.700950e+001	1.547130e+002
69000000	-3.707272e+001	1.540311e+002
69250000	-3.712999e+001	1.534057e+002
69500000	-3.718885e+001	1.527664e+002
69750000	-3.725122e+001	1.521260e+002
70000000	-3.731778e+001	1.514923e+002
70250000	-3.737960e+001	1.508492e+002
70500000	-3.745041e+001	1.501879e+002
70750000	-3.750814e+001	1.495826e+002
71000000	-3.757462e+001	1.489470e+002
71250000	-3.764137e+001	1.483294e+002
71500000	-3.771214e+001	1.477338e+002
71750000	-3.777603e+001	1.470609e+002
72000000	-3.784338e+001	1.464734e+002
72250000	-3.791273e+001	1.458636e+002
72500000	-3.798790e+001	1.452855e+002
72750000	-3.805603e+001	1.446368e+002
73000000	-3.813212e+001	1.440329e+002
73250000	-3.820167e+001	1.434111e+002
73500000	-3.826630e+001	1.428663e+002
73750000	-3.834894e+001	1.422182e+002
74000000	-3.842755e+001	1.416125e+002
74250000	-3.849874e+001	1.410724e+002
74500000	-3.857631e+001	1.404965e+002
74750000	-3.865841e+001	1.399320e+002
75000000	-3.873839e+001	1.393227e+002
75250000	-3.881667e+001	1.387527e+002
75500000	-3.889242e+001	1.381756e+002
75750000	-3.897733e+001	1.376291e+002
76000000	-3.905470e+001	1.370662e+002
76250000	-3.913986e+001	1.365100e+002
76500000	-3.922618e+001	1.359539e+002
76750000	-3.931630e+001	1.354268e+002
77000000	-3.939797e+001	1.348959e+002
77250000	-3.948205e+001	1.343634e+002
77500000	-3.957500e+001	1.338227e+002
77750000	-3.966571e+001	1.333058e+002
78000000	-3.975330e+001	1.327888e+002
78250000	-3.984479e+001	1.322588e+002
78500000	-3.993979e+001	1.317606e+002
78750000	-4.003030e+001	1.312225e+002
79000000	-4.011463e+001	1.307341e+002
79250000	-4.021828e+001	1.302447e+002
79500000	-4.031717e+001	1.297621e+002
79750000	-4.041559e+001	1.293200e+002
80000000	-4.051581e+001	1.288375e+002
80250000	-4.060823e+001	1.283885e+002
80500000	-4.071502e+001	1.279133e+002
80750000	-4.081620e+001	1.274537e+002
81000000	-4.092583e+001	1.270280e+002
81250000	-4.103012e+001	1.265923e+002
81500000	-4.114280e+001	1.261650e+002
81750000	-4.123842e+001	1.257577e+002
82000000	-4.134605e+001	1.253470e+002
82250000	-4.145425e+001	1.249342e+002
82500000	-4.157127e+001	1.245558e+002
82750000	-4.167667e+001	1.241510e+002
83000000	-4.179604e+001	1.238037e+002
83250000	-4.190304e+001	1.234467e+002
83500000	-4.202517e+001	1.230937e+002
83750000	-4.214385e+001	1.227432e+002
84000000	-4.226995e+001	1.223890e+002
84250000	-4.238280e+001	1.221274e+002
84500000	-4.250199e+001	1.218107e+002
84750000	-4.263353e+001	1.215272e+002
85000000	-4.275809e+001	1.212931e+002
85250000	-4.287705e+001	1.209445e+002
85500000	-4.300136e+001	1.207462e+002
85750000	-4.313508e+001	1.204858e+002
86000000	-4.326825e+001	1.203573e+002
86250000	-4.339164e+001	1.201499e+002
86500000	-4.352787e+001	1.198761e+002
86750000	-4.367176e+001	1.197361e+002
87000000	-4.379010e+001	1.196181e+002
87250000	-4.393288e+001	1.195142e+002
87500000	-4.406762e+001	1.193366e+002
87750000	-4.421018e+001	1.192739e+002
88000000	-4.434881e+001	1.191841e+002
88250000	-4.449875e+001	1.190825e+002
88500000	-4.464454e+001	1.190929e+002
88750000	-4.478707e+001	1.190535e+002
89000000	-4.492317e+001	1.191717e+002
89250000	-4.506271e+001	1.191951e+002
89500000	-4.521629e+001	1.192739e+002
89750000	-4.536863e+001	1.194275e+002
90000000	-4.550818e+001	1.195101e+002
90250000	-4.567079e+001	1.196748e+002
90500000	-4.581181e+001	1.198428e+002
90750000	-4.595634e+001	1.200479e+002
91000000	-4.611881e+001	1.203914e+002
91250000	-4.626793e+001	1.206875e+002
91500000	-4.642065e+001	1.209843e+002
91750000	-4.656696e+001	1.213195e+002
92000000	-4.672310e+001	1.217384e+002
92250000	-4.686298e+001	1.221800e+002
92500000	-4.700258e+001	1.227180e+002
92750000	-4.716922e+001	1.231596e+002
93000000	-4.729601e+001	1.237004e+002
93250000	-4.744658e+001	1.243125e+002
93500000	-4.758592e+001	1.248907e+002
93750000	-4.773155e+001	1.257650e+002
94000000	-4.786677e+001	1.264539e+002
94250000	-4.798036e+001	1.271878e+002
94500000	-4.811858e+001	1.279612e+002
94750000	-4.823102e+001	1.289135e+002
95000000	-4.835741e+001	1.298232e+002
95250000	-4.844648e+001	1.307880e+002
95500000	-4.857491e+001	1.317854e+002
95750000	-4.867269e+001	1.328056e+002
96000000	-4.874736e+001	1.339219e+002
96250000	-4.886399e+001	1.349562e+002
96500000	-4.891117e+001	1.361885e+002
96750000	-4.897012e+001	1.372671e+002
97000000	-4.902862e+001	1.385564e+002
97250000	-4.908130e+001	1.397361e+002
97500000	-4.910825e+001	1.410245e+002
97750000	-4.914312e+001	1.422779e+002
98000000	-4.915722e+001	1.436924e+002
98250000	-4.917287e+001	1.447256e+002
98500000	-4.915465e+001	1.460677e+002
98750000	-4.913424e+001	1.474055e+002
99000000	-4.913652e+001	1.484680e+002
99250000	-4.909770e+001	1.497387e+002
99500000	-4.906751e+001	1.510515e+002
99750000	-4.899275e+001	1.521408e+002
100000000	-4.894128e+001	1.533288e+002
