!Agilent Technologies,E5072A,MY51200456,A.01.06
!Date: Tue Sep 01 19:45:46 2015
!Data & Calibration Information:
!Freq	S11:SOLT1(ON)
!PortZ  Port1:50+j0
!Above PortZ is port z conversion or system Z0 setting when saving the data.
!When reading, reference impedance value at option line is always used.
# Hz S dB R 50
50000000	-3.470620e-001	1.478095e+002
50250000	-3.498561e-001	1.467564e+002
50500000	-3.524800e-001	1.457030e+002
50750000	-3.550280e-001	1.446498e+002
51000000	-3.577883e-001	1.435965e+002
51250000	-3.603612e-001	1.425441e+002
51500000	-3.629595e-001	1.414906e+002
51750000	-3.655096e-001	1.404376e+002
52000000	-3.681150e-001	1.393854e+002
52250000	-3.705634e-001	1.383326e+002
52500000	-3.730554e-001	1.372801e+002
52750000	-3.754781e-001	1.362274e+002
53000000	-3.778801e-001	1.351750e+002
53250000	-3.803775e-001	1.341219e+002
53500000	-3.827422e-001	1.330691e+002
53750000	-3.852029e-001	1.320164e+002
54000000	-3.874842e-001	1.309648e+002
54250000	-3.898736e-001	1.299109e+002
54500000	-3.921802e-001	1.288583e+002
54750000	-3.945503e-001	1.278059e+002
55000000	-3.966774e-001	1.267544e+002
55250000	-3.990159e-001	1.257000e+002
55500000	-4.012886e-001	1.246483e+002
55750000	-4.035379e-001	1.235962e+002
56000000	-4.057948e-001	1.225437e+002
56250000	-4.079875e-001	1.214909e+002
56500000	-4.102530e-001	1.204380e+002
56750000	-4.123530e-001	1.193859e+002
57000000	-4.144434e-001	1.183333e+002
57250000	-4.164863e-001	1.172809e+002
57500000	-4.185574e-001	1.162275e+002
57750000	-4.204927e-001	1.151750e+002
58000000	-4.226674e-001	1.141217e+002
58250000	-4.245738e-001	1.130689e+002
58500000	-4.264076e-001	1.120164e+002
58750000	-4.282328e-001	1.109629e+002
59000000	-4.302917e-001	1.099105e+002
59250000	-4.320783e-001	1.088580e+002
59500000	-4.340852e-001	1.078050e+002
59750000	-4.357523e-001	1.067519e+002
60000000	-4.376481e-001	1.056989e+002
60250000	-4.393019e-001	1.046460e+002
60500000	-4.411528e-001	1.035932e+002
60750000	-4.427991e-001	1.025401e+002
61000000	-4.445942e-001	1.014858e+002
61250000	-4.461740e-001	1.004340e+002
61500000	-4.476467e-001	9.938014e+001
61750000	-4.492642e-001	9.832701e+001
62000000	-4.508068e-001	9.727311e+001
62250000	-4.523270e-001	9.622080e+001
62500000	-4.538156e-001	9.516596e+001
62750000	-4.552409e-001	9.411237e+001
63000000	-4.567883e-001	9.305763e+001
63250000	-4.581158e-001	9.200459e+001
63500000	-4.593839e-001	9.094977e+001
63750000	-4.607049e-001	8.989566e+001
64000000	-4.620463e-001	8.884085e+001
64250000	-4.631817e-001	8.778632e+001
64500000	-4.644922e-001	8.673153e+001
64750000	-4.656020e-001	8.567695e+001
65000000	-4.668186e-001	8.462239e+001
65250000	-4.664409e-001	8.356722e+001
65500000	-4.674667e-001	8.251195e+001
65750000	-4.685862e-001	8.145694e+001
66000000	-4.696156e-001	8.040243e+001
66250000	-4.704295e-001	7.934726e+001
66500000	-4.714322e-001	7.829064e+001
66750000	-4.722897e-001	7.723476e+001
67000000	-4.731783e-001	7.617962e+001
67250000	-4.738648e-001	7.512365e+001
67500000	-4.748871e-001	7.406684e+001
67750000	-4.756386e-001	7.301054e+001
68000000	-4.764227e-001	7.195337e+001
68250000	-4.770869e-001	7.089850e+001
68500000	-4.777023e-001	6.984193e+001
68750000	-4.783465e-001	6.878446e+001
69000000	-4.788098e-001	6.772472e+001
69250000	-4.794951e-001	6.666810e+001
69500000	-4.799497e-001	6.561245e+001
69750000	-4.804689e-001	6.455536e+001
70000000	-4.809398e-001	6.349460e+001
70250000	-4.813287e-001	6.243501e+001
70500000	-4.818286e-001	6.137553e+001
70750000	-4.820475e-001	6.032116e+001
71000000	-4.824093e-001	5.926366e+001
71250000	-4.827379e-001	5.820142e+001
71500000	-4.830043e-001	5.713991e+001
71750000	-4.831750e-001	5.608308e+001
72000000	-4.833972e-001	5.502674e+001
72250000	-4.835665e-001	5.396594e+001
72500000	-4.836608e-001	5.290093e+001
72750000	-4.838097e-001	5.184076e+001
73000000	-4.839322e-001	5.078374e+001
73250000	-4.839463e-001	4.972441e+001
73500000	-4.838758e-001	4.866101e+001
73750000	-4.839577e-001	4.759528e+001
74000000	-4.839126e-001	4.653711e+001
74250000	-4.837593e-001	4.547830e+001
74500000	-4.836411e-001	4.441338e+001
74750000	-4.835985e-001	4.334777e+001
75000000	-4.834202e-001	4.228713e+001
75250000	-4.832989e-001	4.122761e+001
75500000	-4.829855e-001	4.016302e+001
75750000	-4.827261e-001	3.909644e+001
76000000	-4.823710e-001	3.803439e+001
76250000	-4.820809e-001	3.697274e+001
76500000	-4.818416e-001	3.590747e+001
76750000	-4.813733e-001	3.483987e+001
77000000	-4.810386e-001	3.377728e+001
77250000	-4.806569e-001	3.271427e+001
77500000	-4.801429e-001	3.164710e+001
77750000	-4.798411e-001	3.057985e+001
78000000	-4.794402e-001	2.951670e+001
78250000	-4.788688e-001	2.845129e+001
78500000	-4.784202e-001	2.738217e+001
78750000	-4.779011e-001	2.631534e+001
79000000	-4.772796e-001	2.525198e+001
79250000	-4.767664e-001	2.418403e+001
79500000	-4.760954e-001	2.311334e+001
79750000	-4.755148e-001	2.204746e+001
80000000	-4.750322e-001	2.098053e+001
80250000	-4.742882e-001	1.991020e+001
80500000	-4.736856e-001	1.884060e+001
80750000	-4.729943e-001	1.777425e+001
81000000	-4.722557e-001	1.670498e+001
81250000	-4.714691e-001	1.563282e+001
81500000	-4.708650e-001	1.456354e+001
81750000	-4.700950e-001	1.349632e+001
82000000	-4.692636e-001	1.242485e+001
82250000	-4.686185e-001	1.135328e+001
82500000	-4.678303e-001	1.028464e+001
82750000	-4.670143e-001	9.214267e+000
83000000	-4.662879e-001	8.139910e+000
83250000	-4.654362e-001	7.068476e+000
83500000	-4.646959e-001	5.999163e+000
83750000	-4.638550e-001	4.924959e+000
84000000	-4.629709e-001	3.849989e+000
84250000	-4.621759e-001	2.779591e+000
84500000	-4.613530e-001	1.706447e+000
84750000	-4.605186e-001	6.298055e-001
85000000	-4.597277e-001	-4.432206e-001
85250000	-4.589210e-001	-1.513618e+000
85500000	-4.580512e-001	-2.588981e+000
85750000	-4.573337e-001	-3.666124e+000
86000000	-4.563913e-001	-4.738104e+000
86250000	-4.555913e-001	-5.810331e+000
86500000	-4.547122e-001	-6.889015e+000
86750000	-4.538824e-001	-7.965250e+000
87000000	-4.532046e-001	-9.038757e+000
87250000	-4.524454e-001	-1.011500e+001
87500000	-4.515225e-001	-1.119369e+001
87750000	-4.507119e-001	-1.226966e+001
88000000	-4.499779e-001	-1.334552e+001
88250000	-4.491874e-001	-1.442353e+001
88500000	-4.484358e-001	-1.550231e+001
88750000	-4.477026e-001	-1.657730e+001
89000000	-4.468987e-001	-1.765433e+001
89250000	-4.462113e-001	-1.873346e+001
89500000	-4.454661e-001	-1.981139e+001
89750000	-4.447985e-001	-2.088764e+001
90000000	-4.440495e-001	-2.196645e+001
90250000	-4.432747e-001	-2.304617e+001
90500000	-4.427308e-001	-2.412330e+001
90750000	-4.420343e-001	-2.520297e+001
91000000	-4.413659e-001	-2.628424e+001
91250000	-4.406744e-001	-2.736337e+001
91500000	-4.399590e-001	-2.844255e+001
91750000	-4.395274e-001	-2.952332e+001
92000000	-4.389586e-001	-3.060355e+001
92250000	-4.384581e-001	-3.168166e+001
92500000	-4.379786e-001	-3.276170e+001
92750000	-4.373924e-001	-3.384358e+001
93000000	-4.369375e-001	-3.492268e+001
93250000	-4.364272e-001	-3.600036e+001
93500000	-4.359075e-001	-3.708277e+001
93750000	-4.355204e-001	-3.816481e+001
94000000	-4.351587e-001	-3.924307e+001
94250000	-4.348043e-001	-4.032438e+001
94500000	-4.344215e-001	-4.140781e+001
94750000	-4.340440e-001	-4.248958e+001
95000000	-4.336955e-001	-4.356929e+001
95250000	-4.336758e-001	-4.464975e+001
95500000	-4.333058e-001	-4.573125e+001
95750000	-4.330655e-001	-4.681297e+001
96000000	-4.328572e-001	-4.789620e+001
96250000	-4.326238e-001	-4.897776e+001
96500000	-4.324285e-001	-5.005968e+001
96750000	-4.324184e-001	-5.114027e+001
97000000	-4.322927e-001	-5.222260e+001
97250000	-4.322088e-001	-5.330337e+001
97500000	-4.322373e-001	-5.438517e+001
97750000	-4.321460e-001	-5.546804e+001
98000000	-4.321660e-001	-5.655027e+001
98250000	-4.321511e-001	-5.763172e+001
98500000	-4.323354e-001	-5.871380e+001
98750000	-4.324170e-001	-5.979436e+001
99000000	-4.325094e-001	-6.087467e+001
99250000	-4.326367e-001	-6.195687e+001
99500000	-4.327422e-001	-6.303874e+001
99750000	-4.330726e-001	-6.412121e+001
100000000	-4.332882e-001	-6.520432e+001
