!Agilent Technologies,E5072A,MY51200456,A.01.06
!Date: Tue Sep 01 19:46:50 2015
!Data & Calibration Information:
!Freq	S11:SOLT1(ON)
!PortZ  Port1:50+j0
!Above PortZ is port z conversion or system Z0 setting when saving the data.
!When reading, reference impedance value at option line is always used.
# Hz S dB R 50
50000000	-3.723694e-001	-3.379581e+001
50250000	-3.716931e-001	-3.486033e+001
50500000	-3.712175e-001	-3.592456e+001
50750000	-3.707564e-001	-3.698832e+001
51000000	-3.701961e-001	-3.805239e+001
51250000	-3.696476e-001	-3.911760e+001
51500000	-3.692041e-001	-4.018068e+001
51750000	-3.687198e-001	-4.124507e+001
52000000	-3.682659e-001	-4.230930e+001
52250000	-3.677996e-001	-4.337350e+001
52500000	-3.673459e-001	-4.443740e+001
52750000	-3.668977e-001	-4.550128e+001
53000000	-3.665214e-001	-4.656512e+001
53250000	-3.659869e-001	-4.762899e+001
53500000	-3.656977e-001	-4.869316e+001
53750000	-3.652754e-001	-4.975719e+001
54000000	-3.649222e-001	-5.082189e+001
54250000	-3.646683e-001	-5.188481e+001
54500000	-3.643697e-001	-5.294859e+001
54750000	-3.641424e-001	-5.401264e+001
55000000	-3.638194e-001	-5.507732e+001
55250000	-3.636943e-001	-5.613946e+001
55500000	-3.634840e-001	-5.720316e+001
55750000	-3.631913e-001	-5.826766e+001
56000000	-3.630065e-001	-5.933127e+001
56250000	-3.628683e-001	-6.039417e+001
56500000	-3.627269e-001	-6.145687e+001
56750000	-3.626657e-001	-6.252084e+001
57000000	-3.625033e-001	-6.358368e+001
57250000	-3.624876e-001	-6.464682e+001
57500000	-3.623469e-001	-6.570929e+001
57750000	-3.624190e-001	-6.677247e+001
58000000	-3.622347e-001	-6.783480e+001
58250000	-3.624479e-001	-6.889777e+001
58500000	-3.625279e-001	-6.996040e+001
58750000	-3.624976e-001	-7.102295e+001
59000000	-3.627102e-001	-7.208522e+001
59250000	-3.628905e-001	-7.314760e+001
59500000	-3.629234e-001	-7.420989e+001
59750000	-3.632373e-001	-7.527199e+001
60000000	-3.632679e-001	-7.633423e+001
60250000	-3.636580e-001	-7.739545e+001
60500000	-3.639902e-001	-7.845720e+001
60750000	-3.642274e-001	-7.951911e+001
61000000	-3.644759e-001	-8.057880e+001
61250000	-3.648810e-001	-8.164161e+001
61500000	-3.652740e-001	-8.270201e+001
61750000	-3.656588e-001	-8.376335e+001
62000000	-3.659902e-001	-8.482355e+001
62250000	-3.665351e-001	-8.588462e+001
62500000	-3.669572e-001	-8.694486e+001
62750000	-3.675571e-001	-8.800532e+001
63000000	-3.678764e-001	-8.906453e+001
63250000	-3.685099e-001	-9.012521e+001
63500000	-3.691530e-001	-9.118446e+001
63750000	-3.697284e-001	-9.224395e+001
64000000	-3.702844e-001	-9.330322e+001
64250000	-3.710250e-001	-9.436275e+001
64500000	-3.716817e-001	-9.542078e+001
64750000	-3.723420e-001	-9.647958e+001
65000000	-3.731379e-001	-9.753883e+001
65250000	-3.726756e-001	-9.859636e+001
65500000	-3.734415e-001	-9.965442e+001
65750000	-3.742391e-001	-1.007115e+002
66000000	-3.750031e-001	-1.017691e+002
66250000	-3.759116e-001	-1.028268e+002
66500000	-3.766376e-001	-1.038842e+002
66750000	-3.775049e-001	-1.049413e+002
67000000	-3.784861e-001	-1.059978e+002
67250000	-3.795298e-001	-1.070534e+002
67500000	-3.803311e-001	-1.081100e+002
67750000	-3.814482e-001	-1.091678e+002
68000000	-3.824821e-001	-1.102238e+002
68250000	-3.836576e-001	-1.112802e+002
68500000	-3.848360e-001	-1.123343e+002
68750000	-3.857470e-001	-1.133904e+002
69000000	-3.869770e-001	-1.144466e+002
69250000	-3.880933e-001	-1.155020e+002
69500000	-3.892544e-001	-1.165556e+002
69750000	-3.903663e-001	-1.176090e+002
70000000	-3.914804e-001	-1.186644e+002
70250000	-3.928050e-001	-1.197202e+002
70500000	-3.938610e-001	-1.207723e+002
70750000	-3.952978e-001	-1.218236e+002
71000000	-3.965673e-001	-1.228756e+002
71250000	-3.978464e-001	-1.239317e+002
71500000	-3.991599e-001	-1.249853e+002
71750000	-4.007393e-001	-1.260357e+002
72000000	-4.020401e-001	-1.270849e+002
72250000	-4.034149e-001	-1.281377e+002
72500000	-4.048182e-001	-1.291934e+002
72750000	-4.062906e-001	-1.302449e+002
73000000	-4.077002e-001	-1.312918e+002
73250000	-4.092765e-001	-1.323413e+002
73500000	-4.108555e-001	-1.333957e+002
73750000	-4.122472e-001	-1.344472e+002
74000000	-4.137262e-001	-1.354938e+002
74250000	-4.152623e-001	-1.365403e+002
74500000	-4.166630e-001	-1.375930e+002
74750000	-4.182422e-001	-1.386455e+002
75000000	-4.199100e-001	-1.396924e+002
75250000	-4.215746e-001	-1.407367e+002
75500000	-4.230641e-001	-1.417868e+002
75750000	-4.246361e-001	-1.428374e+002
76000000	-4.263777e-001	-1.438833e+002
76250000	-4.278985e-001	-1.449283e+002
76500000	-4.294652e-001	-1.459767e+002
76750000	-4.311438e-001	-1.470262e+002
77000000	-4.328676e-001	-1.480706e+002
77250000	-4.346284e-001	-1.491147e+002
77500000	-4.362132e-001	-1.501625e+002
77750000	-4.379340e-001	-1.512092e+002
78000000	-4.395922e-001	-1.522526e+002
78250000	-4.412819e-001	-1.532964e+002
78500000	-4.429401e-001	-1.543437e+002
78750000	-4.446768e-001	-1.553878e+002
79000000	-4.463904e-001	-1.564292e+002
79250000	-4.480281e-001	-1.574735e+002
79500000	-4.497169e-001	-1.585195e+002
79750000	-4.514552e-001	-1.595617e+002
80000000	-4.531456e-001	-1.606030e+002
80250000	-4.549607e-001	-1.616486e+002
80500000	-4.565930e-001	-1.626916e+002
80750000	-4.582703e-001	-1.637313e+002
81000000	-4.598692e-001	-1.647733e+002
81250000	-4.616758e-001	-1.658173e+002
81500000	-4.633269e-001	-1.668582e+002
81750000	-4.649859e-001	-1.678960e+002
82000000	-4.667668e-001	-1.689388e+002
82250000	-4.683602e-001	-1.699806e+002
82500000	-4.701505e-001	-1.710183e+002
82750000	-4.717091e-001	-1.720576e+002
83000000	-4.733743e-001	-1.730999e+002
83250000	-4.751860e-001	-1.741397e+002
83500000	-4.767478e-001	-1.751762e+002
83750000	-4.783989e-001	-1.762173e+002
84000000	-4.800954e-001	-1.772587e+002
84250000	-4.816988e-001	-1.782954e+002
84500000	-4.832133e-001	-1.793325e+002
84750000	-4.848747e-001	1.796259e+002
85000000	-4.864934e-001	1.785882e+002
85250000	-4.879290e-001	1.775538e+002
85500000	-4.894143e-001	1.765152e+002
85750000	-4.909575e-001	1.754753e+002
86000000	-4.924076e-001	1.744411e+002
86250000	-4.938253e-001	1.734064e+002
86500000	-4.953110e-001	1.723662e+002
86750000	-4.967228e-001	1.713287e+002
87000000	-4.981838e-001	1.702952e+002
87250000	-4.995537e-001	1.692583e+002
87500000	-5.009734e-001	1.682194e+002
87750000	-5.024440e-001	1.671840e+002
88000000	-5.037336e-001	1.661495e+002
88250000	-5.051081e-001	1.651125e+002
88500000	-5.064789e-001	1.640762e+002
88750000	-5.077621e-001	1.630428e+002
89000000	-5.090068e-001	1.620085e+002
89250000	-5.101934e-001	1.609717e+002
89500000	-5.114367e-001	1.599377e+002
89750000	-5.126668e-001	1.589046e+002
90000000	-5.136995e-001	1.578688e+002
90250000	-5.149347e-001	1.568340e+002
90500000	-5.160679e-001	1.558007e+002
90750000	-5.171005e-001	1.547662e+002
91000000	-5.182075e-001	1.537298e+002
91250000	-5.192341e-001	1.526956e+002
91500000	-5.203025e-001	1.516623e+002
91750000	-5.213460e-001	1.506260e+002
92000000	-5.223053e-001	1.495912e+002
92250000	-5.231738e-001	1.485596e+002
92500000	-5.240544e-001	1.475262e+002
92750000	-5.249224e-001	1.464901e+002
93000000	-5.259266e-001	1.454577e+002
93250000	-5.266304e-001	1.444259e+002
93500000	-5.274232e-001	1.433908e+002
93750000	-5.282606e-001	1.423562e+002
94000000	-5.289686e-001	1.413245e+002
94250000	-5.296833e-001	1.402908e+002
94500000	-5.303745e-001	1.392541e+002
94750000	-5.310692e-001	1.382205e+002
95000000	-5.317932e-001	1.371877e+002
95250000	-5.323941e-001	1.361556e+002
95500000	-5.329312e-001	1.351211e+002
95750000	-5.335270e-001	1.340863e+002
96000000	-5.340931e-001	1.330517e+002
96250000	-5.345721e-001	1.320168e+002
96500000	-5.349459e-001	1.309820e+002
96750000	-5.353175e-001	1.299484e+002
97000000	-5.358779e-001	1.289150e+002
97250000	-5.362116e-001	1.278806e+002
97500000	-5.365209e-001	1.268464e+002
97750000	-5.369068e-001	1.258114e+002
98000000	-5.372503e-001	1.247763e+002
98250000	-5.376174e-001	1.237405e+002
98500000	-5.377523e-001	1.227067e+002
98750000	-5.379473e-001	1.216720e+002
99000000	-5.381022e-001	1.206364e+002
99250000	-5.382396e-001	1.196022e+002
99500000	-5.385413e-001	1.185663e+002
99750000	-5.384223e-001	1.175294e+002
100000000	-5.387185e-001	1.164930e+002
