!Agilent Technologies,E5072A,MY51200456,A.01.06
!Date: Thu Sep 03 20:51:11 2015
!Data & Calibration Information:
!Freq	S11:SOLT1(ON)
!PortZ  Port1:50+j0
!Above PortZ is port z conversion or system Z0 setting when saving the data.
!When reading, reference impedance value at option line is always used.
# Hz S dB R 50
50000000	-3.245195e+001	-1.609350e+002
50250000	-3.247595e+001	-1.617748e+002
50500000	-3.250061e+001	-1.626125e+002
50750000	-3.252676e+001	-1.634533e+002
51000000	-3.255431e+001	-1.642844e+002
51250000	-3.257902e+001	-1.651301e+002
51500000	-3.260901e+001	-1.659641e+002
51750000	-3.263474e+001	-1.668004e+002
52000000	-3.266277e+001	-1.676334e+002
52250000	-3.269244e+001	-1.684864e+002
52500000	-3.272135e+001	-1.693258e+002
52750000	-3.275325e+001	-1.701627e+002
53000000	-3.278209e+001	-1.709797e+002
53250000	-3.281421e+001	-1.718237e+002
53500000	-3.284568e+001	-1.726529e+002
53750000	-3.287778e+001	-1.734891e+002
54000000	-3.290827e+001	-1.743172e+002
54250000	-3.294447e+001	-1.751383e+002
54500000	-3.297849e+001	-1.759550e+002
54750000	-3.301315e+001	-1.767985e+002
55000000	-3.304567e+001	-1.776251e+002
55250000	-3.308512e+001	-1.784477e+002
55500000	-3.312061e+001	-1.792704e+002
55750000	-3.315856e+001	1.799117e+002
56000000	-3.319626e+001	1.790939e+002
56250000	-3.323462e+001	1.782760e+002
56500000	-3.327426e+001	1.774515e+002
56750000	-3.331297e+001	1.766341e+002
57000000	-3.335385e+001	1.758232e+002
57250000	-3.339307e+001	1.749831e+002
57500000	-3.343712e+001	1.741806e+002
57750000	-3.347965e+001	1.733530e+002
58000000	-3.353091e+001	1.725692e+002
58250000	-3.356726e+001	1.717432e+002
58500000	-3.361371e+001	1.709309e+002
58750000	-3.365862e+001	1.701145e+002
59000000	-3.370232e+001	1.693162e+002
59250000	-3.375033e+001	1.684812e+002
59500000	-3.379918e+001	1.676954e+002
59750000	-3.384548e+001	1.668705e+002
60000000	-3.389561e+001	1.660918e+002
60250000	-3.394441e+001	1.652738e+002
60500000	-3.399439e+001	1.644665e+002
60750000	-3.404756e+001	1.636615e+002
61000000	-3.410386e+001	1.628574e+002
61250000	-3.415106e+001	1.620666e+002
61500000	-3.420539e+001	1.612603e+002
61750000	-3.426017e+001	1.604673e+002
62000000	-3.431551e+001	1.596782e+002
62250000	-3.437036e+001	1.588814e+002
62500000	-3.442870e+001	1.580931e+002
62750000	-3.448814e+001	1.572864e+002
63000000	-3.455122e+001	1.565094e+002
63250000	-3.460600e+001	1.557298e+002
63500000	-3.466562e+001	1.549281e+002
63750000	-3.472967e+001	1.541266e+002
64000000	-3.479087e+001	1.533504e+002
64250000	-3.485268e+001	1.525693e+002
64500000	-3.491978e+001	1.517848e+002
64750000	-3.498697e+001	1.509943e+002
65000000	-3.504676e+001	1.502225e+002
65250000	-3.511774e+001	1.494224e+002
65500000	-3.518307e+001	1.486519e+002
65750000	-3.525591e+001	1.478725e+002
66000000	-3.532597e+001	1.470986e+002
66250000	-3.539648e+001	1.463211e+002
66500000	-3.546882e+001	1.455533e+002
66750000	-3.554312e+001	1.447821e+002
67000000	-3.561572e+001	1.440192e+002
67250000	-3.569267e+001	1.432211e+002
67500000	-3.577268e+001	1.424835e+002
67750000	-3.584605e+001	1.417218e+002
68000000	-3.592652e+001	1.409579e+002
68250000	-3.601006e+001	1.402003e+002
68500000	-3.609127e+001	1.394199e+002
68750000	-3.617382e+001	1.386864e+002
69000000	-3.625575e+001	1.379071e+002
69250000	-3.633953e+001	1.371900e+002
69500000	-3.642682e+001	1.364274e+002
69750000	-3.651866e+001	1.356853e+002
70000000	-3.660860e+001	1.349454e+002
70250000	-3.669859e+001	1.341960e+002
70500000	-3.680041e+001	1.334163e+002
70750000	-3.688414e+001	1.327303e+002
71000000	-3.698169e+001	1.320075e+002
71250000	-3.707916e+001	1.312744e+002
71500000	-3.718215e+001	1.305278e+002
71750000	-3.727526e+001	1.298204e+002
72000000	-3.737656e+001	1.291111e+002
72250000	-3.747974e+001	1.283805e+002
72500000	-3.758514e+001	1.276974e+002
72750000	-3.768954e+001	1.269391e+002
73000000	-3.780444e+001	1.262057e+002
73250000	-3.790713e+001	1.255225e+002
73500000	-3.801731e+001	1.248122e+002
73750000	-3.813346e+001	1.241151e+002
74000000	-3.825189e+001	1.234120e+002
74250000	-3.837094e+001	1.227322e+002
74500000	-3.848914e+001	1.220808e+002
74750000	-3.861317e+001	1.213993e+002
75000000	-3.873658e+001	1.206980e+002
75250000	-3.886421e+001	1.200238e+002
75500000	-3.898761e+001	1.193528e+002
75750000	-3.912242e+001	1.187020e+002
76000000	-3.925112e+001	1.180349e+002
76250000	-3.938749e+001	1.173948e+002
76500000	-3.952502e+001	1.167477e+002
76750000	-3.966791e+001	1.160951e+002
77000000	-3.980894e+001	1.154762e+002
77250000	-3.995623e+001	1.148679e+002
77500000	-4.010250e+001	1.142174e+002
77750000	-4.026072e+001	1.136433e+002
78000000	-4.041377e+001	1.130371e+002
78250000	-4.056756e+001	1.124259e+002
78500000	-4.073296e+001	1.118626e+002
78750000	-4.089164e+001	1.112297e+002
79000000	-4.105576e+001	1.106924e+002
79250000	-4.123108e+001	1.101449e+002
79500000	-4.140754e+001	1.095759e+002
79750000	-4.158842e+001	1.090566e+002
80000000	-4.176860e+001	1.085574e+002
80250000	-4.194972e+001	1.080665e+002
80500000	-4.214960e+001	1.075564e+002
80750000	-4.234046e+001	1.070506e+002
81000000	-4.253732e+001	1.066343e+002
81250000	-4.274901e+001	1.061523e+002
81500000	-4.295372e+001	1.057280e+002
81750000	-4.316306e+001	1.053562e+002
82000000	-4.338252e+001	1.049869e+002
82250000	-4.360839e+001	1.046047e+002
82500000	-4.384439e+001	1.042484e+002
82750000	-4.407056e+001	1.039477e+002
83000000	-4.431922e+001	1.036852e+002
83250000	-4.456597e+001	1.034721e+002
83500000	-4.482124e+001	1.032568e+002
83750000	-4.508426e+001	1.030900e+002
84000000	-4.535377e+001	1.028895e+002
84250000	-4.563602e+001	1.028699e+002
84500000	-4.590581e+001	1.027737e+002
84750000	-4.620455e+001	1.027859e+002
85000000	-4.651925e+001	1.029619e+002
85250000	-4.682033e+001	1.029978e+002
85500000	-4.713550e+001	1.032475e+002
85750000	-4.747347e+001	1.035409e+002
86000000	-4.781424e+001	1.039383e+002
86250000	-4.814996e+001	1.044621e+002
86500000	-4.850181e+001	1.050048e+002
86750000	-4.889041e+001	1.056397e+002
87000000	-4.924405e+001	1.065160e+002
87250000	-4.963404e+001	1.075843e+002
87500000	-5.000472e+001	1.087745e+002
87750000	-5.042061e+001	1.100101e+002
88000000	-5.083005e+001	1.116875e+002
88250000	-5.123497e+001	1.133010e+002
88500000	-5.164456e+001	1.154189e+002
88750000	-5.203440e+001	1.177870e+002
89000000	-5.242808e+001	1.204659e+002
89250000	-5.278789e+001	1.233220e+002
89500000	-5.315784e+001	1.264901e+002
89750000	-5.343584e+001	1.301884e+002
90000000	-5.370442e+001	1.338452e+002
90250000	-5.392261e+001	1.381492e+002
90500000	-5.406341e+001	1.423765e+002
90750000	-5.413591e+001	1.466554e+002
91000000	-5.411427e+001	1.512631e+002
91250000	-5.406864e+001	1.557106e+002
91500000	-5.394037e+001	1.600697e+002
91750000	-5.374800e+001	1.641075e+002
92000000	-5.349325e+001	1.680845e+002
92250000	-5.319883e+001	1.714435e+002
92500000	-5.285122e+001	1.747282e+002
92750000	-5.252269e+001	1.777160e+002
93000000	-5.213762e+001	-1.798079e+002
93250000	-5.174767e+001	-1.773302e+002
93500000	-5.136168e+001	-1.754982e+002
93750000	-5.096021e+001	-1.735255e+002
94000000	-5.059050e+001	-1.720516e+002
94250000	-5.018444e+001	-1.707828e+002
94500000	-4.981024e+001	-1.695200e+002
94750000	-4.942456e+001	-1.685307e+002
95000000	-4.907622e+001	-1.675989e+002
95250000	-4.870534e+001	-1.670359e+002
95500000	-4.836647e+001	-1.663071e+002
95750000	-4.803162e+001	-1.658062e+002
96000000	-4.770013e+001	-1.655433e+002
96250000	-4.737932e+001	-1.652210e+002
96500000	-4.707166e+001	-1.650259e+002
96750000	-4.678872e+001	-1.648975e+002
97000000	-4.649264e+001	-1.647765e+002
97250000	-4.621508e+001	-1.647545e+002
97500000	-4.593563e+001	-1.648372e+002
97750000	-4.566726e+001	-1.649247e+002
98000000	-4.539324e+001	-1.650308e+002
98250000	-4.517024e+001	-1.651659e+002
98500000	-4.491608e+001	-1.654171e+002
98750000	-4.468084e+001	-1.656571e+002
99000000	-4.445558e+001	-1.659347e+002
99250000	-4.422535e+001	-1.662253e+002
99500000	-4.400855e+001	-1.665034e+002
99750000	-4.379314e+001	-1.669546e+002
100000000	-4.359141e+001	-1.672864e+002
