!Agilent Technologies,E5072A,MY51200456,A.01.06
!Date: Thu Sep 03 20:49:18 2015
!Data & Calibration Information:
!Freq	S11:SOLT1(ON)
!PortZ  Port1:50+j0
!Above PortZ is port z conversion or system Z0 setting when saving the data.
!When reading, reference impedance value at option line is always used.
# Hz S dB R 50
50000000	-3.309130e+001	-1.539746e+002
50250000	-3.310906e+001	-1.547180e+002
50500000	-3.312242e+001	-1.554589e+002
50750000	-3.313975e+001	-1.562053e+002
51000000	-3.315595e+001	-1.569331e+002
51250000	-3.317081e+001	-1.576850e+002
51500000	-3.319054e+001	-1.584142e+002
51750000	-3.320568e+001	-1.591645e+002
52000000	-3.322411e+001	-1.598915e+002
52250000	-3.324216e+001	-1.606480e+002
52500000	-3.325902e+001	-1.613851e+002
52750000	-3.327971e+001	-1.621272e+002
53000000	-3.329860e+001	-1.628620e+002
53250000	-3.331907e+001	-1.635826e+002
53500000	-3.333918e+001	-1.643281e+002
53750000	-3.335788e+001	-1.650493e+002
54000000	-3.337558e+001	-1.657887e+002
54250000	-3.340146e+001	-1.665100e+002
54500000	-3.342037e+001	-1.672298e+002
54750000	-3.344284e+001	-1.679723e+002
55000000	-3.346297e+001	-1.687257e+002
55250000	-3.348931e+001	-1.694185e+002
55500000	-3.351032e+001	-1.701428e+002
55750000	-3.353163e+001	-1.708758e+002
56000000	-3.355434e+001	-1.715987e+002
56250000	-3.358152e+001	-1.723013e+002
56500000	-3.360693e+001	-1.730327e+002
56750000	-3.362982e+001	-1.737618e+002
57000000	-3.365552e+001	-1.744769e+002
57250000	-3.368068e+001	-1.751997e+002
57500000	-3.370746e+001	-1.758940e+002
57750000	-3.373367e+001	-1.766278e+002
58000000	-3.376806e+001	-1.773248e+002
58250000	-3.378875e+001	-1.780380e+002
58500000	-3.381788e+001	-1.787634e+002
58750000	-3.384963e+001	-1.794742e+002
59000000	-3.387516e+001	1.798237e+002
59250000	-3.390440e+001	1.791003e+002
59500000	-3.393304e+001	1.784232e+002
59750000	-3.396216e+001	1.776872e+002
60000000	-3.399071e+001	1.770196e+002
60250000	-3.402363e+001	1.762851e+002
60500000	-3.405500e+001	1.755822e+002
60750000	-3.408662e+001	1.748799e+002
61000000	-3.411830e+001	1.741904e+002
61250000	-3.415083e+001	1.734750e+002
61500000	-3.418445e+001	1.727618e+002
61750000	-3.421849e+001	1.720845e+002
62000000	-3.425274e+001	1.713751e+002
62250000	-3.428541e+001	1.706917e+002
62500000	-3.432142e+001	1.700069e+002
62750000	-3.435880e+001	1.692921e+002
63000000	-3.439483e+001	1.686084e+002
63250000	-3.443046e+001	1.679247e+002
63500000	-3.446770e+001	1.672351e+002
63750000	-3.450606e+001	1.665346e+002
64000000	-3.454199e+001	1.658503e+002
64250000	-3.457999e+001	1.651656e+002
64500000	-3.462283e+001	1.644937e+002
64750000	-3.466088e+001	1.638147e+002
65000000	-3.469814e+001	1.631326e+002
65250000	-3.473962e+001	1.624119e+002
65500000	-3.477922e+001	1.617572e+002
65750000	-3.482362e+001	1.610687e+002
66000000	-3.486557e+001	1.604057e+002
66250000	-3.490827e+001	1.597115e+002
66500000	-3.495005e+001	1.590513e+002
66750000	-3.499606e+001	1.583830e+002
67000000	-3.503861e+001	1.577129e+002
67250000	-3.508390e+001	1.570199e+002
67500000	-3.513283e+001	1.563596e+002
67750000	-3.517772e+001	1.557033e+002
68000000	-3.522197e+001	1.550383e+002
68250000	-3.527062e+001	1.543721e+002
68500000	-3.532013e+001	1.536803e+002
68750000	-3.536799e+001	1.530395e+002
69000000	-3.541454e+001	1.523869e+002
69250000	-3.546379e+001	1.517407e+002
69500000	-3.551359e+001	1.510866e+002
69750000	-3.556665e+001	1.504316e+002
70000000	-3.561977e+001	1.497790e+002
70250000	-3.566912e+001	1.491164e+002
70500000	-3.573195e+001	1.484573e+002
70750000	-3.577853e+001	1.478394e+002
71000000	-3.583304e+001	1.471909e+002
71250000	-3.588601e+001	1.465523e+002
71500000	-3.594636e+001	1.459265e+002
71750000	-3.599821e+001	1.452450e+002
72000000	-3.605290e+001	1.446416e+002
72250000	-3.610994e+001	1.440070e+002
72500000	-3.616995e+001	1.434066e+002
72750000	-3.622951e+001	1.427516e+002
73000000	-3.629191e+001	1.421069e+002
73250000	-3.634829e+001	1.414737e+002
73500000	-3.640620e+001	1.408586e+002
73750000	-3.647386e+001	1.402272e+002
74000000	-3.653612e+001	1.395990e+002
74250000	-3.659974e+001	1.389888e+002
74500000	-3.666095e+001	1.384054e+002
74750000	-3.672670e+001	1.377985e+002
75000000	-3.679295e+001	1.371738e+002
75250000	-3.686548e+001	1.365581e+002
75500000	-3.692655e+001	1.359803e+002
75750000	-3.699677e+001	1.353583e+002
76000000	-3.706197e+001	1.347483e+002
76250000	-3.713259e+001	1.341648e+002
76500000	-3.720318e+001	1.335615e+002
76750000	-3.727881e+001	1.329946e+002
77000000	-3.735207e+001	1.324015e+002
77250000	-3.742218e+001	1.318236e+002
77500000	-3.749452e+001	1.312387e+002
77750000	-3.757466e+001	1.306614e+002
78000000	-3.764684e+001	1.301009e+002
78250000	-3.772490e+001	1.295033e+002
78500000	-3.780310e+001	1.289468e+002
78750000	-3.788293e+001	1.283699e+002
79000000	-3.795960e+001	1.278364e+002
79250000	-3.804204e+001	1.272531e+002
79500000	-3.812226e+001	1.267065e+002
79750000	-3.820753e+001	1.261771e+002
80000000	-3.829025e+001	1.256223e+002
80250000	-3.837236e+001	1.251017e+002
80500000	-3.846172e+001	1.245653e+002
80750000	-3.854662e+001	1.240163e+002
81000000	-3.863777e+001	1.235077e+002
81250000	-3.872895e+001	1.229800e+002
81500000	-3.881904e+001	1.224526e+002
81750000	-3.890645e+001	1.219763e+002
82000000	-3.899836e+001	1.214546e+002
82250000	-3.909126e+001	1.209563e+002
82500000	-3.918731e+001	1.204435e+002
82750000	-3.928236e+001	1.199333e+002
83000000	-3.938126e+001	1.194813e+002
83250000	-3.947776e+001	1.190065e+002
83500000	-3.957874e+001	1.185758e+002
83750000	-3.968130e+001	1.180835e+002
84000000	-3.977962e+001	1.175940e+002
84250000	-3.989271e+001	1.171685e+002
84500000	-3.998511e+001	1.167219e+002
84750000	-4.009898e+001	1.162863e+002
85000000	-4.020511e+001	1.158938e+002
85250000	-4.031231e+001	1.154467e+002
85500000	-4.042231e+001	1.150752e+002
85750000	-4.053760e+001	1.146378e+002
86000000	-4.064943e+001	1.142879e+002
86250000	-4.076128e+001	1.139099e+002
86500000	-4.087902e+001	1.135116e+002
86750000	-4.100184e+001	1.131289e+002
87000000	-4.111299e+001	1.127851e+002
87250000	-4.123474e+001	1.124975e+002
87500000	-4.135491e+001	1.121626e+002
87750000	-4.148264e+001	1.118084e+002
88000000	-4.160386e+001	1.115283e+002
88250000	-4.173341e+001	1.112213e+002
88500000	-4.186581e+001	1.109744e+002
88750000	-4.199025e+001	1.106526e+002
89000000	-4.212448e+001	1.104534e+002
89250000	-4.224547e+001	1.101978e+002
89500000	-4.239196e+001	1.099757e+002
89750000	-4.253060e+001	1.098496e+002
90000000	-4.265808e+001	1.096249e+002
90250000	-4.280321e+001	1.094837e+002
90500000	-4.294207e+001	1.093211e+002
90750000	-4.308310e+001	1.091872e+002
91000000	-4.322431e+001	1.091144e+002
91250000	-4.337533e+001	1.090092e+002
91500000	-4.352410e+001	1.089260e+002
91750000	-4.367082e+001	1.088991e+002
92000000	-4.382088e+001	1.088601e+002
92250000	-4.396948e+001	1.088654e+002
92500000	-4.411838e+001	1.089593e+002
92750000	-4.427395e+001	1.089661e+002
93000000	-4.442662e+001	1.090806e+002
93250000	-4.458424e+001	1.091938e+002
93500000	-4.473953e+001	1.093349e+002
93750000	-4.490145e+001	1.096046e+002
94000000	-4.505188e+001	1.097282e+002
94250000	-4.521089e+001	1.100543e+002
94500000	-4.537383e+001	1.103150e+002
94750000	-4.552662e+001	1.107256e+002
95000000	-4.569987e+001	1.109605e+002
95250000	-4.584285e+001	1.114692e+002
95500000	-4.600757e+001	1.119206e+002
95750000	-4.616693e+001	1.123796e+002
96000000	-4.630708e+001	1.129404e+002
96250000	-4.647958e+001	1.134735e+002
96500000	-4.662264e+001	1.141385e+002
96750000	-4.677088e+001	1.147053e+002
97000000	-4.692328e+001	1.155630e+002
97250000	-4.706756e+001	1.162990e+002
97500000	-4.719176e+001	1.171096e+002
97750000	-4.733141e+001	1.180142e+002
98000000	-4.745848e+001	1.190288e+002
98250000	-4.760056e+001	1.198322e+002
98500000	-4.770317e+001	1.208389e+002
98750000	-4.782177e+001	1.219576e+002
99000000	-4.792362e+001	1.229813e+002
99250000	-4.802228e+001	1.241562e+002
99500000	-4.811165e+001	1.254327e+002
99750000	-4.818529e+001	1.265148e+002
100000000	-4.825332e+001	1.277378e+002
