!Agilent Technologies,E5072A,MY51200456,A.01.06
!Date: Thu Sep 03 20:47:12 2015
!Data & Calibration Information:
!Freq	S11:SOLT1(ON)
!PortZ  Port1:50+j0
!Above PortZ is port z conversion or system Z0 setting when saving the data.
!When reading, reference impedance value at option line is always used.
# Hz S dB R 50
50000000	-3.323857e-001	1.480977e+002
50250000	-3.349501e-001	1.470477e+002
50500000	-3.372927e-001	1.459968e+002
50750000	-3.396254e-001	1.449463e+002
51000000	-3.421366e-001	1.438957e+002
51250000	-3.444988e-001	1.428459e+002
51500000	-3.468525e-001	1.417954e+002
51750000	-3.492067e-001	1.407445e+002
52000000	-3.515448e-001	1.396947e+002
52250000	-3.537037e-001	1.386443e+002
52500000	-3.560575e-001	1.375941e+002
52750000	-3.582494e-001	1.365437e+002
53000000	-3.604972e-001	1.354936e+002
53250000	-3.627075e-001	1.344429e+002
53500000	-3.648889e-001	1.333928e+002
53750000	-3.670796e-001	1.323416e+002
54000000	-3.692326e-001	1.312923e+002
54250000	-3.713400e-001	1.302406e+002
54500000	-3.734229e-001	1.291902e+002
54750000	-3.756084e-001	1.281399e+002
55000000	-3.775523e-001	1.270899e+002
55250000	-3.796407e-001	1.260383e+002
55500000	-3.816625e-001	1.249882e+002
55750000	-3.837762e-001	1.239381e+002
56000000	-3.857431e-001	1.228880e+002
56250000	-3.877604e-001	1.218367e+002
56500000	-3.897845e-001	1.207860e+002
56750000	-3.915308e-001	1.197355e+002
57000000	-3.934609e-001	1.186849e+002
57250000	-3.952150e-001	1.176339e+002
57500000	-3.971366e-001	1.165822e+002
57750000	-3.988128e-001	1.155313e+002
58000000	-4.008560e-001	1.144797e+002
58250000	-4.024636e-001	1.134280e+002
58500000	-4.041134e-001	1.123772e+002
58750000	-4.057604e-001	1.113253e+002
59000000	-4.076475e-001	1.102740e+002
59250000	-4.091865e-001	1.092224e+002
59500000	-4.109827e-001	1.081708e+002
59750000	-4.124098e-001	1.071192e+002
60000000	-4.141224e-001	1.060672e+002
60250000	-4.155020e-001	1.050152e+002
60500000	-4.171437e-001	1.039633e+002
60750000	-4.185358e-001	1.029117e+002
61000000	-4.201131e-001	1.018582e+002
61250000	-4.214934e-001	1.008070e+002
61500000	-4.228142e-001	9.975398e+001
61750000	-4.242951e-001	9.870152e+001
62000000	-4.256335e-001	9.764858e+001
62250000	-4.269947e-001	9.659673e+001
62500000	-4.282490e-001	9.554241e+001
62750000	-4.295148e-001	9.448949e+001
63000000	-4.308674e-001	9.343528e+001
63250000	-4.319036e-001	9.238252e+001
63500000	-4.330162e-001	9.132845e+001
63750000	-4.341360e-001	9.027435e+001
64000000	-4.353021e-001	8.922041e+001
64250000	-4.362468e-001	8.816635e+001
64500000	-4.373457e-001	8.711128e+001
64750000	-4.383203e-001	8.605672e+001
65000000	-4.393178e-001	8.500254e+001
65250000	-4.392783e-001	8.394839e+001
65500000	-4.401714e-001	8.289263e+001
65750000	-4.411586e-001	8.183749e+001
66000000	-4.419930e-001	8.078187e+001
66250000	-4.425462e-001	7.972654e+001
66500000	-4.433450e-001	7.866986e+001
66750000	-4.440948e-001	7.761292e+001
67000000	-4.448159e-001	7.655653e+001
67250000	-4.455055e-001	7.549975e+001
67500000	-4.463075e-001	7.444316e+001
67750000	-4.468989e-001	7.338660e+001
68000000	-4.474969e-001	7.232787e+001
68250000	-4.480543e-001	7.127137e+001
68500000	-4.484944e-001	7.021422e+001
68750000	-4.490642e-001	6.915683e+001
69000000	-4.493914e-001	6.809717e+001
69250000	-4.500150e-001	6.703821e+001
69500000	-4.503036e-001	6.597941e+001
69750000	-4.507511e-001	6.492138e+001
70000000	-4.511048e-001	6.386278e+001
70250000	-4.513709e-001	6.280277e+001
70500000	-4.517240e-001	6.173923e+001
70750000	-4.519851e-001	6.068033e+001
71000000	-4.522058e-001	5.962234e+001
71250000	-4.524417e-001	5.856226e+001
71500000	-4.526472e-001	5.749921e+001
71750000	-4.527413e-001	5.643640e+001
72000000	-4.529788e-001	5.537664e+001
72250000	-4.531015e-001	5.431761e+001
72500000	-4.531734e-001	5.325457e+001
72750000	-4.531478e-001	5.218947e+001
73000000	-4.532378e-001	5.112584e+001
73250000	-4.532772e-001	5.006609e+001
73500000	-4.532244e-001	4.900590e+001
73750000	-4.533329e-001	4.793847e+001
74000000	-4.532807e-001	4.687275e+001
74250000	-4.532029e-001	4.581058e+001
74500000	-4.531261e-001	4.474831e+001
74750000	-4.530152e-001	4.368239e+001
75000000	-4.527790e-001	4.261479e+001
75250000	-4.527311e-001	4.155021e+001
75500000	-4.524879e-001	4.048766e+001
75750000	-4.522030e-001	3.942075e+001
76000000	-4.519969e-001	3.835265e+001
76250000	-4.517176e-001	3.728698e+001
76500000	-4.515792e-001	3.622223e+001
76750000	-4.511829e-001	3.515343e+001
77000000	-4.509118e-001	3.408476e+001
77250000	-4.506677e-001	3.301929e+001
77500000	-4.504136e-001	3.195315e+001
77750000	-4.500391e-001	3.088317e+001
78000000	-4.497568e-001	2.981362e+001
78250000	-4.492806e-001	2.874581e+001
78500000	-4.490094e-001	2.767711e+001
78750000	-4.485971e-001	2.660572e+001
79000000	-4.480568e-001	2.553685e+001
79250000	-4.477283e-001	2.446805e+001
79500000	-4.473056e-001	2.339648e+001
79750000	-4.468939e-001	2.232487e+001
80000000	-4.464923e-001	2.125493e+001
80250000	-4.459525e-001	2.018477e+001
80500000	-4.455296e-001	1.911186e+001
80750000	-4.450547e-001	1.804035e+001
81000000	-4.445502e-001	1.697014e+001
81250000	-4.440210e-001	1.589739e+001
81500000	-4.435698e-001	1.482266e+001
81750000	-4.430626e-001	1.375078e+001
82000000	-4.425672e-001	1.267906e+001
82250000	-4.419971e-001	1.160474e+001
82500000	-4.414285e-001	1.052989e+001
82750000	-4.409441e-001	9.457604e+000
83000000	-4.405556e-001	8.383269e+000
83250000	-4.398943e-001	7.307206e+000
83500000	-4.393716e-001	6.233157e+000
83750000	-4.388874e-001	5.159227e+000
84000000	-4.383133e-001	4.082941e+000
84250000	-4.377847e-001	3.006510e+000
84500000	-4.372630e-001	1.932047e+000
84750000	-4.368420e-001	8.557527e-001
85000000	-4.362648e-001	-2.223430e-001
85250000	-4.358418e-001	-1.298471e+000
85500000	-4.353849e-001	-2.373900e+000
85750000	-4.348561e-001	-3.452182e+000
86000000	-4.342327e-001	-4.530521e+000
86250000	-4.337450e-001	-5.605786e+000
86500000	-4.332361e-001	-6.683057e+000
86750000	-4.326550e-001	-7.763376e+000
87000000	-4.322411e-001	-8.841633e+000
87250000	-4.318230e-001	-9.917759e+000
87500000	-4.313370e-001	-1.099562e+001
87750000	-4.308135e-001	-1.207665e+001
88000000	-4.304432e-001	-1.315493e+001
88250000	-4.300477e-001	-1.423271e+001
88500000	-4.296535e-001	-1.531404e+001
88750000	-4.292358e-001	-1.639429e+001
89000000	-4.287887e-001	-1.747288e+001
89250000	-4.284624e-001	-1.855278e+001
89500000	-4.280588e-001	-1.963413e+001
89750000	-4.276230e-001	-2.071427e+001
90000000	-4.273284e-001	-2.179377e+001
90250000	-4.268424e-001	-2.287507e+001
90500000	-4.265690e-001	-2.395566e+001
90750000	-4.263094e-001	-2.503558e+001
91000000	-4.259943e-001	-2.611680e+001
91250000	-4.256323e-001	-2.719839e+001
91500000	-4.253822e-001	-2.827978e+001
91750000	-4.253208e-001	-2.935971e+001
92000000	-4.250696e-001	-3.044251e+001
92250000	-4.248330e-001	-3.152452e+001
92500000	-4.247457e-001	-3.260507e+001
92750000	-4.244858e-001	-3.368698e+001
93000000	-4.243048e-001	-3.477050e+001
93250000	-4.240885e-001	-3.585186e+001
93500000	-4.239850e-001	-3.693302e+001
93750000	-4.238738e-001	-3.801620e+001
94000000	-4.237641e-001	-3.909817e+001
94250000	-4.237140e-001	-4.017982e+001
94500000	-4.236865e-001	-4.126150e+001
94750000	-4.236049e-001	-4.234597e+001
95000000	-4.236044e-001	-4.342696e+001
95250000	-4.237713e-001	-4.451037e+001
95500000	-4.238023e-001	-4.559186e+001
95750000	-4.238420e-001	-4.667386e+001
96000000	-4.239900e-001	-4.775705e+001
96250000	-4.240180e-001	-4.883899e+001
96500000	-4.241604e-001	-4.992298e+001
96750000	-4.244200e-001	-5.100529e+001
97000000	-4.245748e-001	-5.208875e+001
97250000	-4.247702e-001	-5.317073e+001
97500000	-4.250948e-001	-5.425246e+001
97750000	-4.253264e-001	-5.533521e+001
98000000	-4.254809e-001	-5.641740e+001
98250000	-4.257668e-001	-5.749968e+001
98500000	-4.261487e-001	-5.858300e+001
98750000	-4.265374e-001	-5.966538e+001
99000000	-4.268803e-001	-6.074712e+001
99250000	-4.272248e-001	-6.182947e+001
99500000	-4.276352e-001	-6.291175e+001
99750000	-4.281295e-001	-6.399374e+001
100000000	-4.286135e-001	-6.507604e+001
