!Agilent Technologies,E5072A,MY51200456,A.01.06
!Date: Thu Sep 03 20:48:12 2015
!Data & Calibration Information:
!Freq	S11:SOLT1(ON)
!PortZ  Port1:50+j0
!Above PortZ is port z conversion or system Z0 setting when saving the data.
!When reading, reference impedance value at option line is always used.
# Hz S dB R 50
50000000	-3.894997e-001	-3.386721e+001
50250000	-3.887901e-001	-3.493199e+001
50500000	-3.883261e-001	-3.599607e+001
50750000	-3.877939e-001	-3.706040e+001
51000000	-3.871782e-001	-3.812463e+001
51250000	-3.866615e-001	-3.919019e+001
51500000	-3.861777e-001	-4.025339e+001
51750000	-3.856764e-001	-4.131775e+001
52000000	-3.850843e-001	-4.238201e+001
52250000	-3.845408e-001	-4.344666e+001
52500000	-3.840730e-001	-4.451047e+001
52750000	-3.836817e-001	-4.557469e+001
53000000	-3.831803e-001	-4.663904e+001
53250000	-3.826307e-001	-4.770250e+001
53500000	-3.822029e-001	-4.876666e+001
53750000	-3.817063e-001	-4.983056e+001
54000000	-3.811213e-001	-5.089547e+001
54250000	-3.808604e-001	-5.195810e+001
54500000	-3.805344e-001	-5.302214e+001
54750000	-3.801532e-001	-5.408599e+001
55000000	-3.799151e-001	-5.515072e+001
55250000	-3.795548e-001	-5.621294e+001
55500000	-3.792519e-001	-5.727668e+001
55750000	-3.788033e-001	-5.834094e+001
56000000	-3.784826e-001	-5.940448e+001
56250000	-3.781833e-001	-6.046725e+001
56500000	-3.779493e-001	-6.153003e+001
56750000	-3.778068e-001	-6.259348e+001
57000000	-3.775041e-001	-6.365689e+001
57250000	-3.773814e-001	-6.471964e+001
57500000	-3.770797e-001	-6.578215e+001
57750000	-3.769272e-001	-6.684525e+001
58000000	-3.766073e-001	-6.790759e+001
58250000	-3.766967e-001	-6.897019e+001
58500000	-3.766507e-001	-7.003254e+001
58750000	-3.765821e-001	-7.109470e+001
59000000	-3.765022e-001	-7.215651e+001
59250000	-3.764960e-001	-7.321936e+001
59500000	-3.763454e-001	-7.428101e+001
59750000	-3.764623e-001	-7.534311e+001
60000000	-3.763459e-001	-7.640498e+001
60250000	-3.764877e-001	-7.746556e+001
60500000	-3.766325e-001	-7.852725e+001
60750000	-3.767510e-001	-7.958829e+001
61000000	-3.768457e-001	-8.064761e+001
61250000	-3.769463e-001	-8.171048e+001
61500000	-3.772518e-001	-8.277065e+001
61750000	-3.773385e-001	-8.383187e+001
62000000	-3.774732e-001	-8.489129e+001
62250000	-3.777460e-001	-8.595170e+001
62500000	-3.779848e-001	-8.701192e+001
62750000	-3.783412e-001	-8.807152e+001
63000000	-3.784473e-001	-8.913054e+001
63250000	-3.788489e-001	-9.019046e+001
63500000	-3.792474e-001	-9.124966e+001
63750000	-3.796131e-001	-9.230852e+001
64000000	-3.799022e-001	-9.336718e+001
64250000	-3.803966e-001	-9.442617e+001
64500000	-3.807787e-001	-9.548399e+001
64750000	-3.811860e-001	-9.654228e+001
65000000	-3.816632e-001	-9.760042e+001
65250000	-3.813972e-001	-9.865691e+001
65500000	-3.818838e-001	-9.971489e+001
65750000	-3.823993e-001	-1.007714e+002
66000000	-3.828109e-001	-1.018290e+002
66250000	-3.835248e-001	-1.028859e+002
66500000	-3.840279e-001	-1.039423e+002
66750000	-3.845121e-001	-1.049992e+002
67000000	-3.852020e-001	-1.060560e+002
67250000	-3.859605e-001	-1.071111e+002
67500000	-3.865728e-001	-1.081662e+002
67750000	-3.873508e-001	-1.092227e+002
68000000	-3.881592e-001	-1.102783e+002
68250000	-3.889846e-001	-1.113351e+002
68500000	-3.898406e-001	-1.123883e+002
68750000	-3.904653e-001	-1.134426e+002
69000000	-3.914547e-001	-1.144977e+002
69250000	-3.921670e-001	-1.155531e+002
69500000	-3.930761e-001	-1.166078e+002
69750000	-3.938817e-001	-1.176596e+002
70000000	-3.947083e-001	-1.187122e+002
70250000	-3.957624e-001	-1.197660e+002
70500000	-3.965332e-001	-1.208192e+002
70750000	-3.974344e-001	-1.218727e+002
71000000	-3.984898e-001	-1.229234e+002
71250000	-3.993433e-001	-1.239753e+002
71500000	-4.003296e-001	-1.250286e+002
71750000	-4.015490e-001	-1.260815e+002
72000000	-4.025122e-001	-1.271310e+002
72250000	-4.036091e-001	-1.281803e+002
72500000	-4.046787e-001	-1.292318e+002
72750000	-4.057640e-001	-1.302855e+002
73000000	-4.067419e-001	-1.313355e+002
73250000	-4.080894e-001	-1.323824e+002
73500000	-4.092913e-001	-1.334315e+002
73750000	-4.104169e-001	-1.344825e+002
74000000	-4.114653e-001	-1.355330e+002
74250000	-4.126790e-001	-1.365796e+002
74500000	-4.138292e-001	-1.376274e+002
74750000	-4.149228e-001	-1.386776e+002
75000000	-4.163149e-001	-1.397279e+002
75250000	-4.175746e-001	-1.407732e+002
75500000	-4.187824e-001	-1.418194e+002
75750000	-4.199122e-001	-1.428675e+002
76000000	-4.212936e-001	-1.439162e+002
76250000	-4.225403e-001	-1.449615e+002
76500000	-4.237920e-001	-1.460063e+002
76750000	-4.250405e-001	-1.470540e+002
77000000	-4.263911e-001	-1.481009e+002
77250000	-4.277413e-001	-1.491449e+002
77500000	-4.291104e-001	-1.501885e+002
77750000	-4.303513e-001	-1.512348e+002
78000000	-4.317175e-001	-1.522805e+002
78250000	-4.330505e-001	-1.533233e+002
78500000	-4.343554e-001	-1.543677e+002
78750000	-4.356695e-001	-1.554131e+002
79000000	-4.370472e-001	-1.564560e+002
79250000	-4.383546e-001	-1.574979e+002
79500000	-4.396980e-001	-1.585421e+002
79750000	-4.410239e-001	-1.595857e+002
80000000	-4.424633e-001	-1.606277e+002
80250000	-4.438844e-001	-1.616694e+002
80500000	-4.452034e-001	-1.627129e+002
80750000	-4.464807e-001	-1.637543e+002
81000000	-4.478619e-001	-1.647940e+002
81250000	-4.492478e-001	-1.658359e+002
81500000	-4.506200e-001	-1.668787e+002
81750000	-4.520061e-001	-1.679183e+002
82000000	-4.533632e-001	-1.689584e+002
82250000	-4.547055e-001	-1.699998e+002
82500000	-4.560947e-001	-1.710397e+002
82750000	-4.574592e-001	-1.720784e+002
83000000	-4.588425e-001	-1.731182e+002
83250000	-4.602217e-001	-1.741596e+002
83500000	-4.615341e-001	-1.751979e+002
83750000	-4.628519e-001	-1.762354e+002
84000000	-4.642067e-001	-1.772755e+002
84250000	-4.655541e-001	-1.783151e+002
84500000	-4.668332e-001	-1.793515e+002
84750000	-4.681770e-001	1.796101e+002
85000000	-4.694241e-001	1.785704e+002
85250000	-4.707619e-001	1.775325e+002
85500000	-4.720349e-001	1.764969e+002
85750000	-4.732631e-001	1.754582e+002
86000000	-4.745683e-001	1.744204e+002
86250000	-4.757284e-001	1.733847e+002
86500000	-4.770078e-001	1.723484e+002
86750000	-4.781633e-001	1.713101e+002
87000000	-4.794997e-001	1.702735e+002
87250000	-4.807596e-001	1.692389e+002
87500000	-4.817981e-001	1.682026e+002
87750000	-4.830276e-001	1.671652e+002
88000000	-4.843172e-001	1.661297e+002
88250000	-4.854197e-001	1.650952e+002
88500000	-4.866100e-001	1.640583e+002
88750000	-4.877519e-001	1.630223e+002
89000000	-4.889015e-001	1.619878e+002
89250000	-4.899636e-001	1.609525e+002
89500000	-4.910204e-001	1.599164e+002
89750000	-4.921621e-001	1.588817e+002
90000000	-4.931485e-001	1.578472e+002
90250000	-4.942664e-001	1.568123e+002
90500000	-4.951757e-001	1.557775e+002
90750000	-4.961370e-001	1.547447e+002
91000000	-4.971952e-001	1.537097e+002
91250000	-4.981492e-001	1.526741e+002
91500000	-4.991912e-001	1.516406e+002
91750000	-5.001613e-001	1.506071e+002
92000000	-5.010749e-001	1.495714e+002
92250000	-5.019328e-001	1.485372e+002
92500000	-5.027397e-001	1.475045e+002
92750000	-5.036691e-001	1.464698e+002
93000000	-5.045659e-001	1.454345e+002
93250000	-5.053243e-001	1.444009e+002
93500000	-5.061299e-001	1.433679e+002
93750000	-5.070118e-001	1.423333e+002
94000000	-5.076901e-001	1.412988e+002
94250000	-5.084264e-001	1.402670e+002
94500000	-5.091129e-001	1.392326e+002
94750000	-5.098861e-001	1.381977e+002
95000000	-5.107037e-001	1.371642e+002
95250000	-5.113042e-001	1.361313e+002
95500000	-5.119763e-001	1.350977e+002
95750000	-5.126462e-001	1.340641e+002
96000000	-5.132656e-001	1.330305e+002
96250000	-5.138177e-001	1.319961e+002
96500000	-5.143228e-001	1.309613e+002
96750000	-5.148229e-001	1.299268e+002
97000000	-5.154453e-001	1.288932e+002
97250000	-5.158843e-001	1.278593e+002
97500000	-5.164033e-001	1.268256e+002
97750000	-5.169007e-001	1.257924e+002
98000000	-5.173300e-001	1.247583e+002
98250000	-5.177666e-001	1.237226e+002
98500000	-5.180644e-001	1.226884e+002
98750000	-5.184706e-001	1.216536e+002
99000000	-5.188910e-001	1.206184e+002
99250000	-5.191460e-001	1.195842e+002
99500000	-5.195815e-001	1.185499e+002
99750000	-5.197026e-001	1.175147e+002
100000000	-5.200277e-001	1.164803e+002
