!Agilent Technologies,E5072A,MY51200456,A.01.06
!Date: Sat Sep 05 18:56:18 2015
!Data & Calibration Information:
!Freq	S11:SOLT1(ON)
!PortZ  Port1:50+j0
!Above PortZ is port z conversion or system Z0 setting when saving the data.
!When reading, reference impedance value at option line is always used.
# Hz S dB R 50
50000000	-4.076973e-001	-3.406602e+001
50250000	-4.072691e-001	-3.513111e+001
50500000	-4.069200e-001	-3.619499e+001
50750000	-4.066184e-001	-3.725933e+001
51000000	-4.062016e-001	-3.832340e+001
51250000	-4.059227e-001	-3.938861e+001
51500000	-4.055550e-001	-4.045157e+001
51750000	-4.052079e-001	-4.151605e+001
52000000	-4.049142e-001	-4.258005e+001
52250000	-4.045531e-001	-4.364420e+001
52500000	-4.042721e-001	-4.470762e+001
52750000	-4.039865e-001	-4.577103e+001
53000000	-4.037728e-001	-4.683494e+001
53250000	-4.032745e-001	-4.789787e+001
53500000	-4.030191e-001	-4.896104e+001
53750000	-4.027511e-001	-5.002460e+001
54000000	-4.023247e-001	-5.108872e+001
54250000	-4.021226e-001	-5.215084e+001
54500000	-4.018895e-001	-5.321384e+001
54750000	-4.016910e-001	-5.427708e+001
55000000	-4.014976e-001	-5.534106e+001
55250000	-4.012479e-001	-5.640218e+001
55500000	-4.010691e-001	-5.746502e+001
55750000	-4.007967e-001	-5.852811e+001
56000000	-4.005333e-001	-5.959048e+001
56250000	-4.003410e-001	-6.065220e+001
56500000	-4.001720e-001	-6.171407e+001
56750000	-4.000896e-001	-6.277636e+001
57000000	-3.999018e-001	-6.383807e+001
57250000	-3.998074e-001	-6.490002e+001
57500000	-3.995998e-001	-6.596123e+001
57750000	-3.994771e-001	-6.702276e+001
58000000	-3.993579e-001	-6.808383e+001
58250000	-3.993856e-001	-6.914506e+001
58500000	-3.993227e-001	-7.020602e+001
58750000	-3.993302e-001	-7.126673e+001
59000000	-3.992732e-001	-7.232698e+001
59250000	-3.992548e-001	-7.338799e+001
59500000	-3.991074e-001	-7.444834e+001
59750000	-3.992382e-001	-7.550875e+001
60000000	-3.991262e-001	-7.656866e+001
60250000	-3.992153e-001	-7.762807e+001
60500000	-3.993842e-001	-7.868823e+001
60750000	-3.994608e-001	-7.974733e+001
61000000	-3.993826e-001	-8.080496e+001
61250000	-3.996038e-001	-8.186593e+001
61500000	-3.998573e-001	-8.292456e+001
61750000	-3.998824e-001	-8.398376e+001
62000000	-4.000015e-001	-8.504156e+001
62250000	-4.001993e-001	-8.610017e+001
62500000	-4.003456e-001	-8.715840e+001
62750000	-4.006729e-001	-8.821599e+001
63000000	-4.006985e-001	-8.927290e+001
63250000	-4.009435e-001	-9.033074e+001
63500000	-4.013027e-001	-9.138785e+001
63750000	-4.015599e-001	-9.244467e+001
64000000	-4.017326e-001	-9.350158e+001
64250000	-4.021467e-001	-9.455857e+001
64500000	-4.024283e-001	-9.561425e+001
64750000	-4.027111e-001	-9.666994e+001
65000000	-4.031809e-001	-9.772656e+001
65250000	-4.029741e-001	-9.878069e+001
65500000	-4.033062e-001	-9.983624e+001
65750000	-4.036909e-001	-1.008914e+002
66000000	-4.039891e-001	-1.019466e+002
66250000	-4.045586e-001	-1.030005e+002
66500000	-4.049146e-001	-1.040544e+002
66750000	-4.052094e-001	-1.051094e+002
67000000	-4.057952e-001	-1.061642e+002
67250000	-4.063461e-001	-1.072171e+002
67500000	-4.067316e-001	-1.082696e+002
67750000	-4.073055e-001	-1.093234e+002
68000000	-4.078272e-001	-1.103773e+002
68250000	-4.084631e-001	-1.114318e+002
68500000	-4.091901e-001	-1.124832e+002
68750000	-4.095552e-001	-1.135343e+002
69000000	-4.103071e-001	-1.145863e+002
69250000	-4.108261e-001	-1.156402e+002
69500000	-4.115651e-001	-1.166934e+002
69750000	-4.121277e-001	-1.177433e+002
70000000	-4.127461e-001	-1.187920e+002
70250000	-4.135279e-001	-1.198429e+002
70500000	-4.139855e-001	-1.208950e+002
70750000	-4.146964e-001	-1.219480e+002
71000000	-4.154425e-001	-1.229960e+002
71250000	-4.162495e-001	-1.240439e+002
71500000	-4.168960e-001	-1.250940e+002
71750000	-4.178107e-001	-1.261469e+002
72000000	-4.185022e-001	-1.271959e+002
72250000	-4.193767e-001	-1.282413e+002
72500000	-4.201751e-001	-1.292882e+002
72750000	-4.209015e-001	-1.303404e+002
73000000	-4.215935e-001	-1.313914e+002
73250000	-4.225923e-001	-1.324362e+002
73500000	-4.235857e-001	-1.334791e+002
73750000	-4.242839e-001	-1.345277e+002
74000000	-4.250420e-001	-1.355785e+002
74250000	-4.259399e-001	-1.366245e+002
74500000	-4.268696e-001	-1.376679e+002
74750000	-4.276524e-001	-1.387140e+002
75000000	-4.286760e-001	-1.397648e+002
75250000	-4.296146e-001	-1.408105e+002
75500000	-4.305482e-001	-1.418518e+002
75750000	-4.314039e-001	-1.428968e+002
76000000	-4.324009e-001	-1.439452e+002
76250000	-4.332457e-001	-1.449903e+002
76500000	-4.341691e-001	-1.460314e+002
76750000	-4.352029e-001	-1.470756e+002
77000000	-4.360935e-001	-1.481228e+002
77250000	-4.370915e-001	-1.491652e+002
77500000	-4.381764e-001	-1.502047e+002
77750000	-4.390966e-001	-1.512489e+002
78000000	-4.401059e-001	-1.522951e+002
78250000	-4.410760e-001	-1.533359e+002
78500000	-4.420358e-001	-1.543768e+002
78750000	-4.429890e-001	-1.554212e+002
79000000	-4.441060e-001	-1.564644e+002
79250000	-4.450543e-001	-1.575033e+002
79500000	-4.460151e-001	-1.585449e+002
79750000	-4.469642e-001	-1.595890e+002
80000000	-4.480734e-001	-1.606297e+002
80250000	-4.491790e-001	-1.616684e+002
80500000	-4.500595e-001	-1.627104e+002
80750000	-4.510627e-001	-1.637516e+002
81000000	-4.520629e-001	-1.647893e+002
81250000	-4.531432e-001	-1.658277e+002
81500000	-4.541720e-001	-1.668710e+002
81750000	-4.551752e-001	-1.679103e+002
82000000	-4.562185e-001	-1.689478e+002
82250000	-4.571840e-001	-1.699872e+002
82500000	-4.582999e-001	-1.710287e+002
82750000	-4.593082e-001	-1.720657e+002
83000000	-4.602768e-001	-1.731023e+002
83250000	-4.613747e-001	-1.741438e+002
83500000	-4.623480e-001	-1.751827e+002
83750000	-4.634215e-001	-1.762171e+002
84000000	-4.644289e-001	-1.772558e+002
84250000	-4.653845e-001	-1.782956e+002
84500000	-4.664479e-001	-1.793310e+002
84750000	-4.674376e-001	1.796339e+002
85000000	-4.684590e-001	1.785935e+002
85250000	-4.693845e-001	1.775548e+002
85500000	-4.704195e-001	1.765214e+002
85750000	-4.712669e-001	1.754848e+002
86000000	-4.723297e-001	1.744450e+002
86250000	-4.732114e-001	1.734095e+002
86500000	-4.742613e-001	1.723758e+002
86750000	-4.750876e-001	1.713376e+002
87000000	-4.760554e-001	1.702998e+002
87250000	-4.770139e-001	1.692670e+002
87500000	-4.778218e-001	1.682334e+002
87750000	-4.788058e-001	1.671953e+002
88000000	-4.797878e-001	1.661594e+002
88250000	-4.806725e-001	1.651270e+002
88500000	-4.816469e-001	1.640910e+002
88750000	-4.825424e-001	1.630535e+002
89000000	-4.834608e-001	1.620197e+002
89250000	-4.842187e-001	1.609856e+002
89500000	-4.850749e-001	1.599488e+002
89750000	-4.859301e-001	1.589136e+002
90000000	-4.867984e-001	1.578796e+002
90250000	-4.875953e-001	1.568452e+002
90500000	-4.883705e-001	1.558096e+002
90750000	-4.890873e-001	1.547774e+002
91000000	-4.899392e-001	1.537440e+002
91250000	-4.906346e-001	1.527079e+002
91500000	-4.915365e-001	1.516740e+002
91750000	-4.923043e-001	1.506419e+002
92000000	-4.930217e-001	1.496068e+002
92250000	-4.936958e-001	1.485709e+002
92500000	-4.944348e-001	1.475389e+002
92750000	-4.951182e-001	1.465056e+002
93000000	-4.958621e-001	1.454688e+002
93250000	-4.964640e-001	1.444334e+002
93500000	-4.971047e-001	1.434014e+002
93750000	-4.977601e-001	1.423672e+002
94000000	-4.983843e-001	1.413309e+002
94250000	-4.989977e-001	1.402991e+002
94500000	-4.995367e-001	1.392661e+002
94750000	-5.001585e-001	1.382309e+002
95000000	-5.008702e-001	1.371966e+002
95250000	-5.013826e-001	1.361628e+002
95500000	-5.019627e-001	1.351298e+002
95750000	-5.025333e-001	1.340967e+002
96000000	-5.030151e-001	1.330635e+002
96250000	-5.034200e-001	1.320288e+002
96500000	-5.038586e-001	1.309936e+002
96750000	-5.042434e-001	1.299581e+002
97000000	-5.048070e-001	1.289238e+002
97250000	-5.052058e-001	1.278892e+002
97500000	-5.055726e-001	1.268557e+002
97750000	-5.060504e-001	1.258225e+002
98000000	-5.064788e-001	1.247887e+002
98250000	-5.068485e-001	1.237533e+002
98500000	-5.071146e-001	1.227184e+002
98750000	-5.074466e-001	1.216826e+002
99000000	-5.077490e-001	1.206461e+002
99250000	-5.080944e-001	1.196124e+002
99500000	-5.085175e-001	1.185774e+002
99750000	-5.085816e-001	1.175426e+002
100000000	-5.089250e-001	1.165079e+002
