# Hz S RI R 50
40000000	7.8393711525192E-03	-1.66523736004924E-02
40250000	7.63362008961573E-03	-1.66802288232821E-02
40500000	7.42858038266078E-03	-1.67063347809496E-02
40750000	7.22304783197826E-03	-1.67290950508862E-02
41000000	7.01416773312597E-03	-1.67476582139223E-02
41250000	6.80700555988409E-03	-1.67639023128408E-02
41500000	6.60017505721732E-03	-1.67773046242183E-02
41750000	6.39235568079641E-03	-0.016788254066257
42000000	6.18491655549264E-03	-1.67958119740332E-02
42250000	5.97570645372928E-03	-1.68012551079809E-02
42500000	5.76470576503724E-03	-0.016802853287203
42750000	5.55705556037983E-03	-1.68017627122292E-02
43000000	5.34959118889933E-03	-1.67975264133932E-02
43250000	5.13880170847607E-03	-1.67887651007247E-02
43500000	4.93055797669796E-03	-0.016779263768124
43750000	4.72159952059186E-03	-1.67660205604781E-02
44000000	4.51284590362464E-03	-1.67484220013678E-02
44250000	4.30485053883759E-03	-1.67300729688935E-02
44500000	4.09602952920956E-03	-1.67083612811292E-02
44750000	3.88697733208611E-03	-0.016681572582808
45000000	3.67850181512686E-03	-1.66533564524861E-02
45250000	3.47058813943339E-03	-1.66209902112334E-02
45500000	3.26377564811605E-03	-1.65886244265375E-02
45750000	3.0558051868689E-03	-1.65498596560983E-02
46000000	2.84966733082839E-03	-1.65100805953378E-02
46250000	2.64501886563461E-03	-1.64671232755756E-02
46500000	2.43942051423393E-03	-1.64210891299717E-02
46750000	2.23431226242483E-03	-1.63719548719871E-02
47000000	2.03072470658514E-03	-1.63174319437984E-02
47250000	1.82676702007528E-03	-1.62644920834366E-02
47500000	1.6236258372943E-03	-1.62044434329481E-02
47750000	1.42106091774886E-03	-1.61440481268505E-02
48000000	1.2193416418175E-03	-1.60811164325636E-02
48250000	1.01952910518355E-03	-1.60151084457983E-02
48500000	8.19413295745949E-04	-1.59442699336554E-02
48750000	6.20849665190524E-04	-1.58728429924299E-02
49000000	4.23361035427347E-04	-1.57957822835381E-02
49250000	2.28210935021084E-04	-1.57183081294899E-02
49500000	3.13745911645411E-05	-1.56361583570812E-02
49750000	-1.62793323177325E-04	-1.55531702277479E-02
50000000	-3.55510567092493E-04	-1.54668386499482E-02
50250000	-5.496621032018E-04	-1.53759607598781E-02
50500000	-7.39256034899277E-04	-0.015286627652605
50750000	-9.29340173220438E-04	-0.015189486057164
51000000	-1.11600864658736E-03	-1.50927722714569E-02
51250000	-1.30321655173801E-03	-1.49930224124027E-02
51500000	-1.48981185678145E-03	-1.48902056403526E-02
51750000	-1.67428076037346E-03	-1.47831723725213E-02
52000000	-1.85638192897493E-03	-1.46749915197378E-02
52250000	-2.03840333088256E-03	-1.45646556827296E-02
52500000	-2.21816840385328E-03	-1.44512141107338E-02
52750000	-2.39637693324562E-03	-1.43332932431031E-02
53000000	-2.57193677430727E-03	-1.42152277944472E-02
53250000	-2.7474998880603E-03	-1.40945751382989E-02
53500000	-2.91843205220301E-03	-1.39713659582278E-02
53750000	-3.09093758454853E-03	-1.38442149391056E-02
54000000	-3.26010502798273E-03	-1.37162377213718E-02
54250000	-3.42888203997874E-03	-0.013583955908312
54500000	-3.59374448672579E-03	-1.34518107544529E-02
54750000	-3.7578208282426E-03	-0.013316193192452
55000000	-3.91962093785466E-03	-0.013176264482494
55250000	-4.07949488204796E-03	-0.013035628324406
55500000	-4.23767288692095E-03	-1.28939729290588E-02
55750000	-4.39395936596069E-03	-1.27459961910998E-02
56000000	-4.54794629976583E-03	-1.26007915819198E-02
56250000	-4.69973886144129E-03	-0.012450738140198
56500000	-4.84812539689053E-03	-1.22985225998772E-02
56750000	-4.99653593089879E-03	-1.21474172947356E-02
57000000	-5.14180651857541E-03	-1.19885933670864E-02
57250000	-5.28554788931842E-03	-1.18315075478898E-02
57500000	-5.42595334502675E-03	-1.16705855656577E-02
57750000	-5.5632893337988E-03	-1.15090003413775E-02
58000000	-5.70162067298054E-03	-0.011344331020878
58250000	-5.83393962946929E-03	-1.11793671709261E-02
58500000	-5.96641311615301E-03	-1.10113284659726E-02
58750000	-6.09475277803447E-03	-1.08403046506676E-02
59000000	-6.22137597334452E-03	-1.06684793573396E-02
59250000	-6.34621359374554E-03	-0.010496170204566
59500000	-6.46926403401853E-03	-1.03210263682243E-02
59750000	-6.5876298856586E-03	-1.01422056800809E-02
60000000	-6.70403552319988E-03	-9.96427977824201E-03
60250000	-6.81897543809197E-03	-9.78435150152521E-03
60500000	-6.92957722990425E-03	-9.60125308916945E-03
60750000	-7.03727985989488E-03	-9.4186150473166E-03
61000000	-7.14325316241733E-03	-9.23288023627235E-03
61250000	-7.24829550714388E-03	-9.04596622973831E-03
61500000	-7.34961440384166E-03	-8.85800264773404E-03
61750000	-0.007446935604945	-8.6688875950213E-03
62000000	-7.54212719206298E-03	-8.47850276735897E-03
62250000	-7.63746667960356E-03	-8.28656130370688E-03
62500000	-7.72628431318229E-03	-8.09198574400724E-03
62750000	-7.81484721348693E-03	-7.89737792108038E-03
63000000	-7.89748445770756E-03	-7.70133268532046E-03
63250000	-7.98008649452291E-03	-7.50562923259728E-03
63500000	-8.05873234888797E-03	-7.30716682298466E-03
63750000	-8.13458052115294E-03	-7.10780247253868E-03
64000000	-8.20947886096065E-03	-6.9051667437097E-03
64250000	-8.27891839778312E-03	-6.70443764688267E-03
64500000	-8.34692801466736E-03	-6.50345387292328E-03
64750000	-8.41096018611428E-03	-6.29807350554125E-03
65000000	-8.47386887061421E-03	-6.09494636062113E-03
65250000	-8.53097297021676E-03	-5.8892516992587E-03
65500000	-8.58654674266901E-03	-5.68445366946958E-03
65750000	-8.63952899928459E-03	-5.47692353559551E-03
66000000	-8.69156867461884E-03	-5.26959202849321E-03
66250000	-8.73671436661653E-03	-5.0625421234771E-03
66500000	-8.78069073638147E-03	-4.85372524155356E-03
66750000	-8.82240334772111E-03	-4.6430863725544E-03
67000000	-8.85993752547414E-03	-4.43325601648082E-03
67250000	-8.89558422007877E-03	-4.22271411837446E-03
67500000	-8.92728725679115E-03	-4.01280267778964E-03
67750000	-8.95635981020682E-03	-3.80091557886327E-03
68000000	-8.98152401386288E-03	-3.59085772432442E-03
68250000	-9.00541249590963E-03	-3.3771520776007E-03
68500000	-9.02549094988036E-03	-3.16455473008309E-03
68750000	-9.04231514410131E-03	-2.95336101840484E-03
69000000	-9.05437649483868E-03	-2.74010362245166E-03
69250000	-9.06749499521424E-03	-2.5267755166605E-03
69500000	-9.07471393942428E-03	-2.31375756347243E-03
69750000	-9.07913970693678E-03	-2.10086295809716E-03
70000000	-9.08002149334756E-03	-1.88971956252253E-03
70250000	-9.07928075141247E-03	-1.6759536759582E-03
70500000	-9.07629942944909E-03	-1.46293682690826E-03
70750000	-9.06890538073516E-03	-1.24994598468715E-03
71000000	-9.0586294869414E-03	-1.03617009923265E-03
71250000	-9.04326467138264E-03	-8.24085657490414E-04
71500000	-9.02857819139227E-03	-6.12961183535857E-04
71750000	-9.00871646156299E-03	-4.00792405233315E-04
72000000	-8.98772388205371E-03	-1.89304530553245E-04
72250000	-8.96087933519267E-03	2.19419424454917E-05
72500000	-8.93344314822653E-03	2.3377264052316E-04
72750000	-8.90311614476392E-03	4.43895198877457E-04
73000000	-8.86613903851983E-03	6.53457412669822E-04
73250000	-8.82922144748815E-03	8.63468332131693E-04
73500000	-8.78849223026379E-03	1.07143533468519E-03
73750000	-8.74586668717696E-03	1.27903843507474E-03
74000000	-8.70072514463296E-03	1.48619260003568E-03
74250000	-8.64940972449667E-03	1.69168481283241E-03
74500000	-8.59944393828793E-03	1.89816336513815E-03
74750000	-8.54361264400189E-03	0.002104322380833
75000000	-8.48630443368536E-03	2.30746501314198E-03
75250000	-8.4244795812208E-03	2.51170818140015E-03
75500000	-8.36229457353049E-03	2.71530570747451E-03
75750000	-8.29441461097116E-03	2.91469305547839E-03
76000000	-8.22667242707527E-03	3.11570311784184E-03
76250000	-8.15420853534972E-03	3.31457776937104E-03
76500000	-8.0800935787517E-03	3.51326332836872E-03
76750000	-8.00095973567053E-03	3.71105057881274E-03
77000000	-7.92004271242153E-03	3.90868550370816E-03
77250000	-7.83682959864418E-03	4.1034788335127E-03
77500000	-7.75097392152911E-03	4.29649024735125E-03
77750000	-7.66261134824085E-03	4.4896100980787E-03
78000000	-7.57141477488843E-03	4.67910278428972E-03
78250000	-7.47761028942933E-03	4.86932022159053E-03
78500000	-7.38011887957774E-03	5.05909292948047E-03
78750000	-7.28176716002769E-03	5.24480338592295E-03
79000000	-7.17956010107115E-03	5.42923035593712E-03
79250000	-7.07453705963726E-03	5.61510229316011E-03
79500000	-6.96731857956705E-03	5.79597933739701E-03
79750000	-6.85906928080018E-03	5.97866825961039E-03
80000000	-6.74601343368352E-03	6.15738234153032E-03
80250000	-6.63099691317189E-03	6.33418318995333E-03
80500000	-6.51456726398154E-03	6.51240997720295E-03
80750000	-6.39488405641854E-03	6.68605696148801E-03
81000000	-6.27352090963457E-03	6.85701952462004E-03
81250000	-6.14805871972909E-03	7.02736842295908E-03
81500000	-6.02087329811049E-03	7.19750822154342E-03
81750000	-5.8932589117249E-03	7.36501858832086E-03
82000000	-5.76360751850898E-03	7.53082298895904E-03
82250000	-5.62655895018638E-03	7.69237288941083E-03
82500000	-5.49114797563148E-03	7.85347147234623E-03
82750000	-5.35377907449875E-03	8.01401820578884E-03
83000000	-5.21306359242893E-03	8.16984868115405E-03
83250000	-5.07001584160112E-03	8.32556175034888E-03
83500000	-4.92549792197597E-03	8.47828520709333E-03
83750000	-4.77819099445971E-03	8.6294085501824E-03
84000000	-4.63055364357759E-03	8.77890890621422E-03
84250000	-4.47964847570249E-03	8.92705094118444E-03
84500000	-4.32607408868084E-03	9.0711060902029E-03
84750000	-4.17120865884932E-03	9.21370703904038E-03
85000000	-4.01467202985482E-03	9.3540792695579E-03
85250000	-3.8566081380085E-03	9.49177140010097E-03
85500000	-3.69577189746216E-03	9.62948417316871E-03
85750000	-3.53415959193505E-03	9.76195142936839E-03
86000000	-3.3691471388472E-03	9.89408570443201E-03
86250000	-3.20408062136387E-03	1.00215290499327E-02
86500000	-3.03652679572402E-03	1.01482003539913E-02
86750000	-2.86533190471288E-03	1.02724875538446E-02
87000000	-2.69666073358592E-03	1.03952871402988E-02
87250000	-2.52153337105363E-03	1.05123428306825E-02
87500000	-2.34712548580057E-03	1.06303184427673E-02
87750000	-2.17157389325971E-03	1.07445728793592E-02
88000000	-1.99524530623246E-03	1.08569432256104E-02
88250000	-1.8160065466654E-03	1.09638511947568E-02
88500000	-1.63524393364653E-03	1.10723875817783E-02
88750000	-1.45283476118019E-03	1.11759751418306E-02
89000000	-1.2703950533141E-03	1.12775125607276E-02
89250000	-1.08499313756212E-03	1.13779048594757E-02
89500000	-9.00837776388383E-04	1.14730469526169E-02
89750000	-7.11765326668274E-04	1.15662315272964E-02
90000000	-5.23823451530315E-04	1.16580239487656E-02
90250000	-3.34531195867427E-04	1.17465622030847E-02
90500000	-1.45547518689177E-04	1.18318458078898E-02
90750000	4.6934866273418E-05	1.19151612927564E-02
91000000	2.394873637308E-04	1.19962419473623E-02
91250000	4.33876036756635E-04	1.20713125256369E-02
91500000	6.2835344736117E-04	1.21473067677757E-02
91750000	8.24122712640486E-04	1.22195923328582E-02
92000000	1.02018408147365E-03	1.22877396066524E-02
92250000	1.21879545432747E-03	1.23549998150752E-02
92500000	0.001416976535457	1.24191674893194E-02
92750000	1.61634740170446E-03	1.24816719766314E-02
93000000	1.81533549042652E-03	1.25393854817183E-02
93250000	2.01633822124337E-03	0.012596098750749
93500000	2.21771449064448E-03	1.26493209933315E-02
93750000	2.42074641288584E-03	0.012699769029739
94000000	2.62221421482586E-03	1.27448191800379E-02
94250000	2.82554121100633E-03	1.27892869459069E-02
94500000	3.02893876421398E-03	1.28323397632573E-02
94750000	3.23360777016387E-03	1.28697051924912E-02
95000000	3.43851232352067E-03	1.29067470744291E-02
95250000	3.64313357947092E-03	1.29394100407893E-02
95500000	3.84715607176844E-03	1.29688831900715E-02
95750000	4.05353179753294E-03	1.29960738861214E-02
96000000	4.2589022556953E-03	1.30210576207141E-02
96250000	4.46562926236234E-03	1.30431959288621E-02
96500000	4.67187761253727E-03	1.30620375240791E-02
96750000	4.8781896058252E-03	1.30771520916515E-02
97000000	5.08473096368436E-03	1.30913553964762E-02
97250000	5.29135969206765E-03	1.31013851673142E-02
97500000	5.49849259385616E-03	1.31094935386481E-02
97750000	5.70301529076441E-03	1.31127800203985E-02
98000000	5.90991997279081E-03	1.31146680130873E-02
98250000	6.11749390740385E-03	1.31140821348493E-02
98500000	6.32248371775502E-03	1.31106276528934E-02
98750000	6.52952853430508E-03	1.31021787266484E-02
99000000	6.73535789609528E-03	1.30946726570298E-02
99250000	6.94080537288228E-03	1.30810283160327E-02
99500000	7.1450188546809E-03	1.30684370860693E-02
99750000	7.35256921461724E-03	1.30511914605517E-02
100000000	7.55653810154101E-03	0.01302995316017
100250000	7.76104269040627E-03	0.013005422683839
100500000	7.96385550011082E-03	1.29803708345348E-02
100750000	8.16807001207889E-03	1.29508533481806E-02
101000000	8.37046846038882E-03	1.29203183638848E-02
101250000	8.57171834081806E-03	1.28840154590018E-02
101500000	8.77366709612489E-03	1.28481275144608E-02
101750000	8.97564162810308E-03	0.012808409683899
102000000	9.17476044055206E-03	1.27660875833535E-02
102250000	9.37507669249263E-03	1.27208227743789E-02
102500000	9.57505804695164E-03	1.26717541571841E-02
102750000	9.77272825692384E-03	1.26224131880415E-02
103000000	9.97097822373673E-03	1.25698052644851E-02
103250000	1.01665607359137E-02	1.25140858498409E-02
103500000	1.03627033096262E-02	1.24554567065552E-02
103750000	1.05574532674997E-02	1.23942098988466E-02
104000000	1.07499979203663E-02	1.23306200792684E-02
104250000	1.09416758213826E-02	1.22659163837751E-02
104500000	1.11343491956458E-02	1.21971805157579E-02
104750000	1.13248684192592E-02	1.21260894909082E-02
105000000	1.15159857785901E-02	1.20520433186295E-02
105250000	1.17030869879264E-02	1.19766939339576E-02
105500000	1.18888602273047E-02	1.18954255529901E-02
105750000	1.20762553103957E-02	1.18156091160028E-02
106000000	1.22619493724563E-02	1.17321693895064E-02
106250000	0.012444947798789	1.16464457117194E-02
106500000	1.26285513975103E-02	1.15570266307078E-02
106750000	1.28084941968783E-02	1.14671140358908E-02
107000000	1.29889808046381E-02	1.13743254494099E-02
107250000	1.31670284457124E-02	0.011278650679778
107500000	1.33436557864888E-02	1.11809586575947E-02
107750000	1.35192125128519E-02	1.10810926735415E-02
108000000	1.36930873471579E-02	0.010979320529481
108250000	0.013864708836102	1.08758156275425E-02
108500000	1.40347531602337E-02	1.07684151952383E-02
108750000	1.42048825664394E-02	1.06592637648233E-02
109000000	1.43728238984753E-02	1.05484034854331E-02
109250000	0.014538310089324	1.04347148965724E-02
109500000	1.47022241712315E-02	1.03204418403883E-02
109750000	1.48654969031934E-02	1.02028149237754E-02
110000000	1.50265623468807E-02	1.00826018524256E-02
110250000	1.51848864768469E-02	9.9629125624754E-03
110500000	0.015344138026474	9.83685347229973E-03
110750000	1.54993595492463E-02	9.71251397652093E-03
111000000	0.015654236082249	9.58611908029903E-03
111250000	1.58049101938268E-02	9.45699676259835E-03
111500000	1.59550993242455E-02	9.32440167450979E-03
111750000	1.61064397316449E-02	9.19087474946032E-03
112000000	1.62511077535404E-02	9.05624951100925E-03
112250000	1.63949662730517E-02	8.92014404152692E-03
112500000	1.65383070023487E-02	8.78271454808863E-03
112750000	0.016677972435968	8.64247598444504E-03
113000000	1.68185005721689E-02	8.49871291462382E-03
113250000	0.016954823989101	8.35611197079691E-03
113500000	0.017090025956177	8.21072317787176E-03
113750000	1.72223668553293E-02	8.06491742115803E-03
114000000	0.017352700242995	7.91518560344854E-03
114250000	1.74814652341983E-02	7.76432345942292E-03
114500000	1.76077401243524E-02	7.61470022428912E-03
114750000	1.77320502838313E-02	7.46083982803225E-03
115000000	1.78545674025219E-02	7.30617564225828E-03
115250000	1.79741333194199E-02	7.1498234223883E-03
115500000	1.80914120193862E-02	6.99310903066326E-03
115750000	1.82074066267771E-02	6.83449365815584E-03
116000000	1.83198186589952E-02	6.67438373628866E-03
116250000	1.84317336152634E-02	6.51278522632958E-03
116500000	1.85408249878236E-02	6.34986653346683E-03
116750000	1.86477363106339E-02	6.18681939999585E-03
117000000	1.87520654027104E-02	6.02155311373223E-03
117250000	1.88528721248841E-02	5.85616611662658E-03
117500000	1.89548016654242E-02	5.68692717266616E-03
117750000	1.90498493265483E-02	5.52021604950006E-03
118000000	1.91488392642468E-02	5.35000804070823E-03
118250000	1.92401144647625E-02	5.17940930105089E-03
118500000	1.93316000459839E-02	5.00853750600503E-03
118750000	1.94170873049107E-02	4.83654419148135E-03
119000000	1.95064562223286E-02	4.66217784173089E-03
119250000	1.95898420161671E-02	4.48920562192598E-03
119500000	1.96691421506752E-02	4.31288705752785E-03
119750000	1.97498640254151E-02	4.13564849320277E-03
120000000	1.98241497057841E-02	3.96096621678248E-03
120250000	1.99009644625774E-02	3.78156208999486E-03
120500000	1.99708150552952E-02	3.60527866149408E-03
120750000	2.00393800118688E-02	3.42506662573976E-03
121000000	2.01076247011759E-02	3.24659514279096E-03
121250000	2.01717764915043E-02	3.06614828635679E-03
121500000	2.02331216518133E-02	2.88551261452289E-03
121750000	2.02933788305632E-02	2.70420470121885E-03
122000000	2.03519420700348E-02	2.52233702247045E-03
122250000	2.04051905282403E-02	2.34085896694475E-03
122500000	2.04572347917243E-02	2.15646949082546E-03
122750000	2.05072171077519E-02	0.001974931424093
123000000	2.05560704446522E-02	1.79093707243347E-03
123250000	2.06010910670899E-02	1.60757009251017E-03
123500000	2.06433765863503E-02	1.4232581111606E-03
123750000	2.06845370602349E-02	1.23989293502669E-03
124000000	2.07212306736811E-02	1.05334547005428E-03
124250000	2.07584681459899E-02	8.68158912817585E-04
124500000	2.07896652344376E-02	6.84201298557152E-04
124750000	2.08212958997589E-02	4.99230226255873E-04
125000000	2.08502634179924E-02	3.15327221453381E-04
125250000	2.08752105526912E-02	1.3025544841529E-04
125500000	2.08990675048838E-02	-5.5815850869992E-05
125750000	2.09197350721355E-02	-2.40813807531642E-04
126000000	0.020939713463791	-4.25242128631223E-04
126250000	2.09544788151672E-02	-6.12896808701504E-04
126500000	2.09691837916509E-02	-7.94871356177833E-04
126750000	2.09811881541756E-02	-9.80947389917603E-04
127000000	2.09889578231763E-02	-1.16774734671296E-03
127250000	2.09970089439092E-02	-1.35004642458777E-03
127500000	2.10018523716055E-02	-1.53461791275575E-03
127750000	2.10020947698856E-02	-1.71861980381109E-03
128000000	2.10038449209618E-02	-1.90244443343168E-03
128250000	0.021002138281598	-2.08693263493287E-03
128500000	2.09952931673278E-02	-2.27175153358622E-03
128750000	2.09899576887347E-02	-2.45055447843964E-03
129000000	2.09806875662543E-02	-2.63387457522942E-03
129250000	2.09688326163233E-02	-2.81415757270953E-03
129500000	2.09541455975441E-02	-2.99624544897924E-03
129750000	2.09388612963055E-02	-3.17765010603338E-03
130000000	2.09208427034582E-02	-3.3564735151395E-03
130250000	2.09005229467847E-02	-3.53586027489396E-03
130500000	2.08774188667563E-02	-3.71531360241397E-03
130750000	2.08519187675159E-02	-3.89375090946162E-03
131000000	2.08230593154439E-02	-4.07219733950473E-03
131250000	2.07975464830483E-02	-4.2501211510604E-03
131500000	2.07631778191706E-02	-4.42438879503725E-03
131750000	2.07313236196785E-02	-4.60179996140972E-03
132000000	2.06942572884825E-02	-4.77581333321845E-03
132250000	2.06576068072687E-02	-4.95014618761752E-03
132500000	2.06169842941358E-02	-5.12291174308935E-03
132750000	2.05742011571884E-02	-5.2944627928879E-03
133000000	2.05325351433825E-02	-5.46698449046262E-03
133250000	2.04876445797441E-02	-5.63709269704727E-03
133500000	2.04371523824922E-02	-5.80633435121409E-03
133750000	2.03857012534084E-02	-5.9743306484858E-03
134000000	2.03341671559026E-02	-6.14268749602745E-03
134250000	2.02804590900449E-02	-6.30967973688297E-03
