# Hz S RI R 50
40000000	8.27226543986703E-03	-1.51913423968077E-02
40250000	8.11455128923193E-03	-1.52160839615216E-02
40500000	7.95505669124731E-03	-1.52398767385871E-02
40750000	7.79597553886718E-03	-1.52624814646614E-02
41000000	7.63559248084915E-03	-1.52818660622598E-02
41250000	7.4741818739108E-03	-1.53002935908559E-02
41500000	7.31555332754993E-03	-1.53158712765009E-02
41750000	7.15597480666176E-03	-1.53307632738927E-02
42000000	6.99596408481863E-03	-1.53439627215407E-02
42250000	6.83208805547066E-03	-1.53535457522583E-02
42500000	6.67075414337174E-03	-1.53628793983172E-02
42750000	6.51030212999093E-03	-1.53697212480473E-02
43000000	6.35028464779418E-03	-1.53745991512639E-02
43250000	6.18726563922328E-03	-0.01537747687129
43500000	6.02662412154653E-03	-1.53788654303924E-02
43750000	5.86399505905263E-03	-1.53783908902996E-02
44000000	5.70210169647986E-03	-0.015375846931271
44250000	5.54035222667191E-03	-1.53714113978488E-02
44500000	5.37756292768936E-03	-0.015365137942049
44750000	5.2164090962086E-03	-1.53552887478004E-02
45000000	5.05219801301577E-03	-1.53461899589755E-02
45250000	4.8921696585275E-03	-1.53327479246577E-02
45500000	4.72974451629299E-03	-1.53201231434436E-02
45750000	4.56739993110299E-03	-1.53033834398537E-02
46000000	4.40689824245921E-03	-1.52862021831839E-02
46250000	4.24514211530954E-03	-1.52659583328061E-02
46500000	4.08401452815718E-03	-1.52452502217521E-02
46750000	3.92335809242603E-03	-1.52208412045327E-02
47000000	3.76300562615873E-03	-1.51940270908247E-02
47250000	3.60259819606543E-03	-1.51680979065526E-02
47500000	3.44244805637442E-03	-0.015136588233008
47750000	3.28163539514128E-03	-1.51072880211114E-02
48000000	0.003122201453218	-1.50740979626086E-02
48250000	2.96382856469182E-03	-1.50400321021964E-02
48500000	2.8033031098082E-03	-1.50029026409894E-02
48750000	2.64419185760609E-03	-1.49635296630445E-02
49000000	2.48701210529979E-03	-1.49218342236949E-02
49250000	2.32922586342168E-03	-1.48808059347052E-02
49500000	2.17180700922385E-03	-1.48360021298271E-02
49750000	2.01606670786349E-03	-1.47888681786823E-02
50000000	1.86053443017862E-03	-1.47414515172923E-02
50250000	1.7027675789693E-03	-1.46913940929711E-02
50500000	1.54790160150218E-03	-1.46394711089138E-02
50750000	1.39319544945111E-03	-1.45865425910386E-02
51000000	1.24033379576911E-03	-1.45314000521608E-02
51250000	1.08471555840215E-03	-1.44739437904312E-02
51500000	9.32155540849831E-04	-1.44147727651237E-02
51750000	7.7925030701702E-04	-1.43528449946757E-02
52000000	6.27694839943145E-04	-1.42892302881669E-02
52250000	4.77237577159082E-04	-1.42260769924559E-02
52500000	3.26493957092645E-04	-1.41590458516212E-02
52750000	1.76590755905873E-04	-1.40910108493989E-02
53000000	2.8722256141613E-05	-1.40207045058377E-02
53250000	-1.19173094823492E-04	-0.013949958033104
53500000	-2.64773675905588E-04	-0.013876110068037
53750000	-4.117319894082E-04	-1.37997317360885E-02
54000000	-5.56770978668881E-04	-1.37238237391691E-02
54250000	-7.00978258606677E-04	-1.36452621599383E-02
54500000	-8.45573689295229E-04	-1.35639323624574E-02
54750000	-9.88408633642146E-04	-1.34817399423948E-02
55000000	-1.13046663016126E-03	-0.013397484386817
55250000	-1.27055524948768E-03	-1.33120860610446E-02
55500000	-1.41072328161869E-03	-1.32238452954923E-02
55750000	-1.54926988415317E-03	-1.31340344074886E-02
56000000	-1.6872283428335E-03	-0.01304344681083
56250000	-1.82374839634288E-03	-1.29516478424897E-02
56500000	-0.001958431072677	-1.28569859419326E-02
56750000	-2.09448352233303E-03	-1.27644245297698E-02
57000000	-2.22808423200558E-03	-0.012664262442009
57250000	-2.36009656407765E-03	-1.25667751599143E-02
57500000	-2.49075544345696E-03	-1.24651111529686E-02
57750000	-2.62072564107645E-03	-1.23647508207812E-02
58000000	-2.75013946585665E-03	-1.22598143443266E-02
58250000	-2.87820244996718E-03	-1.21542670628322E-02
58500000	-3.00498150393482E-03	-1.20481160967021E-02
58750000	-3.12981489334573E-03	-1.19395233895948E-02
59000000	-3.25380784643629E-03	-1.18299474373475E-02
59250000	-3.37781129337787E-03	-1.17205501693932E-02
59500000	-3.49829485905551E-03	-1.16060098061354E-02
59750000	-3.61794128850891E-03	-1.14905264850993E-02
60000000	-3.73668923134619E-03	-1.13745982525394E-02
60250000	-3.85579295618961E-03	-1.12575504472598E-02
60500000	-3.97168680976158E-03	-1.11391645789362E-02
60750000	-4.08429163861068E-03	-1.10199865674581E-02
61000000	-4.19668867123477E-03	-1.08979338321804E-02
61250000	-4.31002975917032E-03	-0.010775206730003
61500000	-4.42070102634291E-03	-0.010651406822917
61750000	-4.5296531159674E-03	-1.05254493828131E-02
62000000	-0.004636381657532	-1.03989950444766E-02
62250000	-4.7432042742229E-03	-1.02708551015458E-02
62500000	-4.8480660894658E-03	-1.01401296264634E-02
62750000	-4.95076067033463E-03	-0.010011018035921
63000000	-5.05143142973521E-03	-9.87904908342066E-03
63250000	-5.15194757815894E-03	-9.74580748429437E-03
63500000	-5.25115103822349E-03	-9.61197780393445E-03
63750000	-5.34605279917849E-03	-9.47498749292101E-03
64000000	-5.44313185422216E-03	-9.33751009653844E-03
64250000	-5.53623207822504E-03	-9.20033553733189E-03
64500000	-5.62805853478593E-03	-9.06097368831925E-03
64750000	-5.71905904194257E-03	-8.9194395599626E-03
65000000	-5.80731277280626E-03	-8.77921409609186E-03
65250000	-5.89294340307214E-03	-8.63755522675431E-03
65500000	-5.97808831714915E-03	-8.49251656340699E-03
65750000	-6.06229150939462E-03	-8.34787321597582E-03
66000000	-6.14501978028061E-03	-8.20293920881377E-03
66250000	-6.22420704633403E-03	-8.05676387708119E-03
66500000	-6.30313929642718E-03	-7.91003006799722E-03
66750000	-6.37991731706794E-03	-7.75909358607375E-03
67000000	-6.4546180139073E-03	-7.60954093330205E-03
67250000	-6.52916356300598E-03	-7.45909349623342E-03
67500000	-6.6000830373017E-03	-7.30895327872223E-03
67750000	-6.66940263255201E-03	-7.15585844552681E-03
68000000	-6.73717130762833E-03	-7.00364718837806E-03
68250000	-6.8022768160976E-03	-6.84775263881277E-03
68500000	-6.86794911158941E-03	-6.69337511858115E-03
68750000	-6.92957927568822E-03	-6.53712155764261E-03
69000000	-6.98870685109481E-03	-6.38119172300432E-03
69250000	-7.04992744085779E-03	-6.2225715263714E-03
69500000	-7.10594122278375E-03	-6.06672477896344E-03
69750000	-7.1603392448267E-03	-5.90734722086374E-03
70000000	-7.21342002155793E-03	-5.74859820137947E-03
70250000	-7.26428627870814E-03	-5.58720833883365E-03
70500000	-7.31394410554664E-03	-5.42649092731866E-03
70750000	-7.36181863957978E-03	-5.2644470612338E-03
71000000	-7.40710666271037E-03	-5.10159111828372E-03
71250000	-7.44817013311744E-03	-4.93912990481745E-03
71500000	-7.49206961589006E-03	-4.77736465517234E-03
71750000	-7.53045139775144E-03	-4.6126340828965E-03
72000000	-7.57125550948075E-03	-4.44886660616427E-03
72250000	-7.60514999129484E-03	-4.2835268612263E-03
72500000	-7.63840882955469E-03	-4.11875773742732E-03
72750000	-7.67023497764632E-03	-3.95226864638488E-03
73000000	-7.69859048441588E-03	-3.78655686381979E-03
73250000	-7.72810091076351E-03	-3.61954643948215E-03
73500000	-7.75268292532125E-03	-3.45272958938842E-03
73750000	-7.77742508468901E-03	-3.28574953186671E-03
74000000	-7.80031546136415E-03	-3.11868885785635E-03
74250000	-7.81859605427844E-03	-2.95067626244936E-03
74500000	-7.83721285628599E-03	-2.78212682286472E-03
74750000	-7.85280791246081E-03	-2.61210409859515E-03
75000000	-7.86582230615905E-03	-2.44415606873348E-03
75250000	-7.87863415591516E-03	-2.27558682052072E-03
75500000	-7.88878415379089E-03	-2.10600450453679E-03
75750000	-7.89533750972694E-03	-1.93703530069892E-03
76000000	-7.90155678871924E-03	-1.76740650240482E-03
76250000	-7.90642619798426E-03	-1.59723475607566E-03
76500000	-7.90795527607605E-03	-1.42828981746468E-03
76750000	-7.90679047923457E-03	-1.25778926915344E-03
77000000	-7.90306669270477E-03	-1.08699714189463E-03
77250000	-7.89866403304935E-03	-9.17917203047903E-04
77500000	-7.89273649386947E-03	-7.47321019443235E-04
77750000	-7.88494918763235E-03	-5.7661932146748E-04
78000000	-7.87359187454238E-03	-4.08702081309942E-04
78250000	-7.86116541074552E-03	-2.38419175855418E-04
78500000	-7.84593187400518E-03	-6.87283285076324E-05
78750000	-7.82994875745637E-03	1.01818179495453E-04
79000000	-7.81147292369955E-03	2.69766948296129E-04
79250000	-7.79045527883296E-03	4.41613162603173E-04
79500000	-7.76743272191716E-03	6.10015746593268E-04
79750000	-7.74273398577481E-03	7.80041190637548E-04
80000000	-7.71635257493686E-03	9.47908778226741E-04
80250000	-7.68714001699516E-03	1.11584157968857E-03
80500000	-7.65605724890444E-03	1.28626816737911E-03
80750000	-7.62292381337816E-03	1.45363111308633E-03
81000000	-7.58897385639301E-03	1.61949161555416E-03
81250000	-7.55029136651009E-03	1.78659302990187E-03
81500000	-7.51232654804267E-03	1.95571919182606E-03
81750000	-7.47222650851173E-03	2.12135154393322E-03
82000000	-7.42963438528749E-03	2.29002510190792E-03
82250000	-7.38328062677291E-03	2.45354430742341E-03
82500000	-7.33611193101301E-03	2.61767000282796E-03
82750000	-7.28690598446385E-03	2.78356434943773E-03
83000000	-7.23596286644449E-03	2.94731082540115E-03
83250000	-7.18270379227537E-03	3.11066032744104E-03
83500000	-7.12763115602221E-03	3.27325747495555E-03
83750000	-7.07102370858685E-03	3.43794009357764E-03
84000000	-7.01105093889617E-03	3.59918939926907E-03
84250000	-6.95051812536109E-03	3.76044607961249E-03
84500000	-6.88681757042571E-03	3.92079928971962E-03
84750000	-6.82285414356974E-03	4.08197283461438E-03
85000000	-6.75501092697536E-03	4.24077243110226E-03
85250000	-6.68793719928875E-03	4.39952290083559E-03
85500000	-6.61666293054168E-03	4.55879082574175E-03
85750000	-6.54375214338379E-03	4.71471505011775E-03
86000000	-6.46927995460255E-03	4.87154790758018E-03
86250000	-6.39394734739739E-03	5.02687058046447E-03
86500000	-6.31564492969997E-03	5.18146599776267E-03
86750000	-6.23527998926776E-03	5.33655733980613E-03
87000000	-6.15388371995335E-03	5.48996664385934E-03
87250000	-6.06975518574974E-03	5.64081587817593E-03
87500000	-5.98141109467835E-03	5.79159602391399E-03
87750000	-5.89488509530495E-03	5.94299985089772E-03
88000000	-5.8056085522006E-03	6.09116221039347E-03
88250000	-5.71384245312733E-03	6.23920759807756E-03
88500000	-5.62140791529585E-03	6.38725911646549E-03
88750000	-5.52517831417202E-03	6.53332025927027E-03
89000000	-5.42876068074156E-03	6.6786363442616E-03
89250000	-5.32927060197832E-03	6.82266713147105E-03
89500000	-5.23115781219682E-03	6.96572901647854E-03
89750000	-5.12717237135009E-03	7.10689017440576E-03
90000000	-5.02425041891672E-03	7.24787842327809E-03
90250000	-4.91865875761751E-03	7.3872485220287E-03
90500000	-4.81160191614792E-03	7.5271917010021E-03
90750000	-4.70254394202498E-03	7.66380720554839E-03
91000000	-4.59336626080512E-03	7.80016036843124E-03
91250000	-4.47884630625985E-03	7.93473536612157E-03
91500000	-4.36514890348004E-03	8.06840080767385E-03
91750000	-4.25025162468731E-03	8.20096689867268E-03
92000000	-4.13339389452449E-03	8.33083448539732E-03
92250000	-4.01204624041782E-03	8.45962646709842E-03
92500000	-3.89443181045994E-03	8.58915865497315E-03
92750000	-3.77034788481982E-03	8.71726081656469E-03
93000000	-3.64746314315026E-03	8.84257847340867E-03
93250000	-3.52187787471542E-03	8.96613926251377E-03
93500000	-3.39510272875527E-03	9.09002325887025E-03
93750000	-3.26587938043897E-03	9.21266693671913E-03
94000000	-3.13682674278008E-03	9.33084831165335E-03
94250000	-3.00401053510659E-03	9.44991051589689E-03
94500000	-2.87213294871217E-03	9.56772746061304E-03
94750000	-2.73789520009409E-03	9.68197706318184E-03
95000000	-2.60076815811315E-03	9.79683440948737E-03
95250000	-2.46425086287547E-03	9.91045952684806E-03
95500000	-2.32569553170863E-03	1.00202466933795E-02
95750000	-2.18559174309997E-03	1.01290986926067E-02
96000000	-2.04416090530152E-03	1.02375577691909E-02
96250000	-1.90126001367193E-03	1.03453389363512E-02
96500000	-1.75699530005586E-03	1.04489136525389E-02
96750000	-1.6116297543791E-03	1.05506387695877E-02
97000000	-1.46331691882163E-03	1.06525602987334E-02
97250000	-1.31618352936201E-03	1.07526427656872E-02
97500000	-1.16706793018973E-03	1.08505086553951E-02
97750000	-1.01656428687869E-03	1.09472437926971E-02
98000000	-8.64002534495098E-04	1.10427418789812E-02
98250000	-7.10829843368215E-04	1.11345187119944E-02
98500000	-5.5637328162935E-04	0.011226262781203
98750000	-4.00447792841304E-04	1.13132154588737E-02
99000000	-2.43425813403489E-04	1.14026810821804E-02
99250000	-8.6703954277742E-05	0.011487995671028
99500000	7.30555020206187E-05	1.15734979727293E-02
99750000	2.34029394424165E-04	1.16554597059258E-02
100000000	3.94561673829313E-04	1.17361947740344E-02
100250000	5.55890745598626E-04	0.011813697344718
100500000	7.19398341716211E-04	1.18909031440568E-02
100750000	8.84145057144293E-04	1.19666218904638E-02
101000000	1.04891694097804E-03	1.20402440864874E-02
101250000	1.21382797436035E-03	1.21098020343373E-02
101500000	1.38245967128162E-03	0.012179786233147
101750000	1.55066500400019E-03	0.012248167284856
102000000	1.7193245556831E-03	1.23126188077209E-02
102250000	1.89014575604389E-03	1.23755791538403E-02
102500000	2.06078371654486E-03	1.24382742071273E-02
102750000	0.002232521343317	1.24971209099152E-02
103000000	2.40676511369702E-03	0.012555405284879
103250000	2.5782670866174E-03	1.26113461608332E-02
103500000	2.75273059347795E-03	1.26664352485096E-02
103750000	2.9286813687824E-03	1.27165092716687E-02
104000000	3.10346971132616E-03	1.27659826885266E-02
104250000	3.27931466476121E-03	0.012814334617804
104500000	3.45663830227586E-03	1.28608277226761E-02
104750000	3.63400804474724E-03	1.29044820707472E-02
105000000	3.81333677277692E-03	1.29454636617889E-02
105250000	3.99101885558581E-03	0.012985860017812
105500000	4.1695692959182E-03	1.30217044544965E-02
105750000	4.35147884150591E-03	1.30579405704368E-02
106000000	4.53152817858544E-03	1.30920622009705E-02
106250000	4.71325498765875E-03	1.31238622201007E-02
106500000	4.89550085022204E-03	1.31512692303728E-02
106750000	5.07730668923228E-03	1.31816198494262E-02
107000000	5.25840849172634E-03	1.32048693883293E-02
107250000	5.44242919713376E-03	0.013226791583478
107500000	5.62578959591388E-03	1.32487672504216E-02
107750000	5.8092471556549E-03	1.32686326765474E-02
108000000	5.99485800601736E-03	1.32865932415588E-02
108250000	6.17845070963809E-03	1.33000493535464E-02
108500000	6.36285399996027E-03	1.33128756741598E-02
108750000	6.5497076135207E-03	1.33220261271932E-02
109000000	6.73369480634729E-03	1.33315448128933E-02
109250000	6.91857951146483E-03	1.33360469847161E-02
109500000	7.10490572143613E-03	1.33421703590912E-02
109750000	7.29290996258168E-03	1.33447494531547E-02
110000000	7.47820439450719E-03	1.33420632012035E-02
110250000	7.66407132789299E-03	0.013341786167159
110500000	7.85098559872665E-03	1.33350693807028E-02
110750000	8.03778904002165E-03	1.33289870197819E-02
111000000	8.22596918698444E-03	1.33205120228012E-02
111250000	8.41282218831374E-03	1.33097860878508E-02
111500000	8.59836913043788E-03	1.32957879705429E-02
111750000	8.78622482988968E-03	1.32797057413653E-02
112000000	8.97269725122221E-03	1.32623361454569E-02
112250000	9.1586710298512E-03	1.32430553745118E-02
112500000	9.34485316571277E-03	1.32215433284406E-02
112750000	9.53166545848232E-03	1.31987875810322E-02
113000000	9.71972189658142E-03	1.31712638448554E-02
113250000	9.90635940018014E-03	1.31426318592532E-02
113500000	1.00933232955692E-02	1.31127918260044E-02
113750000	1.02794636027348E-02	1.30797306509601E-02
114000000	0.010463638796023	1.30447195722545E-02
114250000	1.06488627192504E-02	1.30080167770502E-02
114500000	1.08339924972685E-02	1.29685261647191E-02
114750000	1.10192332330807E-02	1.29279186209963E-02
115000000	1.12050723727365E-02	1.28844879805517E-02
115250000	1.13891647907522E-02	1.28369875530723E-02
115500000	1.15731239514664E-02	1.27920581819796E-02
115750000	1.17577148355494E-02	1.27410651636785E-02
116000000	1.19392131307857E-02	1.26895366193295E-02
116250000	1.21216441976334E-02	0.012635367287552
116500000	1.23040267608618E-02	0.012579194986291
116750000	1.24866966616471E-02	1.25211430824782E-02
117000000	1.26690050390534E-02	1.24600500327364E-02
117250000	1.28474715953503E-02	1.23982483948426E-02
117500000	1.30286383212815E-02	1.23344956707673E-02
117750000	1.32069820005147E-02	1.22672304930521E-02
118000000	1.33884829806228E-02	0.012197172247119
118250000	1.35656572808171E-02	1.21266441613665E-02
118500000	1.37444259567757E-02	1.20536305160833E-02
118750000	1.39193786839825E-02	1.19800643496228E-02
119000000	1.40970132757532E-02	1.19014215730963E-02
119250000	1.42749473128001E-02	0.01182420946707
119500000	1.44466197193733E-02	1.17417368060671E-02
119750000	1.46220772239032E-02	1.16576975589031E-02
120000000	1.47939655815815E-02	1.15738360561839E-02
120250000	1.49669464311391E-02	1.14858145474097E-02
120500000	1.51379141454847E-02	1.13969765554468E-02
120750000	1.53084280358854E-02	1.13057524488551E-02
121000000	1.54791635787398E-02	1.12129136927766E-02
121250000	1.56468854373225E-02	1.11161284187992E-02
121500000	1.58143977818605E-02	0.011018842808988
121750000	1.59829733801621E-02	1.09203251330506E-02
122000000	0.016150184317902	0.010818947244388
122250000	0.016314021777695	1.07158125248407E-02
122500000	0.016476639758276	1.06104837140712E-02
122750000	1.66395389821348E-02	0.010503470313962
123000000	1.68022176017141E-02	0.010394157960804
123250000	1.69641831942757E-02	1.02849613862434E-02
123500000	1.71220241452701E-02	1.01704419326361E-02
123750000	1.72823453032449E-02	1.00579425648207E-02
124000000	1.74402326776861E-02	9.93990677248439E-03
124250000	1.75953166997274E-02	9.82064144741763E-03
124500000	1.77501358990001E-02	9.70126601065311E-03
124750000	1.79031068891599E-02	9.58010437290982E-03
125000000	1.80563443811223E-02	9.45568929282526E-03
125250000	1.82072718380444E-02	9.33206670435092E-03
125500000	1.83583565779187E-02	9.20341418434792E-03
125750000	1.85052576345511E-02	9.07315929446175E-03
126000000	1.86541464926458E-02	8.9433873826916E-03
126250000	1.87993814455947E-02	8.80837220670539E-03
126500000	1.89454498834506E-02	8.67528031037761E-03
126750000	1.90879058228582E-02	8.53865382526443E-03
127000000	1.92302732753388E-02	8.39959498040681E-03
127250000	1.93711821934707E-02	8.26165011641633E-03
127500000	1.95094005155568E-02	8.12085478150898E-03
127750000	0.019647018923858	7.97783294154459E-03
128000000	1.97826233931076E-02	7.83360652045172E-03
128250000	1.99174101018796E-02	7.68715589482609E-03
128500000	0.020050266925823	7.5379860720933E-03
128750000	2.01830620899426E-02	7.38980577803665E-03
129000000	2.03132874237685E-02	7.24006671329162E-03
129250000	2.04419307054831E-02	7.08734866031872E-03
129500000	2.05678970283216E-02	6.93415796251539E-03
129750000	0.020692486195531	6.77804959993613E-03
130000000	2.08179850424686E-02	6.62093622655839E-03
130250000	2.09401962855837E-02	6.46291610707679E-03
130500000	2.10595090113213E-02	6.30220292624776E-03
130750000	2.11776374505433E-02	6.14074532597324E-03
131000000	2.12942979455476E-02	5.97756810062065E-03
131250000	2.14113964485654E-02	5.81326427774451E-03
131500000	2.15240819269952E-02	5.64861763427123E-03
131750000	2.16355480799203E-02	5.48204833776911E-03
132000000	2.17461078320316E-02	5.31222182737272E-03
132250000	0.021854451932605	5.14372233664231E-03
132500000	0.021960322063767	4.97187465808611E-03
132750000	2.20639144005853E-02	4.79918737229202E-03
133000000	2.21698646120733E-02	4.62610784482749E-03
133250000	2.22705560000501E-02	4.45083045214756E-03
133500000	2.23686693013761E-02	4.2751503654287E-03
133750000	2.24664139325056E-02	4.09849497924334E-03
134000000	2.25617500096288E-02	3.91942272437395E-03
134250000	2.26557040959611E-02	3.74037567779552E-03
