# Hz S RI R 50
40000000	-0.226439553335924	-0.967237764753893
40250000	-0.237397382096692	-0.964472715985216
40500000	-0.248299859890125	-0.961638653741492
40750000	-0.259188960342147	-0.958652593946546
41000000	-0.270044811356018	-0.955525030435548
41250000	-0.280839420741598	-0.952288434273579
41500000	-0.29159489842561	-0.948932637229815
41750000	-0.302330023022516	-0.945456722909702
42000000	-0.313002860580206	-0.941845333207011
42250000	-0.323651468582563	-0.9381305312395
42500000	-0.334271517751464	-0.934279679672169
42750000	-0.34482925147678	-0.930309333885954
43000000	-0.355334304132137	-0.926239520000113
43250000	-0.36577460019764	-0.922013496658366
43500000	-0.376225487502448	-0.91768025566635
43750000	-0.386570568846155	-0.913234192924973
44000000	-0.396885875661137	-0.908664616968617
44250000	-0.40714608398172	-0.903991839583454
44500000	-0.417348744775942	-0.899189896130726
44750000	-0.427494741314378	-0.894291564143955
45000000	-0.437592294250156	-0.889236117185855
45250000	-0.447600739173568	-0.884097967514124
45500000	-0.457581039651039	-0.878857792140355
45750000	-0.467501700348752	-0.873469279788524
46000000	-0.477342914918852	-0.867978369959317
46250000	-0.487124217278502	-0.86240090161905
46500000	-0.496847551409159	-0.856681475830315
46750000	-0.506489677070864	-0.850870608914977
47000000	-0.51606658243316	-0.844926725876661
47250000	-0.525596268851616	-0.838878148951887
47500000	-0.535040394060581	-0.83274973246651
47750000	-0.544413724490172	-0.826490569159546
48000000	-0.553710417152281	-0.820138123376207
48250000	-0.562931781406085	-0.813674075244173
48500000	-0.572079839237383	-0.807101217800143
48750000	-0.58117780326541	-0.800420087391775
49000000	-0.590156772115367	-0.793648720549176
49250000	-0.5990697778386	-0.786762167650666
49500000	-0.607925193532502	-0.779789141353704
49750000	-0.616678676015744	-0.772704101644045
50000000	-0.625350606045257	-0.76552291110861
50250000	-0.633936156297025	-0.758225190306789
50500000	-0.642445157440713	-0.750870271707995
50750000	-0.650873830324442	-0.743392498951764
51000000	-0.659199262965524	-0.735828884588057
51250000	-0.667453015928455	-0.728164648163325
51500000	-0.675614845066336	-0.720393961133257
51750000	-0.683679682742209	-0.712569770225446
52000000	-0.691653327689799	-0.70462342271879
52250000	-0.699548581112466	-0.696603574231459
52500000	-0.707321007681435	-0.688505296516047
52750000	-0.715018963054854	-0.68028434667626
53000000	-0.722621138929848	-0.671985067324325
53250000	-0.730125336970022	-0.663603163279579
53500000	-0.737535877681942	-0.655158258130839
53750000	-0.744841670528357	-0.646618225411059
54000000	-0.752065569882559	-0.637980005186812
54250000	-0.759171534763533	-0.629269491874349
54500000	-0.766188378497212	-0.620479874955077
54750000	-0.773092929488642	-0.61160422806374
55000000	-0.779905964692934	-0.602677015545929
55250000	-0.786605297749833	-0.593657824437981
55500000	-0.793200051241145	-0.58456447791284
55750000	-0.799687133504706	-0.575391285620156
56000000	-0.806078019505269	-0.566150994956795
56250000	-0.81237284062499	-0.556829923096482
56500000	-0.818529899746937	-0.547461118144793
56750000	-0.824605923179105	-0.53800701402099
57000000	-0.830548473484502	-0.528477905452452
57250000	-0.836404108306213	-0.518889259989376
57500000	-0.842126507226555	-0.509249273293311
57750000	-0.847728261415988	-0.499527999239338
58000000	-0.853250469160524	-0.489748795197999
58250000	-0.858657203159559	-0.479913454729311
58500000	-0.863948853275246	-0.470026986879188
58750000	-0.869109418421339	-0.460055050882544
59000000	-0.874155958107192	-0.450053763151927
59250000	-0.879108132216682	-0.439990722493015
59500000	-0.883911486057037	-0.429861779878234
59750000	-0.888622686487542	-0.419680438130988
60000000	-0.893218362108491	-0.409448375256637
60250000	-0.897664774312559	-0.399180634724282
60500000	-0.902034402249948	-0.38884880750243
60750000	-0.906274413861178	-0.378467530612896
61000000	-0.910376315237794	-0.368052859610272
61250000	-0.914391403240628	-0.357595221343136
61500000	-0.918255186102558	-0.347094266259549
61750000	-0.921999101471395	-0.336528947878807
62000000	-0.925651392372511	-0.325954303347117
62250000	-0.929145561470674	-0.315309241726422
62500000	-0.932545415636772	-0.30463680775276
62750000	-0.935774458046481	-0.293949086668477
63000000	-0.938925387016138	-0.283206621346121
63250000	-0.941949070567507	-0.272435524276081
63500000	-0.944844069852819	-0.261619378067883
63750000	-0.947611777576733	-0.250812354330287
64000000	-0.950258587221184	-0.239933428241137
64250000	-0.95277554002912	-0.229041987010877
64500000	-0.955167593918069	-0.218131560222482
64750000	-0.957447598284915	-0.207204071073869
65000000	-0.959600925778245	-0.196228263629005
65250000	-0.961616369942085	-0.185244713096664
65500000	-0.963497144182491	-0.174235338840572
65750000	-0.965269157118788	-0.163211409930062
66000000	-0.966922131216092	-0.152167973080388
66250000	-0.968439473796427	-0.141125862573472
66500000	-0.969831225080426	-0.130047707611267
66750000	-0.971094588334766	-0.118958922138477
67000000	-0.972222339186744	-0.107863950292201
67250000	-0.973228359754782	-9.67599608097484E-02
67500000	-0.97411108442048	-8.56429125143151E-02
67750000	-0.974867534779411	-7.45021867235898E-02
68000000	-0.975494117494075	-6.33937902032941E-02
68250000	-0.976008691384634	-5.22673220112502E-02
68500000	-0.976355220518477	-4.11281050363354E-02
68750000	-0.976630912646607	-2.99844043294493E-02
69000000	-0.976745849406368	-1.88611300838549E-02
69250000	-0.976721462927403	-7.71831968889846E-03
69500000	-0.976597502374108	3.41267216857524E-03
69750000	-0.976332773702075	1.45339067777161E-02
70000000	-0.975942223183235	2.56726164265284E-02
70250000	-0.975435835895249	3.67717762284004E-02
70500000	-0.974804223403253	4.78808946359476E-02
70750000	-0.974050093128182	5.89821253246845E-02
71000000	-0.973122548021474	7.00828798101144E-02
71250000	-0.97215469521362	8.11241876153749E-02
71500000	-0.970983107353163	9.21674829672742E-02
71750000	-0.969714540538972	0.103210902391916
72000000	-0.968338043461961	0.11424028167159
72250000	-0.966817206872717	0.125236634862335
72500000	-0.965164903022096	0.136211061907642
72750000	-0.963418323916447	0.147166366386666
73000000	-0.961511388450208	0.158119001430202
73250000	-0.959501381494718	0.169022825034745
73500000	-0.957373595737575	0.179917170350485
73750000	-0.95509922620909	0.190743886396054
74000000	-0.952730281592135	0.201580210952928
74250000	-0.950202023976528	0.212385476136864
74500000	-0.947576392907548	0.223156641390004
74750000	-0.94483358596794	0.23388297947649
75000000	-0.941963198110202	0.244593802111312
75250000	-0.938970204935444	0.255267335872067
75500000	-0.935860361021755	0.265862405313413
75750000	-0.932621316145621	0.276459246373294
76000000	-0.92928821551712	0.287009860375596
76250000	-0.925802036778505	0.297514089895936
76500000	-0.922233974529971	0.307959751973788
76750000	-0.918505540823012	0.318384947571284
77000000	-0.914695353306987	0.328771122217945
77250000	-0.910764619362546	0.339093936704516
77500000	-0.906715279792732	0.349379036647453
77750000	-0.902543940929033	0.35962808036583
78000000	-0.89824893414481	0.36977472889625
78250000	-0.893868369946121	0.379951498682575
78500000	-0.889339826816822	0.390016237538408
78750000	-0.884710645789933	0.400040403813182
79000000	-0.880020348794253	0.409989194709877
79250000	-0.875139313544381	0.419905658364279
79500000	-0.870187092351399	0.429746131748601
79750000	-0.865120872716021	0.439564122284704
80000000	-0.859934920238434	0.449280603849763
80250000	-0.854667658442606	0.458941328559462
80500000	-0.84926103783078	0.468552601350885
80750000	-0.843799986110697	0.478098748920601
81000000	-0.838150583120019	0.487583094710702
81250000	-0.832435550539631	0.496986913282044
81500000	-0.826636708095082	0.506334668655525
81750000	-0.820721222858421	0.515613015129506
82000000	-0.814686529112911	0.524809668897961
82250000	-0.808561111590731	0.533942427526495
82500000	-0.802340009466492	0.54300443322605
82750000	-0.796023516583698	0.551995442689835
83000000	-0.789611809925281	0.560909514016705
83250000	-0.783091039834918	0.569753530939327
83500000	-0.776452417088967	0.578519550833215
83750000	-0.7697192377911	0.587187993565152
84000000	-0.762922693178221	0.595807543279316
84250000	-0.756015948881449	0.604343169552728
84500000	-0.749021053885728	0.612767236812042
84750000	-0.741923951192252	0.621156795876003
85000000	-0.734733931829846	0.629402130461752
85250000	-0.727438307452106	0.637631706030067
85500000	-0.720072871959738	0.645735970836846
85750000	-0.712627922527376	0.653775250297794
86000000	-0.705085208352262	0.661714275880732
86250000	-0.697438912555864	0.669568928505684
86500000	-0.689743488880246	0.677335573581854
86750000	-0.68191561067026	0.685006586268964
87000000	-0.674045957044255	0.692571957556875
87250000	-0.666051604041713	0.700079090857656
87500000	-0.657994562401346	0.707493129439549
87750000	-0.649868527445647	0.714786314640214
88000000	-0.641651806355342	0.722000023590023
88250000	-0.633396442336752	0.729130061079172
88500000	-0.625002799314718	0.736134198880399
88750000	-0.616569375026606	0.743082644243421
89000000	-0.608054230439755	0.74990210954017
89250000	-0.599447397007848	0.756655630669938
89500000	-0.59079406665602	0.763284431865245
89750000	-0.582047328893678	0.769811822060942
90000000	-0.573242032255663	0.776240113799279
90250000	-0.564368499683228	0.782611788459442
90500000	-0.555410357349337	0.788806782969811
90750000	-0.546396680119245	0.794933686943867
91000000	-0.537335621096409	0.800982911580547
91250000	-0.528188277117598	0.806908041229239
91500000	-0.518983131666334	0.812717158174179
91750000	-0.5097047991248	0.81841401135705
92000000	-0.500363675848941	0.82402872183221
92250000	-0.491014089861754	0.829516910360263
92500000	-0.48154659090479	0.834907675891743
92750000	-0.47203448517815	0.840195240111073
93000000	-0.462489072935949	0.845388160239548
93250000	-0.452875061804286	0.850446298558428
93500000	-0.443193055387941	0.855409715307564
93750000	-0.433452570608603	0.860266471724229
94000000	-0.4236868279742	0.864995353654122
94250000	-0.413872711969785	0.869622171086947
94500000	-0.404010451259908	0.87414319615606
94750000	-0.394079493105868	0.878538420291731
95000000	-0.384105022928081	0.882822370520157
95250000	-0.374095196450833	0.887000082384373
95500000	-0.364040102688545	0.89105224713125
95750000	-0.353930405858424	0.895010306384738
96000000	-0.343803232093926	0.898858740890069
96250000	-0.333619265486648	0.90257944158094
96500000	-0.323423766825641	0.906201951107469
96750000	-0.313181318929551	0.909671235339713
97000000	-0.302890513988207	0.913054069299403
97250000	-0.292561509991607	0.916309484271333
97500000	-0.282193818176353	0.919435464697726
97750000	-0.271804203235319	0.922488360504816
98000000	-0.261390634689922	0.925389924838346
98250000	-0.250943246995663	0.928176716876242
98500000	-0.240466985548896	0.930831206911652
98750000	-0.229968654868005	0.93341655511434
99000000	-0.219429209112137	0.935843074896203
99250000	-0.208872373430014	0.938166999236137
99500000	-0.198325706130391	0.940361831185261
99750000	-0.187729673254051	0.942466964438883
100000000	-0.177117491461565	0.944423237932008
100250000	-0.166488358115173	0.946269436343382
100500000	-0.155830283900322	0.948008577259059
100750000	-0.145170997071062	0.949603592584738
101000000	-0.134482399686031	0.951079857972708
101250000	-0.123784737104751	0.952463569147151
101500000	-0.113070976676095	0.953683142503294
101750000	-0.102360575035112	0.954848099185731
102000000	-9.16416564421052E-02	0.955859249350163
102250000	-8.08977877132882E-02	0.956741580575318
102500000	-0.070184669509419	0.95750888703499
102750000	-5.94143725614535E-02	0.958157492872995
103000000	-4.86679146198431E-02	0.958703877109768
103250000	-3.79380357736651E-02	0.959105191724807
103500000	-2.71831578518256E-02	0.959394311379304
103750000	-0.016414035840564	0.959559138137779
104000000	-5.6405457610629E-03	0.959611983546828
104250000	5.09972969464969E-03	0.959552974614936
104500000	1.58311426983766E-02	0.959340585930913
104750000	2.65591052326043E-02	0.959058833436563
105000000	3.73213957703881E-02	0.9586273511118
105250000	4.80263308166139E-02	0.958059280993278
105500000	5.87488860687944E-02	0.957420908689526
105750000	6.94545709853724E-02	0.956631386314743
106000000	8.01418843932825E-02	0.955748858068241
106250000	9.08292130888064E-02	0.954719709448839
106500000	0.101502575225895	0.953549657796302
106750000	0.112143040562204	0.952304635370151
107000000	0.122786852517807	0.950940201790547
107250000	0.133395734397992	0.949432927886633
107500000	0.143996555256004	0.947818229250705
107750000	0.154594715872729	0.946098389583626
108000000	0.165119957742703	0.944263865762626
108250000	0.175663817135608	0.942308878363919
108500000	0.186164085162792	0.940219145637485
108750000	0.196629831103924	0.938029196614729
109000000	0.207088860220218	0.935716762850752
109250000	0.217527996088685	0.933314197616134
109500000	0.227907765436147	0.930769180029975
109750000	0.23825988868747	0.928109161836035
110000000	0.248606434634404	0.925357471466967
110250000	0.258891657779728	0.922464729449529
110500000	0.269156566250521	0.91948018614502
110750000	0.279411432863006	0.916359698808104
111000000	0.28959109082582	0.913159350950089
111250000	0.299737491701062	0.909811625643185
111500000	0.309848367040563	0.906360089326399
111750000	0.319922742367709	0.902825951164174
112000000	0.329947066655516	0.899163053880223
112250000	0.339936811783083	0.895370611282811
112500000	0.34988049181952	0.891502932450398
112750000	0.359785591672802	0.88750928247468
113000000	0.369638474837093	0.883400456771362
113250000	0.379447880049287	0.879187662424758
113500000	0.389186813002921	0.87488135063161
113750000	0.398887573558813	0.870444160560134
114000000	0.408546612163299	0.865929505755591
114250000	0.418130861177579	0.861292601679353
114500000	0.427692458037874	0.856555685377535
114750000	0.437178487337304	0.851699366648633
115000000	0.446627760197476	0.846759002274072
115250000	0.455980246158458	0.841714495295652
115500000	0.465315393832232	0.836558339521666
115750000	0.474572613988794	0.831279254184063
116000000	0.483763080920941	0.825947103164313
116250000	0.492906066072987	0.820478301235639
116500000	0.502007034323117	0.814924000547104
116750000	0.511004878521995	0.809257667054734
117000000	0.519954542764799	0.803510843197668
117250000	0.528848057127912	0.797655343691133
117500000	0.537652448199127	0.791716220233727
117750000	0.546417188443665	0.785671384950257
118000000	0.555092702751957	0.779517290960644
118250000	0.563704440554654	0.773289604400163
118500000	0.572233447855348	0.766957114904847
118750000	0.58070103492762	0.760539704942051
119000000	0.589109949759153	0.754042749467497
119250000	0.597445498073283	0.747435136852122
119500000	0.605673863244837	0.740741581405873
119750000	0.613849709995916	0.733938010540896
120000000	0.621936458140901	0.72707698228679
120250000	0.629948171586892	0.720112454963954
120500000	0.637893823124412	0.713059213093826
120750000	0.645752732578785	0.705920496776256
121000000	0.653531958113924	0.69872092124648
121250000	0.661226001430626	0.69141129668995
121500000	0.668834601698456	0.684006446917334
121750000	0.676384551647653	0.676545500266387
122000000	0.683827336664673	0.668990868149182
122250000	0.691183529685131	0.661359515837943
122500000	0.698475168329954	0.653656558133841
122750000	0.705672913587386	0.64585110274781
123000000	0.712756551186106	0.638007652495167
123250000	0.719791840144391	0.630034885434366
123500000	0.726719767738637	0.622038060941953
123750000	0.733561404949841	0.613918258902118
124000000	0.740317344414175	0.605752479581672
124250000	0.74694300662962	0.597505242432864
124500000	0.753538965422701	0.589194771443664
124750000	0.760009083825352	0.580803501902415
125000000	0.766382932033385	0.572364524641641
125250000	0.772661632574902	0.563833030984626
125500000	0.778855163041921	0.555243868599334
125750000	0.784950566035999	0.546592305347611
126000000	0.790950476591478	0.53785513298567
126250000	0.796837158439302	0.52907349090161
126500000	0.802643984434684	0.520211029618229
126750000	0.808351753786994	0.511291937438602
127000000	0.813975357016147	0.502307278820184
127250000	0.819455220238041	0.493289276327559
127500000	0.824876774619975	0.484182154595446
127750000	0.83015788529457	0.475025367698493
128000000	0.83536893184484	0.46582544107404
128250000	0.840476507344449	0.456559355746161
128500000	0.845471526507637	0.447231498634828
128750000	0.850350710408869	0.437859708985239
129000000	0.855151304748505	0.428451903263951
129250000	0.859837126584236	0.418962772444961
129500000	0.864418047624166	0.409416466320959
129750000	0.868882389007015	0.399842304593537
130000000	0.873251187216425	0.390207912993174
130250000	0.877526071093689	0.380539015801666
130500000	0.88168483926003	0.370815825048744
130750000	0.885723757778366	0.361064378762068
131000000	0.889674771866769	0.351246291939778
131250000	0.893483124713164	0.341413410379343
131500000	0.897216458137726	0.331524530479373
131750000	0.900838325653267	0.321604902777223
132000000	0.90433356789167	0.311628566296464
132250000	0.907732670047054	0.301606655524206
132500000	0.911015675201518	0.291580208511857
132750000	0.914173760990188	0.281490936143228
133000000	0.917239764328434	0.271393896198799
133250000	0.920201043377397	0.261235474711057
133500000	0.923032923197755	0.251072033252817
133750000	0.925756501248647	0.240875052798319
134000000	0.928369578752417	0.230639022117076
134250000	0.930859767508191	0.220373125627092
134500000	0.933263358897619	0.210085568406983
134750000	0.93552943055343	0.199766592970503
135000000	0.937694615476061	0.18946837423693
135250000	0.939740559636026	0.179089420467686
135500000	0.941664496431534	0.168710751321691
135750000	0.943473631063009	0.158302278065387
136000000	0.945183938548474	0.147912581521306
136250000	0.946783276870034	0.13744186638255
136500000	0.948260889881096	0.127015680804473
136750000	0.949625138405455	0.11652254705702
137000000	0.950852866786188	0.106045111208885
137250000	0.95198063443491	9.55507776498656E-02
137500000	0.952984482102246	8.50555510893502E-02
137750000	0.953867199652337	7.45525895746484E-02
138000000	0.954660058097365	6.40171174878707E-02
138250000	0.95531630090371	5.34773900263433E-02
138500000	0.955873532306265	4.29241844231371E-02
138750000	0.956322511781165	3.23784342223561E-02
139000000	0.956637176645149	0.021854022816533
139250000	0.956824358733504	1.12992010026382E-02
139500000	0.956892854587525	7.48704781694346E-04
139750000	0.956875182321281	-9.81465208025319E-03
140000000	0.956707054673996	-2.03787043113778E-02
140250000	0.956446228025313	-3.09138767961495E-02
140500000	0.956090079397063	-4.14555895548747E-02
140750000	0.955585544103107	-5.20150278778057E-02
141000000	0.954963415669848	-6.25358237661532E-02
141250000	0.954245373591433	-7.30665632066686E-02
141500000	0.95339695370218	-0.083568385723244
141750000	0.952435842265222	-9.40971882132453E-02
142000000	0.951339467454616	-0.104601287069171
142250000	0.950175147813683	-0.115090707904106
142500000	0.948846505819025	-0.125563688677809
142750000	0.947424084687651	-0.136016061621203
143000000	0.945907532722485	-0.146438722694153
143250000	0.94424639389758	-0.156892672384307
143500000	0.942483641158106	-0.167282753256117
143750000	0.940574396570685	-0.177659323065572
144000000	0.938621233937707	-0.188018863979464
144250000	0.936489261698186	-0.198376601721149
144500000	0.934272459681313	-0.208681217459215
144750000	0.931930679663038	-0.218996708638152
