# Hz S RI R 50
40000000	0.239193394055285	0.934027685786511
40250000	0.249580568083538	0.931274352914323
40500000	0.259946908831983	0.928393359928173
40750000	0.270269200039451	0.925381865267603
41000000	0.280548946468643	0.922280839101381
41250000	0.290789519870169	0.919091993898303
41500000	0.301009289966305	0.915732446343007
41750000	0.311173860750869	0.912279872317611
42000000	0.321302468164445	0.908744669375082
42250000	0.331385475152308	0.905079263206583
42500000	0.341424276096447	0.901294953898918
42750000	0.351436956060807	0.897424482708123
43000000	0.361384601324286	0.893414474835726
43250000	0.371290193787376	0.889330795673273
43500000	0.381171250396496	0.8851023179477
43750000	0.390954252113158	0.880784657200388
44000000	0.400738836761708	0.876349311114278
44250000	0.410438911538053	0.87181596293479
44500000	0.420110098829514	0.867172710329933
44750000	0.429709888944332	0.862436084197944
45000000	0.439280115657012	0.857578113455583
45250000	0.448771921348771	0.852632703167968
45500000	0.458202022160371	0.847564460505775
45750000	0.467579395935566	0.842412579612604
46000000	0.476898697550478	0.837128530689397
46250000	0.486173220990807	0.831778016829037
46500000	0.495384139393329	0.826278481550198
46750000	0.50451441977149	0.820727638538374
47000000	0.513609309719439	0.815074699842905
47250000	0.522608920014307	0.809280866879799
47500000	0.531586296231854	0.803443076914043
47750000	0.540448980257809	0.797471036165395
48000000	0.549259396636411	0.791411551288522
48250000	0.558006564477696	0.785241688270063
48500000	0.566685201519368	0.778992657033463
48750000	0.575294313377912	0.77265445193383
49000000	0.583827496884174	0.766212941570712
49250000	0.59229549727593	0.759670745267844
49500000	0.600662658910024	0.753044884807773
49750000	0.608993361533766	0.746334626558344
50000000	0.617226812372581	0.73953072739745
50250000	0.625385617270872	0.732618285162893
50500000	0.633480710018548	0.725655619021036
50750000	0.641485134390743	0.71859457523578
51000000	0.649415493465625	0.711407567404868
51250000	0.657268588422625	0.704150739181804
51500000	0.66503491409548	0.696837429691802
51750000	0.672715810256199	0.689423599090404
52000000	0.680318364218297	0.681920985747991
52250000	0.687849693115701	0.674340690404552
52500000	0.695277107322723	0.666659268276002
52750000	0.70262198605246	0.658932147698145
53000000	0.709888031787458	0.651091993424523
53250000	0.717038583503891	0.643188358644609
53500000	0.724143242057383	0.635200059365188
53750000	0.731153443459831	0.627160374299634
54000000	0.738055300629534	0.619025765355679
54250000	0.744862156363396	0.610811166021867
54500000	0.75160490272258	0.602525302349043
54750000	0.758231036685546	0.594165434158083
55000000	0.764764600792644	0.585733039990567
55250000	0.771218250403447	0.577241272167507
55500000	0.777597482344972	0.56865675089402
55750000	0.783836654610194	0.560022507307221
56000000	0.790003185889626	0.551317140877423
56250000	0.79605495330401	0.542532027692166
56500000	0.802036363022149	0.533704941870096
56750000	0.807874320253631	0.524784812987897
57000000	0.81365875199669	0.515809481950326
57250000	0.819342291083146	0.506783287344459
57500000	0.824888952266435	0.497693919088659
57750000	0.830379800383908	0.488517531364774
58000000	0.83574652831272	0.479318412899687
58250000	0.841007617132362	0.470058479930056
58500000	0.846191473631453	0.460716313184987
58750000	0.851253255857581	0.451327972045658
59000000	0.856191962322147	0.441883244095877
59250000	0.8610522747592	0.432392766632193
59500000	0.865816855306742	0.422855601911078
59750000	0.870447233712102	0.413252370256023
60000000	0.874999686156934	0.403608158693193
60250000	0.879418573487736	0.393897094502836
60500000	0.883731360000498	0.384162079788376
60750000	0.887945490476875	0.374357346712231
61000000	0.892053895965553	0.36452765989123
61250000	0.896046141631979	0.354636021005197
61500000	0.899950327880443	0.344709574855215
61750000	0.903733783525671	0.334747770398926
62000000	0.907390830681887	0.324734240042168
62250000	0.91095592315734	0.314681533439613
62500000	0.914397960202359	0.304592814347378
62750000	0.917724580644694	0.294450484382106
63000000	0.920959557910116	0.284286668770897
63250000	0.92407765618685	0.274089212958664
63500000	0.927071823508615	0.2638837114567
63750000	0.929969068864817	0.253604285416627
64000000	0.932737523574822	0.24330802508471
64250000	0.935376332889149	0.232971216167849
64500000	0.93793143897823	0.222630580540227
64750000	0.940366779402532	0.212238330092056
65000000	0.942663051737191	0.201840424391827
65250000	0.944870914094449	0.191389986823784
65500000	0.946953927009425	0.180947842200671
65750000	0.948925290219637	0.170467711186172
66000000	0.950773147360182	0.159958992832158
66250000	0.952517009604088	0.149445957224068
66500000	0.954143847346212	0.138902446171904
66750000	0.955635869566677	0.128351824119949
67000000	0.957024935811109	0.117771642932722
67250000	0.958279351367927	0.10717429276774
67500000	0.959447047140181	9.65653493443843E-02
67750000	0.960477024679533	8.59592030915249E-02
68000000	0.961413215419979	7.53110175504079E-02
68250000	0.962203785924622	6.46888856426057E-02
68500000	0.962883165955046	5.40469584846744E-02
68750000	0.963453796176615	4.33780385461564E-02
69000000	0.963905327930369	3.27228466131987E-02
69250000	0.964228794453182	2.20513359667098E-02
69500000	0.964461938528496	1.13981985576822E-02
69750000	0.964543102388031	7.23733882868366E-04
70000000	0.964511014060566	-9.92909086488074E-03
70250000	0.964393353068156	-2.06194016683106E-02
70500000	0.96414114707201	-3.12744288620725E-02
70750000	0.963763476410079	-0.041957098665385
71000000	0.963270458665887	-5.26187638231691E-02
71250000	0.962661383995514	-6.32748075201475E-02
71500000	0.96191596490012	-7.39216827655134E-02
71750000	0.961064991266079	-8.45627840101482E-02
72000000	0.960109197269749	-9.51817512407332E-02
72250000	0.959025627665402	-0.10580179270565
72500000	0.957821034855423	-0.116413831556845
72750000	0.956505242768389	-0.127022133908166
73000000	0.95504899453179	-0.137613453728095
73250000	0.953517762754466	-0.14816575497569
73500000	0.951848691029164	-0.158720906657488
73750000	0.950039369472894	-0.169241585477425
74000000	0.948146322950548	-0.179735986481145
74250000	0.946123081189061	-0.190239637690088
74500000	0.944011578699218	-0.200712876770256
74750000	0.941734361259354	-0.211167747057483
75000000	0.9393685361606	-0.22157110920732
75250000	0.936885877357061	-0.231964802942728
75500000	0.93428307923769	-0.242349233878688
75750000	0.931572178652458	-0.252681471277329
76000000	0.928740738820117	-0.26298840263148
76250000	0.925790845574168	-0.273256854429339
76500000	0.922733119948859	-0.283499450589956
76750000	0.919575759367298	-0.293708766354609
77000000	0.916279816092291	-0.303884188606266
77250000	0.912888548299178	-0.31403213135615
77500000	0.909377469863361	-0.324127034562945
77750000	0.905729126216411	-0.334193737645057
78000000	0.902008200534955	-0.344221596495372
78250000	0.898172425851762	-0.354208700033284
78500000	0.894206896186305	-0.364135823927629
78750000	0.890148067246034	-0.374032190475352
79000000	0.885974158587568	-0.38389921179261
79250000	0.881680172330816	-0.393677930252269
79500000	0.877295366517673	-0.403425729736557
79750000	0.872790266529668	-0.413158906204404
80000000	0.868157114033534	-0.42282605689402
80250000	0.863453200358152	-0.432422812480853
80500000	0.858608567582123	-0.441996595712081
80750000	0.853676838796797	-0.451499706816179
81000000	0.848644809849742	-0.460960835058062
81250000	0.843496691218542	-0.470337661292199
81500000	0.838241934734357	-0.479667519859053
81750000	0.832890883880591	-0.488964335047777
82000000	0.827431300239645	-0.498177806292816
82250000	0.821872440509244	-0.507319695756851
82500000	0.816206662636913	-0.516420855465629
82750000	0.81042356610894	-0.525467388683087
83000000	0.804575956784779	-0.534421818446423
83250000	0.798607107869665	-0.543332655665847
83500000	0.792520338691381	-0.552176215093718
83750000	0.786386378960363	-0.560944273142456
84000000	0.780101681035994	-0.569648789654498
84250000	0.773742173386101	-0.578296460115084
84500000	0.767288726521054	-0.586841601079136
84750000	0.760731900217856	-0.595342076158692
85000000	0.754089120391445	-0.603765646260525
85250000	0.747371780852036	-0.612127064344501
85500000	0.740529952399754	-0.620403390615324
85750000	0.733596200903356	-0.628599575604406
86000000	0.726559647094541	-0.636712023908552
86250000	0.719457600147263	-0.644775073170712
86500000	0.712258123806296	-0.652732796356615
86750000	0.70496359009479	-0.660602720127016
87000000	0.697590365549139	-0.668394946556539
87250000	0.690128368592927	-0.67611628210322
87500000	0.682563726442603	-0.683772460428941
87750000	0.674931412956887	-0.691330104986368
88000000	0.667220468259134	-0.698760199698325
88250000	0.659414429580664	-0.706164101564959
88500000	0.651530238387117	-0.713478672721791
88750000	0.643532820205735	-0.720665389767928
89000000	0.63550208631914	-0.727817752756589
89250000	0.627359150713811	-0.73483414122373
89500000	0.619155741428842	-0.74177560567534
89750000	0.610855118724554	-0.748604132180266
90000000	0.602479401812715	-0.755381460786663
90250000	0.594007862667085	-0.762036893686426
90500000	0.585522835143052	-0.768607321197398
90750000	0.576916046490585	-0.775081870212043
91000000	0.568255951595701	-0.781478529449771
91250000	0.55952284742034	-0.787757057371566
91500000	0.550696334841314	-0.793942860143136
91750000	0.541834474616289	-0.800048129712403
92000000	0.532885639573559	-0.806004509003033
92250000	0.523874135473131	-0.811899090576624
92500000	0.514785190645112	-0.817667734167554
92750000	0.505637439704746	-0.82336813482158
93000000	0.496434634758317	-0.828965677189145
93250000	0.487156239820199	-0.834453691193309
93500000	0.477833052764635	-0.839824275972068
93750000	0.468408282275637	-0.845111099897474
94000000	0.458956623627612	-0.850254550271684
94250000	0.4494474234182	-0.855338253808494
94500000	0.439862176150209	-0.860299115401
94750000	0.430245486150682	-0.865155569662693
95000000	0.420555211941686	-0.869874777893669
95250000	0.410822576234832	-0.874507771263789
95500000	0.401001654688542	-0.879047991278927
95750000	0.391172616290663	-0.883459242854175
96000000	0.381298773896644	-0.887758791524074
96250000	0.371352832225998	-0.891955230611791
96500000	0.361346818201811	-0.896029437785197
96750000	0.351320316221963	-0.900001010328491
97000000	0.341242008310932	-0.903853403480423
97250000	0.33109840107405	-0.907599537989563
97500000	0.320951244934503	-0.911253007581773
97750000	0.3107268656185	-0.914761988286409
98000000	0.300482215172995	-0.918184431022579
98250000	0.290172972110498	-0.921451162708125
98500000	0.279856518560221	-0.924628172774774
98750000	0.269497897112743	-0.927680744618031
99000000	0.259097870682573	-0.930612125394137
99250000	0.248653236392669	-0.933463150907966
99500000	0.238216153275758	-0.936139972632661
99750000	0.227715940999186	-0.938746460307627
100000000	0.217181937058608	-0.941227404091926
100250000	0.206626529849755	-0.94355019285067
100500000	0.19604091021611	-0.945799290404883
100750000	0.185440554070499	-0.947900346700855
101000000	0.174827868492678	-0.949892342234691
101250000	0.164156035737803	-0.95179023669233
101500000	0.153461027669907	-0.953535687367408
101750000	0.142790962651178	-0.955173599769412
102000000	0.132072311319099	-0.956683134032448
102250000	0.121336803890894	-0.958082034778461
102500000	0.110595995265958	-0.959365255120312
102750000	9.98189717282085E-02	-0.96049852352431
103000000	8.90311253977893E-02	-0.961547237667722
103250000	7.82627219166294E-02	-0.962471036282355
103500000	6.74327887626262E-02	-0.963228628843714
103750000	5.66627177226143E-02	-0.963893424922406
104000000	4.58221654541207E-02	-0.964450373915404
104250000	3.50045135518131E-02	-0.964869602958811
104500000	2.41658378508666E-02	-0.965177762734877
104750000	1.33469406485002E-02	-0.965330632863441
105000000	2.50411647733523E-03	-0.965387362639911
105250000	-8.32723240626889E-03	-0.965329327535
105500000	-1.91778965318643E-02	-0.965142961558514
105750000	-3.00108557401693E-02	-0.964823778724248
106000000	-4.08411861477595E-02	-0.964389145291019
106250000	-5.16549221328583E-02	-0.963825651411817
106500000	-6.24820519481392E-02	-0.963166852172491
106750000	-7.33103318550506E-02	-0.96235886470889
107000000	-8.40996537644885E-02	-0.961445269103592
107250000	-9.48895856475175E-02	-0.960394277236959
107500000	-0.105704152176368	-0.959199941473363
107750000	-0.116470465480062	-0.957901583276181
108000000	-0.127204100303	-0.956530789462086
108250000	-0.137956372897096	-0.954980690401124
108500000	-0.148685190746919	-0.953312623163953
108750000	-0.159386874099933	-0.951560385221127
109000000	-0.170072301363023	-0.949656693060624
109250000	-0.180746384688329	-0.947625183654037
109500000	-0.191400822304073	-0.945508825203821
109750000	-0.202015203616774	-0.943215684615431
110000000	-0.212616408089351	-0.940836128574496
110250000	-0.223173315163773	-0.938355502842877
110500000	-0.23373363238677	-0.935745138130482
110750000	-0.244221710506295	-0.932975919385147
111000000	-0.254694960681133	-0.93013867089949
111250000	-0.265157686280119	-0.927148964165827
111500000	-0.275556078491283	-0.924025937455979
111750000	-0.28594519778133	-0.92082310996202
112000000	-0.296289634044191	-0.917496540676971
112250000	-0.306594135476437	-0.914047504016675
112500000	-0.316860198992126	-0.910486432847317
112750000	-0.327080468030521	-0.906786094670028
113000000	-0.337259643810787	-0.902996095239806
113250000	-0.347402586013842	-0.899063351033452
113500000	-0.357515178393409	-0.895053923196828
113750000	-0.367545469866346	-0.890897418061402
114000000	-0.377554818795403	-0.886647726074219
114250000	-0.387526167327692	-0.882280757267772
114500000	-0.397423266766301	-0.877771524202228
114750000	-0.407278612935829	-0.873191548652286
115000000	-0.417088314083608	-0.868475017483144
115250000	-0.426835976734206	-0.8636696051046
115500000	-0.436540023524669	-0.858715733719668
115750000	-0.446157292252186	-0.85370379706302
116000000	-0.45576442668187	-0.848523884781207
116250000	-0.465268577644988	-0.843275823245456
116500000	-0.47474881999473	-0.83789817605673
116750000	-0.484133612645657	-0.832428674914213
117000000	-0.493470635940088	-0.826831028070566
117250000	-0.502746904173775	-0.821162896218565
117500000	-0.511986328303048	-0.815354519470523
117750000	-0.521089514907897	-0.809451397521193
118000000	-0.530202069585593	-0.8034575151583
118250000	-0.53919670972594	-0.797356368934355
118500000	-0.548140426108666	-0.791155172194804
118750000	-0.557025442160741	-0.784853876257711
119000000	-0.565800620345246	-0.778422195262554
119250000	-0.574536315958442	-0.771928843152485
119500000	-0.583181939832574	-0.76528962879448
119750000	-0.591754933574846	-0.758604582904073
120000000	-0.600261980155219	-0.751788518214693
120250000	-0.608698215679962	-0.744894912176993
120500000	-0.617023772026223	-0.737886123137119
120750000	-0.625293075141623	-0.730797362434271
121000000	-0.633470483593485	-0.723612932011719
121250000	-0.641562593936281	-0.716318972048781
121500000	-0.649580516157111	-0.708949023896899
121750000	-0.657514312519356	-0.701502878302525
122000000	-0.665366227106655	-0.693969239040346
122250000	-0.673105325606614	-0.686311451442654
122500000	-0.680809832280903	-0.67857472260156
122750000	-0.688367753949753	-0.670764513999089
123000000	-0.695868854197463	-0.662845188689675
123250000	-0.703276901559813	-0.65489314458455
123500000	-0.710578503625123	-0.646817727160427
123750000	-0.717810358925375	-0.638661256512453
124000000	-0.724935150962837	-0.630418599019643
124250000	-0.731964332279487	-0.622110818274359
124500000	-0.738903416365911	-0.613721028229529
124750000	-0.745749343642235	-0.605237281852125
125000000	-0.752498140952486	-0.596694325653899
125250000	-0.759157086097865	-0.588045614832774
125500000	-0.765696475598248	-0.57937624569564
125750000	-0.772164366237418	-0.570592427948208
126000000	-0.778497021519665	-0.561740968803527
126250000	-0.78472987679023	-0.552814008559365
126500000	-0.790889873279229	-0.543828229440243
126750000	-0.796925350484169	-0.534763558778045
127000000	-0.802873981500288	-0.525628939727449
127250000	-0.808710401487285	-0.516449783699064
127500000	-0.814436264615809	-0.50716479310279
127750000	-0.820062256003558	-0.497839040192003
128000000	-0.825566509113282	-0.488470932895554
128250000	-0.830965572872618	-0.479010642695761
128500000	-0.836284001386398	-0.469509766604414
128750000	-0.841456837702021	-0.45992498285014
129000000	-0.846560101893142	-0.450301320846462
129250000	-0.851527240656854	-0.440619558575815
129500000	-0.856398039092799	-0.430874637009653
129750000	-0.861143178548266	-0.421067659587287
130000000	-0.865797062790535	-0.411213437127976
130250000	-0.870314778619638	-0.401309873564458
130500000	-0.874726079920522	-0.391374643481446
130750000	-0.879020951364775	-0.381383839245141
131000000	-0.883192375129275	-0.3713039897059
131250000	-0.887281090355948	-0.361212798843149
131500000	-0.891224796683196	-0.351074600617743
131750000	-0.895083438257719	-0.340901613210023
132000000	-0.898799306027008	-0.330665859465828
132250000	-0.902397996911836	-0.320381990250553
132500000	-0.905874253735836	-0.310074992460739
132750000	-0.909227565131859	-0.299708176157966
133000000	-0.912506011872759	-0.289332480059964
133250000	-0.915623313890294	-0.278920931643961
133500000	-0.918654426090851	-0.268475551496322
133750000	-0.921543952484065	-0.257985040930504
134000000	-0.924308250286631	-0.247458672781698
134250000	-0.926957041967443	-0.236891739167784
134500000	-0.929504726305982	-0.226310498250697
134750000	-0.931903568568934	-0.215717279315683
135000000	-0.93421372500255	-0.20508742434235
135250000	-0.936353132809157	-0.194421191126932
135500000	-0.938425847879011	-0.183736424092488
135750000	-0.940339292191155	-0.173028586575757
136000000	-0.942134022233184	-0.16230210959868
136250000	-0.943831724950946	-0.151560333040735
136500000	-0.945383599059321	-0.140798907474615
136750000	-0.946811295664592	-0.130035429966197
137000000	-0.948106097584199	-0.119239864299127
137250000	-0.949312668269304	-0.108417788506421
137500000	-0.950370202393737	-9.76315975755808E-02
137750000	-0.951328372678998	-8.67624234725464E-02
138000000	-0.952124814682166	-7.59582506335577E-02
138250000	-0.952831751776087	-6.51162434330341E-02
138500000	-0.953401626928387	-5.42583475670946E-02
138750000	-0.953853727293192	-4.33932387992894E-02
139000000	-0.954172287912178	-3.25663683944794E-02
139250000	-0.954384289555366	-2.16770922451522E-02
139500000	-0.954455634137877	-1.08189299994225E-02
139750000	-0.95439767848091	5.60760968359141E-05
140000000	-0.954246399748394	1.09051903708461E-02
140250000	-0.953921180019058	2.17712104513097E-02
140500000	-0.95351084112846	3.26115910273598E-02
140750000	-0.952990902806763	4.34598267748288E-02
141000000	-0.952309378823433	5.42898006392823E-02
141250000	-0.951535317189732	0.065128283737784
141500000	-0.950601230297151	7.59061971526745E-02
141750000	-0.949577332606032	8.67402900245421E-02
142000000	-0.948420968941387	9.75396834928826E-02
142250000	-0.947145028582926	0.108310057756711
142500000	-0.945749504741128	0.119065890123643
142750000	-0.944200902506004	0.12979190691307
143000000	-0.942561321659832	0.140522705606884
143250000	-0.94076170777321	0.151230285672192
143500000	-0.938910636659723	0.161923488479572
143750000	-0.936911581530556	0.172576058295243
144000000	-0.934770501231098	0.183190296029364
144250000	-0.932494859500366	0.193811073504936
144500000	-0.930131902217688	0.204388620956354
