# Hz S RI R 50
40000000	0.334840088957273	0.84551829833012
40250000	0.424374062475368	0.805367000106509
40500000	0.509089687747329	0.7560541615094
40750000	0.58809397638852	0.698107079290212
41000000	0.660496406784464	0.632182472578109
41250000	0.725575075543636	0.558974579751095
41500000	0.782580768545778	0.479257121915732
41750000	0.830893432612617	0.393910482773191
42000000	0.870025235311505	0.303801050153169
42250000	0.89939633436397	0.209896978868315
42500000	0.918726866691642	0.113181204186198
42750000	0.92769630862946	1.47335286655529E-02
43000000	0.926126189396402	-8.43628091428808E-02
43250000	0.913921630994698	-0.183056543860996
43500000	0.891154350182795	-0.280179871791217
43750000	0.857968536731771	-0.374634764584927
44000000	0.81463422444025	-0.465306229578481
44250000	0.761534614190279	-0.551076282110351
44500000	0.699170693468748	-0.630898067607357
44750000	0.62820244809496	-0.703721909209425
45000000	0.549338346404216	-0.768599478355624
45250000	0.463491713816806	-0.824638391448406
45500000	0.371637904867495	-0.871057461904483
45750000	0.274823513185759	-0.90713830487952
46000000	0.174217817859804	-0.932302829367054
46250000	7.10915108839011E-02	-0.946136118865678
46500000	-3.32992040346067E-02	-0.948330471415019
46750000	-0.137564641974064	-0.938746953474602
47000000	-0.240363595335336	-0.91741258696867
47250000	-0.340327275540904	-0.884497439775475
47500000	-0.436064688642091	-0.840412689566394
47750000	-0.526340398741793	-0.785655597178437
48000000	-0.609885340564038	-0.720909483024707
48250000	-0.685565728037952	-0.647026639082456
48500000	-0.752329157913563	-0.564998894896824
48750000	-0.809300276603127	-0.475896837856718
49000000	-0.855712577665526	-0.380949672306106
49250000	-0.890959905535304	-0.281453121833812
49500000	-0.914618295548518	-0.178740209883975
49750000	-0.926400109379825	-7.42304688443309E-02
50000000	-0.926244615596786	3.07009620763421E-02
50250000	-0.914233398271354	0.134648640453757
50500000	-0.890644676883671	0.236266010092154
50750000	-0.855833843102777	0.334240437464946
51000000	-0.810402050649663	0.427342415629774
51250000	-0.755058412404781	0.514425911544971
51500000	-0.69056088779851	0.594425879720358
51750000	-0.617905315409315	0.666493663190602
52000000	-0.538015437907279	0.729753483170755
52250000	-0.452027933212185	0.783585763522644
52500000	-0.36102039403225	0.827407937982294
52750000	-0.26616506651014	0.860858465615688
53000000	-0.168635155314095	0.883641939849821
53250000	-6.96171026818181E-02	0.895626535521543
53500000	2.97312709840161E-02	0.896803440258307
53750000	0.128226659164783	0.887287050591856
54000000	0.224792168335195	0.867261650034125
54250000	0.318335953044021	0.837077703434992
54500000	0.407868591402518	0.797173824331406
54750000	0.492346193264787	0.74806514273413
55000000	0.57096222452857	0.690349733726943
55250000	0.642847962630744	0.624739387281928
55500000	0.707250497530521	0.551977733141124
55750000	0.763484791982936	0.472898637734343
56000000	0.810994034632967	0.38838825800922
56250000	0.849253035527017	0.29934025224099
56500000	0.877893209831991	0.206765864415102
56750000	0.89654977433193	0.111645217838441
57000000	0.905025697587262	1.50100140690234E-02
57250000	0.903217885341097	-8.20822460914244E-02
57500000	0.891076500096422	-0.178547377597059
57750000	0.868725253405726	-0.273366130014301
58000000	0.836361362081216	-0.365450577178379
58250000	0.794225731091297	-0.45373160893397
58500000	0.742762799616375	-0.537258080365198
58750000	0.682464360184352	-0.614980224074903
59000000	0.613936887196156	-0.685992159394742
59250000	0.537942584836063	-0.749404747660485
59500000	0.455214589397213	-0.804421344116884
59750000	0.366712850106622	-0.850277828829264
60000000	0.273436755322929	-0.886364363915828
60250000	0.176411781383395	-0.912104659822195
60500000	7.67917456423946E-02	-0.927132771315926
60750000	-0.024211448604663	-0.931138714446815
61000000	-0.125392037132906	-0.923902096738855
61250000	-0.225456726925426	-0.905484728306824
61500000	-0.323181047063544	-0.875956159984218
61750000	-0.417291293359457	-0.835616931035602
62000000	-0.506519849051707	-0.78489417277296
62250000	-0.589706084332783	-0.724324054809111
62500000	-0.665747236872629	-0.654673021126161
62750000	-0.733555303279444	-0.576761486410505
63000000	-0.792273812888173	-0.491586895124932
63250000	-0.841059378452437	-0.400210937294638
63500000	-0.879213232059974	-0.303845453138684
63750000	-0.90623619863524	-0.203758006873857
64000000	-0.921781731452806	-0.101234738027442
64250000	-0.925618408846591	2.33754044695533E-03
64500000	-0.917712997354915	0.105602867714237
64750000	-0.898205499778328	0.207197478443242
65000000	-0.867384877753416	0.305795790444066
65250000	-0.825692895460299	0.400136194275246
65500000	-0.773764805772785	0.488964618324282
65750000	-0.712311159826543	0.571194095980772
66000000	-0.642205280108895	0.645841367531435
66250000	-0.564406646107598	0.711931909895884
66500000	-0.479957385106479	0.768769827217545
66750000	-0.389961694083599	0.815637756630532
67000000	-0.295633851571977	0.85214100201859
67250000	-0.198205753665183	0.877858395171681
67500000	-9.88498253958685E-02	0.89257589876427
67750000	1.1713261227205E-03	0.896229427016592
68000000	0.100601866298202	0.888905476122991
68250000	0.198334323907696	0.870797409474068
68500000	0.293174057425869	0.842184824687175
68750000	0.384034619954852	0.803539027900215
69000000	0.469892431245854	0.755373579648475
69250000	0.549759033726245	0.698371040096897
69500000	0.622799604748347	0.633247001852655
69750000	0.688228946109382	0.560776380736266
70000000	0.745313232104113	0.481872957726557
70250000	0.79349636555405	0.397454549318167
70500000	0.832266582818095	0.308515291287602
70750000	0.861227552151423	0.216060730682741
71000000	0.880086277239249	0.12115018939689
71250000	0.888688491537668	0.024859237101004
71500000	0.886929434893327	-7.17490591392066E-02
71750000	0.874844273524887	-0.167562895324369
72000000	0.852594343358328	-0.26153049960558
72250000	0.820398031952539	-0.352600905934557
72500000	0.77862899017095	-0.439780461858636
72750000	0.72773924908449	-0.522023342874652
73000000	0.668228526419226	-0.598424956411202
73250000	0.600826768930885	-0.668103381407053
73500000	0.526197604078411	-0.730216866785607
73750000	0.445189786187	-0.784011535930539
74000000	0.358694257943743	-0.828863714754597
74250000	0.267668149457069	-0.864199432657776
74500000	0.173160750122715	-0.88955073536868
74750000	7.62685145045643E-02	-0.904540957271354
75000000	-2.19234496741097E-02	-0.908912790982369
75250000	-0.120265503223492	-0.902579466708196
75500000	-0.21752939635453	-0.88549168421858
75750000	-0.312581058661585	-0.857844565626692
76000000	-0.404240404635193	-0.819866661218633
76250000	-0.491391870127648	-0.771929917390858
76500000	-0.572904137020864	-0.714595857644844
76750000	-0.647790355630561	-0.648470646871326
77000000	-0.715019389293976	-0.574361107248357
77250000	-0.773768142437069	-0.493110705627351
77500000	-0.82323874265703	-0.405703058774315
77750000	-0.862759891957405	-0.313204164395705
78000000	-0.891783945606118	-0.216792752194856
78250000	-0.909963212951975	-0.11760754866725
78500000	-0.916964807661966	-1.69525205502875E-02
78750000	-0.912721793253235	8.39178846699158E-02
79000000	-0.897251379512358	0.183700019301395
79250000	-0.870733714751128	0.28118471898959
79500000	-0.833517468485843	0.375083713893846
79750000	-0.786064372751241	0.464198744324215
80000000	-0.729006429827187	0.547461435903459
80250000	-0.663087811194191	0.623746066489747
80500000	-0.589137560893385	0.69218728850907
80750000	-0.508118013956084	0.751888670903961
81000000	-0.421059325958168	0.802095096905479
81250000	-0.329096418807133	0.842304941872217
81500000	-0.233403147647671	0.871968406800954
81750000	-0.135154581911793	0.890832436804512
82000000	-3.56340995059319E-02	0.898672437811829
82250000	6.39654891610234E-02	0.895439826389676
82500000	0.162420297018117	0.881271634682085
82750000	0.258517037591317	0.85636020225037
83000000	0.351111455029834	0.821087489897095
83250000	0.439074842334019	0.775927011538914
83500000	0.521366744135001	0.721470801530271
83750000	0.597048497054063	0.658453016651463
84000000	0.665253132190239	0.587643165225816
84250000	0.725173987030738	0.509928024969235
84500000	0.776158318888664	0.426283156911467
84750000	0.817632639353418	0.337704367719813
85000000	0.849148497378607	0.24528333262945
85250000	0.87036968390159	0.150075908957172
85500000	0.88108484758125	5.32739223210718E-02
85750000	0.881191506372344	-4.40575364170764E-02
86000000	0.870724386758744	-0.140696554540474
86250000	0.849835446360804	-0.235552241941276
86500000	0.818762592661707	-0.327527271730351
86750000	0.777905086393047	-0.415512764394587
87000000	0.727759975566141	-0.498533305776733
87250000	0.668884992976296	-0.575586988594797
87500000	0.601988803832961	-0.645775435945411
87750000	0.527873035672997	-0.708296606989677
88000000	0.447388834108288	-0.762387305288579
88250000	0.361453174962931	-0.80744473984351
88500000	0.271114181087729	-0.842885500762252
88750000	0.17738927224152	-0.86828828425452
89000000	8.14130020564332E-02	-0.883366872405544
89250000	-1.56819526137309E-02	-0.887864259760656
89500000	-0.112782374862394	-0.881772086831235
89750000	-0.208700718778561	-0.865112616674692
90000000	-0.302317708713417	-0.838072956526646
90250000	-0.392462332691062	-0.800929037314665
90500000	-0.478085889378681	-0.75412377059507
90750000	-0.558144813201835	-0.698201734939153
91000000	-0.631671148531682	-0.63381263369262
91250000	-0.697756991099375	-0.561698586738139
91500000	-0.755576940539875	-0.482731439332911
91750000	-0.804429026791956	-0.397848060866692
92000000	-0.843719745046773	-0.308061221043829
92250000	-0.872944466762563	-0.214471168854624
92500000	-0.891636330658233	-0.118161660308677
92750000	-0.899758323183875	-0.020360849067566
93000000	-0.897122405606696	7.77737047783658E-02
93250000	-0.883699331995597	0.175071761964719
93500000	-0.859697618115762	0.270316328913909
93750000	-0.825354781819932	0.362363654885464
94000000	-0.781155816317564	0.450085881968405
94250000	-0.727563117825396	0.532426091943102
94500000	-0.665263048654879	0.608391029529965
94750000	-0.59502782813206	0.677041461368106
95000000	-0.517673742444181	0.737555956701015
95250000	-0.434136019024278	0.789235966106645
95500000	-0.345529252465277	0.831401588244493
95750000	-0.252830328863638	0.863608673669808
96000000	-0.157171119748869	0.885431002671067
96250000	-0.05975076548836	0.896627536118764
96500000	3.82864739592011E-02	0.897072163364154
96750000	0.135734920499736	0.886741732987621
97000000	0.231415761495346	0.865816870716195
97250000	0.324231235966013	0.834529604130492
97500000	0.412992996967946	0.793279334855079
97750000	0.496665317584758	0.742548450397348
98000000	0.574261448069766	0.682969199748672
98250000	0.644819068107004	0.615264158162131
98500000	0.70748875106205	0.540231260259712
98750000	0.761556708444529	0.458792705495702
99000000	0.80631576107082	0.371935069091285
99250000	0.841270549556927	0.280703096688095
99500000	0.86597937786696	0.186193201459888
99750000	0.880142367917753	0.089545308865641
100000000	0.883585830464651	-8.03434181219289E-03
100250000	0.876269180340316	-0.10542763271058
100500000	0.858274859051549	-0.201398134213663
100750000	0.829813916256086	-0.294784218056537
101000000	0.791255951015156	-0.384474157385631
101250000	0.743027922089572	-0.469348855980402
101500000	0.685724398796617	-0.548394566337555
101750000	0.620089857010887	-0.620619560118025
102000000	0.546850860828911	-0.685169234877666
102250000	0.466947611217089	-0.741203658774663
102500000	0.381373908407296	-0.788075866413545
102750000	0.291146475752018	-0.825210185177324
103000000	0.197383239951682	-0.85211655000666
103250000	0.101275885095343	-0.868509289925756
103500000	3.9343311233768E-03	-0.874160205231102
103750000	-9.33556170342912E-02	-0.869054159688722
104000000	-0.189476195907753	-0.85323449669123
104250000	-0.283196421035954	-0.826884394821337
104500000	-0.373403922385684	-0.790404254033436
104750000	-0.45896991603806	-0.744187164683101
105000000	-0.538878471434545	-0.688894633606803
105250000	-0.612141526229956	-0.625164350868601
105500000	-0.6779119618965	-0.553801667570153
105750000	-0.735365072682724	-0.475735871995816
106000000	-0.783859760545441	-0.391902945885789
106250000	-0.822819224993258	-0.303335332767464
106500000	-0.851833623444556	-0.211096463563862
106750000	-0.870515551997638	-0.116343720110765
107000000	-0.878749757452063	-2.02237393803075E-02
107250000	-0.876436771572667	7.61222220238699E-02
107500000	-0.863604444184733	0.171558516039588
107750000	-0.840496720100499	0.26493828544594
108000000	-0.807441182076781	0.355132519195334
108250000	-0.764763675142884	0.441152809783014
108500000	-0.713059652948484	0.52193800185154
108750000	-0.652974368281597	0.596557448569437
109000000	-0.58517823676223	0.664222024132563
109250000	-0.510539428915267	0.724086971087801
109500000	-0.429905380754088	0.775513208843823
109750000	-0.344214667196848	0.817871166713973
110000000	-0.254497682714258	0.850747361384009
110250000	-0.161757555337571	0.873745686551965
110500000	-0.067132432735859	0.886555742712638
110750000	0.028370427129534	0.889128500854263
111000000	0.123553578480195	0.881350845723574
111250000	0.217389436864256	0.863349194392818
111500000	0.308763716790903	0.835289390061221
111750000	0.396629929516126	0.797550073718264
112000000	0.479925154082732	0.750475591973636
112250000	0.557720995364706	0.694610449861579
112500000	0.62907032747844	0.630613633790534
112750000	0.693132000493323	0.559158632366029
113000000	0.749092661386395	0.481100997709843
113250000	0.796307815059202	0.397296478727911
113500000	0.834158611189952	0.308753258274384
113750000	0.862136970362753	0.216476825308851
114000000	0.879906716580932	0.121542871498763
114250000	0.887174789166732	2.51051941619235E-02
114500000	0.883805234166708	-7.17198775735616E-02
114750000	0.869777217476147	-0.167695677784782
115000000	0.845225378698871	-0.261700525107989
115250000	0.81039923542434	-0.352555931490352
115500000	0.765661255672412	-0.439118461606152
115750000	0.711521591025493	-0.520285979562294
116000000	0.648620229463247	-0.595063091754847
116250000	0.577724850799916	-0.662432525912477
116500000	0.49967530744107	-0.721541391894094
116750000	0.415449919467811	-0.771597869468583
117000000	0.326066242967669	-0.811966381149945
117250000	0.232695493051484	-0.842100159207911
117500000	0.136492488391949	-0.861603466236024
117750000	0.038692779956364	-0.870172388984081
118000000	-5.94378854070225E-02	-0.867738427630223
118250000	-0.15663772734928	-0.854311765668186
118500000	-0.251706940043498	-0.830075652032342
118750000	-0.343360075648642	-0.795345424431324
119000000	-0.430469271999496	-0.750603738966134
119250000	-0.511924349268808	-0.696463366925875
119500000	-0.586708064408486	-0.633594526420866
119750000	-0.653885031024785	-0.562902077266598
120000000	-0.712660568887538	-0.485264604627432
120250000	-0.762322229362759	-0.401739298151904
120500000	-0.802268550830454	-0.313400450092691
120750000	-0.832118955455504	-0.221358550295563
121000000	-0.85156953162049	-0.126812808509509
121250000	-0.86037755574399	-3.09358032258779E-02
121500000	-0.858609193702813	6.50730838823983E-02
121750000	-0.846336871205321	0.160082979997208
122000000	-0.82379751555399	0.252913837432631
122250000	-0.791257567396089	0.34247948151133
122500000	-0.749325902135099	0.427756365314336
122750000	-0.69848094042763	0.507753945658348
123000000	-0.639398908053664	0.581568277872396
123250000	-0.572876788256917	0.648459726166506
123500000	-0.499674615965174	0.707588862735554
123750000	-0.420699713680324	0.758425930099331
124000000	-0.336895482593832	0.800401036782739
124250000	-0.249247004939055	0.833091557886491
124500000	-0.158740157393992	0.856216354535795
124750000	-6.64140068979062E-02	0.869503389815114
125000000	2.67049000741128E-02	0.872881428357813
125250000	0.119569470117814	0.866323770704931
125500000	0.211162221900778	0.849973511290135
125750000	0.300480461809283	0.823965117197499
126000000	0.386514282803903	0.78863568538013
126250000	0.468323079736129	0.744331308903026
126500000	0.545021687524688	0.691574146687046
126750000	0.615713331332209	0.630901097182171
127000000	0.679662875681227	0.562972748629751
127250000	0.736028132784154	0.488539823547131
127500000	0.784248635653889	0.408373391287692
127750000	0.823662582510465	0.32334987284152
128000000	0.853853506363562	0.234426241994604
128250000	0.874353065182158	0.142550266982253
128500000	0.884857777857925	4.87807075573439E-02
128750000	0.885180366607689	-0.045850314988839
129000000	0.875262534541586	-0.140226550383282
129250000	0.855067882466748	-0.2332391495186
129500000	0.824760397995463	-0.323783422124431
129750000	0.784625444887499	-0.410708347054315
130000000	0.735034270973721	-0.492981248638885
130250000	0.676514852535419	-0.569527682621302
130500000	0.609668265359518	-0.639343405997601
130750000	0.535318403710728	-0.701525825550065
131000000	0.454198793843055	-0.755196222879648
131250000	0.367422769243387	-0.799591216576653
131500000	0.275981954858821	-0.834078880070639
131750000	0.181017141314722	-0.858145371120234
132000000	8.37347998377703E-02	-0.871391279699382
132250000	-1.46114690209759E-02	-0.873538019624024
132500000	-0.112690968695972	-0.864541651395939
132750000	-0.20926188508924	-0.84445939507876
133000000	-0.302972101766396	-0.813556053857057
133250000	-0.392625906909155	-0.772118129631421
133500000	-0.47699885028263	-0.720767168921435
133750000	-0.55495019360486	-0.660147389486275
134000000	-0.625456064309662	-0.591097540512941
134250000	-0.687586859834793	-0.514525076972191
134500000	-0.740528514627478	-0.431522161098489
134750000	-0.783628599070992	-0.343177493495996
135000000	-0.816350959209998	-0.250706429123302
135250000	-0.838338197533342	-0.155350316266216
135500000	-0.849402979507205	-5.83612797184953E-02
135750000	-0.849438701898842	3.89483683915377E-02
136000000	-0.838569901403966	0.135336366120278
136250000	-0.817070699373721	0.229606632901598
136500000	-0.785267076633736	0.320534189657249
136750000	-0.743710181423736	0.407023687921158
137000000	-0.693000142657537	0.488070997067646
137250000	-0.633903039893498	0.562753635955115
137500000	-0.567217237299676	0.630165741214119
137750000	-0.493797019686968	0.689654863505747
138000000	-0.414667342727094	0.740576434667049
138250000	-0.330758488043628	0.782474842838731
138500000	-0.243130632042903	0.814890173237886
138750000	-0.152862648180129	0.837568565639621
139000000	-6.09915541928567E-02	0.850378670453161
139250000	0.031474495310859	0.853266767911373
139500000	0.123447664854186	0.846258947963717
139750000	0.213911942585328	0.829562020229345
140000000	0.301912841591116	0.803410876630261
140250000	0.386462253384672	0.768148187385432
140500000	0.466666420231038	0.724230970004476
140750000	0.541727813723277	0.672124261915221
141000000	0.610796917438271	0.612470371505381
141250000	0.67316701299276	0.545910044658733
141500000	0.728182792662744	0.473167208163985
141750000	0.775263968781952	0.39499125607001
142000000	0.813862885864011	0.312237490914124
142250000	0.843586358166092	0.225819698738232
142500000	0.864043083155044	0.136597628273386
142750000	0.874989071311551	4.55777625998497E-02
143000000	0.87624073777059	-4.62722543947731E-02
143250000	0.867747622896051	-0.137994587733506
143500000	0.849505653892414	-0.228511559328263
143750000	0.821627889188405	-0.316839605027838
144000000	0.784356712202734	-0.401966003133408
144250000	0.73800201306966	-0.482900327801168
144500000	0.683019870272013	-0.558596289529797
144750000	0.619922196909318	-0.628201264024287
