# Hz S RI R 50
40000000	8.28832528574997E-03	-1.52048093508066E-02
40250000	8.12933191443363E-03	-1.52302940279474E-02
40500000	7.96889310831912E-03	-1.52566413719996E-02
40750000	7.81105134196436E-03	-1.52782759313102E-02
41000000	7.64871728780258E-03	-1.52990834580466E-02
41250000	7.48755239783469E-03	-1.53183019097901E-02
41500000	7.32804666997163E-03	-1.53344066022017E-02
41750000	7.16735173639177E-03	-1.53494663246974E-02
42000000	7.00735460839127E-03	-1.53625400471103E-02
42250000	6.84411817938602E-03	-0.015373347509618
42500000	6.68225777331624E-03	-1.53825815060252E-02
42750000	6.52035168004368E-03	-1.53908149149075E-02
43000000	6.35908488561405E-03	-1.53964257941146E-02
43250000	6.19596985451859E-03	-1.53987791165643E-02
43500000	6.03374406098185E-03	-1.54008062437787E-02
43750000	5.87180986612537E-03	-1.54002998264135E-02
44000000	5.71012221901783E-03	-1.53991541619613E-02
44250000	5.54774402494482E-03	-1.53933928648018E-02
44500000	5.38477410621232E-03	-1.53893550994178E-02
44750000	5.22192407888608E-03	-1.53794280218778E-02
45000000	5.05851045440152E-03	-1.53699704527127E-02
45250000	4.89639604914497E-03	-1.53571723646977E-02
45500000	4.73429681788989E-03	-1.53462561934387E-02
45750000	4.5707053485067E-03	-1.53280158114614E-02
46000000	4.41120879462159E-03	-1.53121433728261E-02
46250000	4.25023946035502E-03	-1.52926300053125E-02
46500000	4.08775361996008E-03	-1.52710937622997E-02
46750000	3.92592811074406E-03	-1.52469777221669E-02
47000000	3.76500483311208E-03	-1.52210201908732E-02
47250000	3.60302453644637E-03	-1.51954507303578E-02
47500000	3.44127044621048E-03	-1.51658554810883E-02
47750000	3.2825353762992E-03	-0.01513502805466
48000000	3.12019073054257E-03	-1.51036069716489E-02
48250000	2.96101541332068E-03	-1.50688205884788E-02
48500000	2.80184870540166E-03	-0.015032698092613
48750000	2.64135853145535E-03	-1.49942668043531E-02
49000000	2.48434296270479E-03	-1.49530772389002E-02
49250000	2.32619329153741E-03	-0.014909692938464
49500000	2.16770947571197E-03	-1.48661661237668E-02
49750000	2.01006758238755E-03	-1.48198877489312E-02
50000000	1.85407502274491E-03	-1.47719012362465E-02
50250000	1.69701620124149E-03	-0.014721822577756
50500000	1.54042337714734E-03	-1.46709236042016E-02
50750000	1.38574945236017E-03	-1.46172947508605E-02
51000000	1.23164913249631E-03	-1.45619255885458E-02
51250000	1.07686155407602E-03	-1.45047243606533E-02
51500000	9.23436992690259E-04	-1.44469552821663E-02
51750000	7.69853342051272E-04	-1.43851383407873E-02
52000000	6.19340734902995E-04	-1.43212562959738E-02
52250000	4.68157252286063E-04	-1.42571750289941E-02
52500000	3.16900670931623E-04	-1.41919699188703E-02
52750000	1.65924079878267E-04	-1.41223756511985E-02
53000000	1.77275927574667E-05	-1.40528346964985E-02
53250000	-1.31187912712079E-04	-1.39818701503881E-02
53500000	-2.77832258929867E-04	-1.39081291694134E-02
53750000	-4.25158041051903E-04	-1.38325932986835E-02
54000000	-5.69954473497477E-04	-0.013756598014522
54250000	-7.16225063645509E-04	-1.36770863157322E-02
54500000	-8.6062755625434E-04	-1.35971444320204E-02
54750000	-1.0038770339941E-03	-1.35155315698766E-02
55000000	-1.14574347506645E-03	-1.34307391733794E-02
55250000	-1.28651730620285E-03	-1.33449930095854E-02
55500000	-1.42706652988514E-03	-0.013258290728139
55750000	-1.56651723530994E-03	-0.013166725558676
56000000	-1.70477284039444E-03	-1.30770862487637E-02
56250000	-1.8406037585378E-03	-1.29850362514864E-02
56500000	-1.97649233577908E-03	-1.28905638441713E-02
56750000	-2.11235797818107E-03	-1.27977765674315E-02
57000000	-2.24694336519206E-03	-1.26978799489722E-02
57250000	-2.37973157508125E-03	-1.26005464037719E-02
57500000	-2.51128005836985E-03	-0.012498576044978
57750000	-2.64063117192765E-03	-1.23970501862832E-02
58000000	-2.77086982064268E-03	-1.22937658046978E-02
58250000	-2.89946124107437E-03	-1.21882921520477E-02
58500000	-3.02634884174435E-03	-1.20810862175432E-02
58750000	-3.15177000236939E-03	-1.19730171477817E-02
59000000	-3.27555519335273E-03	-1.18623068058676E-02
59250000	-3.40007721956719E-03	-1.17532808040348E-02
59500000	-3.52179780482593E-03	-1.16402791982115E-02
59750000	-3.64125421316653E-03	-1.15242441504576E-02
60000000	-3.76073670520104E-03	-0.011409989326036
60250000	-3.88115876876766E-03	-1.12927182292949E-02
60500000	-3.99688846028724E-03	-1.11720853098285E-02
60750000	-4.10962603891328E-03	-1.10536595583092E-02
61000000	-4.2229507940782E-03	-1.09326858000675E-02
61250000	-4.33520114835554E-03	-1.08080204545415E-02
61500000	-4.44694151234591E-03	-1.06854570550514E-02
61750000	-4.55631199445351E-03	-1.05600063240981E-02
62000000	-4.66227314081744E-03	-1.04329872604366E-02
62250000	-4.77150937547698E-03	-1.03041388260676E-02
62500000	-4.87540498078186E-03	-1.01751197963575E-02
62750000	-4.98117967559377E-03	-1.00450348372608E-02
63000000	-5.07974788392806E-03	-9.91336756815595E-03
63250000	-5.1806483340512E-03	-9.7797343409758E-03
63500000	-5.27997638544219E-03	-9.64660924068855E-03
63750000	-5.37701263047334E-03	-9.50971186827034E-03
64000000	-5.47413501070013E-03	-9.37222197920221E-03
64250000	-5.56753101159927E-03	-9.23437088267533E-03
64500000	-5.66106843718699E-03	-9.09538683008314E-03
64750000	-5.75054726760889E-03	-8.95568278705912E-03
65000000	-5.83848903095563E-03	-8.81420996024941E-03
65250000	-5.92503490872598E-03	-8.67112867355034E-03
65500000	-6.01101212791095E-03	-8.52788937859866E-03
65750000	-6.09661325655797E-03	-8.38303301706598E-03
66000000	-6.17955262335064E-03	-8.23693704091934E-03
66250000	-6.26005870819088E-03	-8.09067267323767E-03
66500000	-6.3381224355382E-03	-7.94352828112952E-03
66750000	-6.41445299448291E-03	-7.79384324645119E-03
67000000	-6.49057215871269E-03	-7.64331405920661E-03
67250000	-6.56538713736377E-03	-7.49270072830582E-03
67500000	-6.63676755875789E-03	-7.34284288000043E-03
67750000	-6.70672107400029E-03	-7.18991759781062E-03
68000000	-6.77498188335556E-03	-7.03760190423661E-03
68250000	-6.84182904705756E-03	-6.88084598084827E-03
68500000	-6.90608662287878E-03	-6.72730929960342E-03
68750000	-6.9687166165433E-03	-6.57151894721582E-03
69000000	-7.02797237937172E-03	-6.41453032940439E-03
69250000	-7.08829347876992E-03	-6.25613090414548E-03
69500000	-7.14575493313667E-03	-6.09864254720118E-03
69750000	-7.20143682259115E-03	-5.93932290578471E-03
70000000	-7.25382920326964E-03	-5.7819685265587E-03
70250000	-7.30595891558719E-03	-0.005620055332822
70500000	-7.35551461728474E-03	-5.45958182894538E-03
70750000	-7.40333881782084E-03	-5.29942548936718E-03
71000000	-7.44974592023141E-03	-5.13449269049497E-03
71250000	-7.49170475566328E-03	-4.97237308991649E-03
71500000	-7.53528008579173E-03	-4.80993429333492E-03
71750000	-7.57476692377271E-03	-4.64476452333111E-03
72000000	-7.61456359016765E-03	-4.48157759384149E-03
72250000	-7.65034488025825E-03	-4.31574333638216E-03
72500000	-7.68345676617584E-03	-4.15068684407622E-03
72750000	-7.71649353785962E-03	-3.98457343095306E-03
73000000	-7.74547255755167E-03	-3.81838835679533E-03
73250000	-7.77471006588435E-03	-3.6514725259387E-03
73500000	-7.79881291714349E-03	-3.48392839863077E-03
73750000	-7.82489870343971E-03	-3.31739065048201E-03
74000000	-7.84809596506565E-03	-3.15007703242587E-03
74250000	-7.86580695284726E-03	-2.98322156461255E-03
74500000	-7.88537322144243E-03	-2.81232832920862E-03
74750000	-7.90149556849804E-03	-2.64359575707611E-03
75000000	-7.91619972417075E-03	-2.47484938943597E-03
75250000	-7.92786835695353E-03	-2.30563469510408E-03
75500000	-7.93751262612559E-03	-2.13585504805464E-03
75750000	-7.9471710284241E-03	-1.96651297501337E-03
76000000	-7.95296926083622E-03	-1.7974225217142E-03
76250000	-7.95629941412148E-03	-1.62843278952141E-03
76500000	-7.95803612453551E-03	-1.45760524850032E-03
76750000	-7.95977828074357E-03	-1.28708179135667E-03
77000000	-7.95502266563146E-03	-1.11556648999619E-03
77250000	-7.95165270742396E-03	-9.45432498240407E-04
77500000	-7.94689301966751E-03	-7.76621464884466E-04
77750000	-7.93741109623593E-03	-6.059766447922E-04
78000000	-7.9291061595402E-03	-4.3587308796549E-04
78250000	-7.91546498375708E-03	-2.65238866888332E-04
78500000	-7.90076425533502E-03	-9.51228390195281E-05
78750000	-7.88413236062657E-03	7.43870252974231E-05
79000000	-7.86682346607005E-03	2.44206683626325E-04
79250000	-7.8461828389869E-03	4.14065005953428E-04
79500000	-7.82296029735596E-03	5.84027861728089E-04
79750000	-7.80129512395728E-03	7.5400543387965E-04
80000000	-7.77417240415541E-03	9.22787894859716E-04
80250000	-7.74462077684645E-03	1.0925810505499E-03
80500000	-7.7147790332302E-03	1.2619517141348E-03
80750000	-7.68312968317158E-03	1.42944534521415E-03
81000000	-7.64793337713508E-03	1.59670432030476E-03
81250000	-7.6107958054167E-03	1.76440980261962E-03
81500000	-7.57098268752875E-03	1.93327504611826E-03
81750000	-7.53238250336392E-03	2.10005170933938E-03
82000000	-7.49014428456664E-03	2.26714492949966E-03
82250000	-7.44394297200739E-03	2.43152816496269E-03
82500000	-7.39766984477067E-03	2.59650303655306E-03
82750000	-7.34812994950891E-03	2.76368624639048E-03
83000000	-7.29675074359759E-03	2.92573313520725E-03
83250000	-7.24341120692003E-03	3.09022648758359E-03
83500000	-7.19045134850141E-03	3.25354434211171E-03
83750000	-7.13160382616317E-03	3.4178986461658E-03
84000000	-7.0744981573983E-03	3.57978375595424E-03
84250000	-7.01393647344752E-03	0.003741733521875
84500000	-6.95037815130374E-03	3.90262542142236E-03
84750000	-6.88622236340374E-03	4.06334311791263E-03
85000000	-6.81889089669599E-03	4.22117772701639E-03
85250000	-6.7518572907643E-03	4.38272449688548E-03
85500000	-6.68059886666116E-03	4.54154319359425E-03
85750000	-6.60876909258543E-03	4.6973809678135E-03
86000000	-6.53397444880333E-03	4.85403708599305E-03
86250000	-6.45920425785758E-03	5.01059991296735E-03
86500000	-6.38069103338195E-03	5.1641802936628E-03
86750000	-6.30026410939655E-03	5.32004113537893E-03
87000000	-6.21912054323483E-03	5.47446205160314E-03
87250000	-6.13553805365148E-03	5.62505839311516E-03
87500000	-6.04752587434343E-03	5.77781438881689E-03
87750000	-5.96033828319595E-03	5.92895146468169E-03
88000000	-5.87136856314008E-03	6.07708220123485E-03
88250000	-5.7797821140884E-03	6.22594409791419E-03
88500000	-5.68696753060423E-03	6.37452471685359E-03
88750000	-5.59294991324547E-03	6.52066916799939E-03
89000000	-5.49617914790502E-03	6.66685802887168E-03
89250000	-5.39658925900416E-03	6.81100174970398E-03
89500000	-5.29745604080214E-03	6.95391667489267E-03
89750000	-5.19424685967131E-03	7.09603128335542E-03
90000000	-5.09068780851877E-03	7.23606526307704E-03
90250000	-4.98620770656483E-03	7.37657682494562E-03
90500000	-4.87984865895155E-03	7.51611686684781E-03
90750000	-4.7703521452276E-03	7.65238283888251E-03
91000000	-4.65892029877173E-03	7.78918388023677E-03
91250000	-4.54642881796198E-03	7.92410716546691E-03
91500000	-4.43253424212969E-03	8.05866625509914E-03
91750000	-4.31736291202733E-03	8.19213383999132E-03
92000000	-4.20105348104736E-03	8.32233727936763E-03
92250000	-4.08078360368939E-03	8.45267612869862E-03
92500000	-3.96054965113835E-03	8.58127730459941E-03
92750000	-3.83948709109595E-03	8.71100114006415E-03
93000000	-3.71632068374437E-03	8.83563810240525E-03
93250000	-3.58990438337105E-03	8.96024408246171E-03
93500000	-3.46326481263995E-03	9.08519602139685E-03
93750000	-3.33478980950077E-03	9.20634577078573E-03
94000000	-3.20425720690843E-03	9.32696859555334E-03
94250000	-3.07310945501897E-03	9.44515989515043E-03
94500000	-2.94065058652116E-03	9.56414911540124E-03
94750000	-2.80627324507201E-03	9.67829120713508E-03
95000000	-2.66984496389395E-03	9.79308533802344E-03
95250000	-2.53255778169442E-03	9.90601781284554E-03
95500000	-2.39436621181562E-03	1.00160502477902E-02
95750000	-2.25444864481717E-03	1.01263355672654E-02
96000000	-2.1121494680537E-03	1.02351271512128E-02
96250000	-1.96924591879264E-03	1.03427509323138E-02
96500000	-1.82612618884626E-03	1.04466310334516E-02
96750000	-1.68108510446894E-03	1.05494597120003E-02
97000000	-1.53339094253504E-03	1.06510510914714E-02
97250000	-1.38579517983513E-03	1.07518901414451E-02
97500000	-1.23487685924006E-03	1.08507057345353E-02
97750000	-1.08665597432949E-03	1.09474229815659E-02
98000000	-9.32880322281818E-04	1.10433437308328E-02
98250000	-7.79088771167756E-04	0.011134689341493
98500000	-6.25987008853987E-04	0.01122839715508
98750000	-4.68253254727718E-04	1.13155627101021E-02
99000000	-3.12782421609167E-04	1.14053412120445E-02
99250000	-1.54852210170937E-04	1.14885168512827E-02
99500000	4.16652965487472E-06	1.15758278944269E-02
99750000	1.65836596938681E-04	1.16593234847047E-02
100000000	3.2666968119572E-04	1.17397621091801E-02
100250000	4.88281293094908E-04	1.18166582795559E-02
100500000	6.5053736425317E-04	1.18963693460333E-02
100750000	8.16220117441969E-04	1.19706103441307E-02
101000000	9.80869817708508E-04	1.20455101176108E-02
101250000	1.14734726292107E-03	1.21132850218937E-02
101500000	1.31387275775008E-03	1.21844866966485E-02
101750000	1.48292412136667E-03	0.012253574370195
102000000	1.65277871291143E-03	1.23193722736916E-02
102250000	1.82241093192164E-03	1.23814606307754E-02
102500000	1.99386035160816E-03	1.24439246727215E-02
102750000	2.16488191161593E-03	1.25028974200451E-02
103000000	2.33795449967068E-03	1.25621019623581E-02
103250000	2.51158871820606E-03	0.012617708018354
103500000	2.68620298367072E-03	1.26728617703218E-02
103750000	2.86235700045176E-03	1.27237377824621E-02
104000000	3.03682985433975E-03	1.27736440312752E-02
104250000	3.21208861406593E-03	1.28232794414126E-02
104500000	3.39028409018974E-03	1.28682866151442E-02
104750000	3.56715405828147E-03	1.29125437214003E-02
105000000	3.74715493670506E-03	1.29541919566706E-02
105250000	3.92509466168622E-03	1.29959034362658E-02
105500000	4.1040308070681E-03	0.013030898381433
105750000	4.28540558814315E-03	1.30689341174849E-02
106000000	4.46678601886986E-03	1.31024657249746E-02
106250000	4.64797407533057E-03	1.31343774960331E-02
106500000	0.004829401045779	1.31629715989939E-02
106750000	5.01269172570325E-03	1.31917684905014E-02
107000000	5.19567899518483E-03	1.32159083724424E-02
107250000	5.37998238995862E-03	1.32390215032773E-02
107500000	5.56257578491109E-03	1.32596585109995E-02
107750000	5.7468038837701E-03	1.32811536632758E-02
108000000	5.93076562329076E-03	1.32977284579929E-02
108250000	6.11587784304085E-03	1.33127180040576E-02
108500000	6.30087192212518E-03	1.33257091418651E-02
108750000	6.48561167308035E-03	1.33356465694928E-02
109000000	6.67231171464124E-03	1.33448833032792E-02
109250000	6.85745908933766E-03	1.33488228232754E-02
109500000	7.04376376270074E-03	0.013355786943467
109750000	7.23011887863795E-03	1.33569637686864E-02
110000000	7.41661955012639E-03	1.33556717144828E-02
110250000	7.60256636684314E-03	1.33549552812697E-02
110500000	7.79030202876566E-03	1.33490163169121E-02
110750000	7.97613985811762E-03	1.33420833484781E-02
111000000	8.16560486775336E-03	1.33342365348556E-02
111250000	8.35174004787488E-03	1.33236261185186E-02
111500000	8.53959237699884E-03	0.013309583837561
111750000	8.72774957859103E-03	1.32944531020159E-02
112000000	0.008913951370728	0.013277017664069
112250000	9.09931073964267E-03	1.32558661979306E-02
112500000	9.28641938844742E-03	1.32365367575868E-02
112750000	9.47277301604638E-03	1.32133864833968E-02
113000000	9.66202563766505E-03	1.31856925058345E-02
113250000	9.84706270138938E-03	0.013158276645402
113500000	1.00359792863754E-02	1.31285478896609E-02
113750000	1.02220697895288E-02	1.30952822150847E-02
114000000	1.04086992443968E-02	1.30611054736632E-02
114250000	1.05930010678675E-02	1.30231053562756E-02
114500000	0.010778308757185	1.29850170387075E-02
114750000	1.09645431469544E-02	1.29439614516729E-02
115000000	1.11504514376532E-02	1.29011010314955E-02
115250000	1.13330326518765E-02	1.28553477963698E-02
115500000	1.15183510186142E-02	1.28076942690564E-02
115750000	1.17027337367125E-02	1.27572485386543E-02
116000000	1.18853386207966E-02	1.27060281379251E-02
116250000	1.20677411764372E-02	1.26512506097926E-02
116500000	1.22506429224467E-02	1.25961403173731E-02
116750000	1.24329367313344E-02	1.25370800323465E-02
117000000	1.26136497452453E-02	1.24762169582102E-02
117250000	1.27953268717848E-02	1.24160980684201E-02
117500000	1.29767605919893E-02	1.23491981934132E-02
117750000	1.31547978489814E-02	1.22835110668177E-02
118000000	1.33354231731441E-02	1.22137201522619E-02
118250000	1.35142754620132E-02	0.012142725836069
118500000	1.36912871602476E-02	1.20708128946855E-02
118750000	1.38669604467296E-02	1.19960578013856E-02
119000000	1.40460093671247E-02	0.011918917280027
119250000	0.014222819874086	1.18392204961459E-02
119500000	1.43970413917366E-02	1.17581259146595E-02
119750000	1.45729633909944E-02	1.16739909315553E-02
120000000	1.47449966278345E-02	1.15907603591951E-02
120250000	1.49181557458025E-02	1.15017495348442E-02
120500000	1.50896321275034E-02	1.14130575083956E-02
120750000	1.52593945689461E-02	1.13207722589611E-02
121000000	1.54304369050146E-02	0.011228055642695
121250000	0.015599707401924	1.11316100658099E-02
121500000	1.57678092745166E-02	0.01103655611589
121750000	1.59362970232104E-02	1.09359894203299E-02
122000000	1.61013090064864E-02	1.08360228211905E-02
122250000	1.62676086967255E-02	1.07308797569002E-02
122500000	1.64319613773565E-02	1.06265674554286E-02
122750000	1.65952969389424E-02	1.05183247429405E-02
123000000	0.016756937405242	0.010409521330841
123250000	1.69196337213506E-02	0.010299691947907
123500000	1.70790407740034E-02	1.01866423071153E-02
123750000	1.72389900897474E-02	1.00708550179435E-02
124000000	1.73949831950217E-02	9.95432355619526E-03
124250000	1.75516995114441E-02	9.83341466851279E-03
124500000	1.77080790104338E-02	9.7158744074269E-03
124750000	1.78616883268535E-02	9.59424327615447E-03
125000000	1.80131653463032E-02	9.47002510814919E-03
125250000	1.81660972364674E-02	9.34546694615604E-03
125500000	1.83164367433083E-02	9.2168825628163E-03
125750000	1.84645953160299E-02	9.08736807154161E-03
126000000	1.86136568930903E-02	8.9560787964945E-03
126250000	1.87584796339077E-02	8.82133099609236E-03
126500000	1.89054323863571E-02	8.6895138645136E-03
126750000	1.90484493806329E-02	8.55091731448219E-03
127000000	1.91894826364914E-02	8.41285663615977E-03
127250000	1.93316077739994E-02	8.27387654277293E-03
127500000	1.94695204355716E-02	8.13275655749491E-03
127750000	1.96080746437512E-02	7.98792173906558E-03
128000000	1.97449742055992E-02	7.84564989068273E-03
128250000	0.019880501697555	7.69736884955572E-03
128500000	2.00137176299028E-02	7.5481700253915E-03
128750000	2.01454297067911E-02	7.40071709534972E-03
129000000	0.020275934589578	7.24818462526275E-03
129250000	2.04052754083171E-02	7.09873605400744E-03
129500000	2.05326760273253E-02	6.9433928008706E-03
129750000	2.06580531118371E-02	0.006786773582449
130000000	2.07810762743366E-02	6.62903399138065E-03
130250000	2.09047814341621E-02	6.47083344905395E-03
130500000	2.10252894492575E-02	6.31122565693442E-03
130750000	2.11438789689721E-02	6.14815802724556E-03
131000000	2.12601592343282E-02	5.98274581074731E-03
131250000	2.13777548363354E-02	5.82000684224559E-03
131500000	2.14896039160896E-02	5.6551213734387E-03
131750000	0.021603352723307	5.48854425203041E-03
132000000	2.17138320912445E-02	5.31835101002742E-03
132250000	2.18231913821344E-02	5.14773264755294E-03
132500000	2.19291887803188E-02	4.97757251556527E-03
132750000	2.20336068021331E-02	4.80492000184743E-03
133000000	2.21400827458391E-02	4.6302458535073E-03
133250000	2.22393188852189E-02	4.45451299371805E-03
133500000	2.23371620753715E-02	4.27906005375746E-03
133750000	2.24351053940283E-02	4.10167463982142E-03
134000000	2.25310806230877E-02	3.92122458635355E-03
134250000	0.022625830010697	3.74075525827873E-03
