# Hz S RI R 50
40000000	-0.226191057559626	-0.967131111633811
40250000	-0.237135463135581	-0.964379733431385
40500000	-0.248058463486067	-0.961523616872199
40750000	-0.258923112272004	-0.958543649414081
41000000	-0.269785045506355	-0.955432411032805
41250000	-0.280567837303055	-0.9522040717855
41500000	-0.291337624600255	-0.948848455646012
41750000	-0.302079169238532	-0.94538284401322
42000000	-0.312747442584677	-0.941773792925285
42250000	-0.323371597348917	-0.938066079503833
42500000	-0.334008313244782	-0.934203862564619
42750000	-0.34455790114079	-0.930230450463707
43000000	-0.355059409624704	-0.926163486047914
43250000	-0.365522668177422	-0.921948892708646
43500000	-0.375932608680274	-0.917622631927141
43750000	-0.38630979064116	-0.913196549639964
44000000	-0.396613021499248	-0.908614938527994
44250000	-0.406870401079759	-0.903969038946784
44500000	-0.41707624048262	-0.899153792339302
44750000	-0.427230111646472	-0.894249670577201
45000000	-0.437327664478586	-0.889219533022652
45250000	-0.447331272065727	-0.884071886654952
45500000	-0.457312197645063	-0.878824616743827
45750000	-0.467241627182056	-0.873456446560707
46000000	-0.477074450226358	-0.867972463381954
46250000	-0.486851232686534	-0.862387984758945
46500000	-0.496588867931439	-0.856664223058674
46750000	-0.506228332342153	-0.850863376427453
47000000	-0.515817760330331	-0.844927021871368
47250000	-0.525336866652441	-0.838890022893498
47500000	-0.534774027749432	-0.832755031610185
47750000	-0.544154192153873	-0.826512718786062
48000000	-0.55345686477036	-0.820151213262984
48250000	-0.562683590276968	-0.813690752065063
48500000	-0.571822900035816	-0.807122354876029
48750000	-0.58091693963471	-0.800444511134311
49000000	-0.589902898953468	-0.793675570168621
49250000	-0.598819881940659	-0.786805753824962
49500000	-0.607669298111249	-0.779827211606444
49750000	-0.616423800776053	-0.772734517281523
50000000	-0.625103331750831	-0.765565018128991
50250000	-0.633682096261238	-0.758286920208873
50500000	-0.642204377858515	-0.750922880026313
50750000	-0.650628682003455	-0.743447261253706
51000000	-0.658953333826298	-0.735892434800672
51250000	-0.667208425327929	-0.728247135772764
51500000	-0.675370731291421	-0.720464164942473
51750000	-0.683427756233826	-0.712643687743919
52000000	-0.691402343372386	-0.704705322743313
52250000	-0.699301632655302	-0.696670239158899
52500000	-0.707079365548803	-0.688570268396696
52750000	-0.714775112499706	-0.68036657498355
53000000	-0.722376719568708	-0.672078514871758
53250000	-0.72988922410886	-0.663688423800243
53500000	-0.737304662827288	-0.655249361924378
53750000	-0.744614652183255	-0.646715091400616
54000000	-0.751838111891846	-0.638086325942134
54250000	-0.758943239751541	-0.629379703431657
54500000	-0.765954082752917	-0.620590036366405
54750000	-0.772876121726258	-0.611714941490556
55000000	-0.77966673035768	-0.602775788549463
55250000	-0.786380757812529	-0.593767386902551
55500000	-0.792972943127881	-0.58467924032104
55750000	-0.799458124062019	-0.57551584263423
56000000	-0.805855882531129	-0.566269318964208
56250000	-0.812147034420075	-0.556960126360551
56500000	-0.818313810060114	-0.547584009746369
56750000	-0.824379648696488	-0.538137107818347
57000000	-0.83033535997253	-0.528603692959159
57250000	-0.836180750926485	-0.519030037700251
57500000	-0.841902489114728	-0.509386931519965
57750000	-0.847525742291866	-0.499671722595655
58000000	-0.853036847809023	-0.489895599564293
58250000	-0.858451764254312	-0.48006360973048
58500000	-0.8637404090591	-0.47017845222188
58750000	-0.868906718299037	-0.460212495830612
59000000	-0.873965555561828	-0.450209340329648
59250000	-0.878913474388996	-0.4401476301432
59500000	-0.883709169819146	-0.430017331878965
59750000	-0.888427549590855	-0.419844703896018
60000000	-0.893017666516796	-0.409620876769455
60250000	-0.89747321662692	-0.399350497160556
60500000	-0.901839656490836	-0.389017194784623
60750000	-0.906088724508997	-0.378652731113055
61000000	-0.91018753715022	-0.368238695309882
61250000	-0.914193268124959	-0.357780002348744
61500000	-0.91807041334986	-0.347273353366767
61750000	-0.921821312322562	-0.336716419469818
62000000	-0.925461298122137	-0.326148127092318
62250000	-0.928966111419254	-0.315500990166869
62500000	-0.932363365072374	-0.304838802744041
62750000	-0.935595753436164	-0.294145343641905
63000000	-0.938769931827233	-0.28341536047552
63250000	-0.941776980523003	-0.272648258398216
63500000	-0.944673324454358	-0.261824085151758
63750000	-0.947435443838908	-0.251024923362739
64000000	-0.950103595375627	-0.240146281298332
64250000	-0.95262014032804	-0.229261722609397
64500000	-0.955013824127916	-0.218359591195792
64750000	-0.957298307265627	-0.207422832290869
65000000	-0.95944644989795	-0.196452038253033
65250000	-0.961456444262962	-0.185466386668061
65500000	-0.963351218533989	-0.174472678401865
65750000	-0.965114970086279	-0.163443135064102
66000000	-0.966777062279179	-0.152396412308139
66250000	-0.968279756958008	-0.141361410353359
66500000	-0.969681919988138	-0.130280160069562
66750000	-0.970944630657558	-0.119202409349298
67000000	-0.972092637152202	-0.108098652315429
67250000	-0.973105291467258	-9.69963634874324E-02
67500000	-0.973980721251662	-8.58903152753372E-02
67750000	-0.974720497794575	-7.47574059990089E-02
68000000	-0.975354049334012	-6.36369711562953E-02
68250000	-0.975878696566775	-5.25224538595881E-02
68500000	-0.976231648108916	-4.13700813281902E-02
68750000	-0.976501705330836	-3.02416664678559E-02
69000000	-0.976628952369791	-1.91030632458902E-02
69250000	-0.976594250291439	-7.97986981748636E-03
69500000	-0.976482542375736	3.15396290027409E-03
69750000	-0.976229106083273	1.42795005762758E-02
70000000	-0.975838143828453	2.53998247124026E-02
70250000	-0.975334052457111	3.64945497314149E-02
70500000	-0.97469943871417	4.76079032377259E-02
70750000	-0.973938837175295	5.87036490232709E-02
71000000	-0.973031221691825	6.97939663604671E-02
71250000	-0.972053272363164	0.080840937921828
71500000	-0.970897184337892	9.18948168080243E-02
71750000	-0.969626640388775	0.102926591896163
72000000	-0.968244147689075	0.113946596761644
72250000	-0.966739859863609	0.124941615439682
72500000	-0.965080026522702	0.135921887660862
72750000	-0.963337910087953	0.146875567399704
73000000	-0.961415236199515	0.157827997254893
73250000	-0.959418530567665	0.168729885985225
73500000	-0.957289723947834	0.179604699761661
73750000	-0.955023732576024	0.190447189794452
74000000	-0.952667039948835	0.201276254582196
74250000	-0.950125475451477	0.212071397890268
74500000	-0.947510400677582	0.222849819363615
74750000	-0.944766576345897	0.233564236077341
75000000	-0.94190298703829	0.244285851529091
75250000	-0.938921381143661	0.2549472888321
75500000	-0.935794883230561	0.265563610388495
75750000	-0.93258118503545	0.276147487190158
76000000	-0.929226235890942	0.286701019844842
76250000	-0.925767059218041	0.29720033214632
76500000	-0.92218637998002	0.307653660303177
76750000	-0.918465533457665	0.31806748437958
77000000	-0.914662412946381	0.328445508436976
77250000	-0.910729065537645	0.338779138507515
77500000	-0.906676717292334	0.349046828541645
77750000	-0.90251646279421	0.359286608668266
78000000	-0.898241954962114	0.369444157573905
78250000	-0.893842798558796	0.379613786681135
78500000	-0.889342837688041	0.389674048766472
78750000	-0.88471684778304	0.399683396876048
79000000	-0.880003645145052	0.409638289392913
79250000	-0.875141222259384	0.419556755552163
79500000	-0.870198201428953	0.429413515909046
79750000	-0.865118678926828	0.439205956480343
80000000	-0.859939272438887	0.448930496396403
80250000	-0.85468097740433	0.458600466610576
80500000	-0.849281707807383	0.468205063199393
80750000	-0.843805026517833	0.477741459254474
81000000	-0.838179190667879	0.487229281813451
81250000	-0.832484550632371	0.496625427292314
81500000	-0.826679400783852	0.505962674192384
81750000	-0.820774365304106	0.515246537680708
82000000	-0.8147478549719	0.52444668159863
82250000	-0.808629329281572	0.533584770058716
82500000	-0.802419494071647	0.542648115719646
82750000	-0.796074887117203	0.551632708874015
83000000	-0.789674401381291	0.56055695614189
83250000	-0.783146741800344	0.569394724891404
83500000	-0.776525911443567	0.578161290634135
83750000	-0.769796718611269	0.586822931472292
84000000	-0.763011754326584	0.595434405440499
84250000	-0.756104872269134	0.60398548846894
84500000	-0.749119848676439	0.612422705995285
84750000	-0.742022724063796	0.620781480464613
85000000	-0.734840660127299	0.629056615439947
85250000	-0.727555925218538	0.637262237172319
85500000	-0.720198175472288	0.645353871367343
85750000	-0.712750371382597	0.653392988251893
86000000	-0.705198434192124	0.661334676597391
86250000	-0.697575703878765	0.669189925764054
86500000	-0.689880139217582	0.676955612240586
86750000	-0.682063393245135	0.684630921130932
87000000	-0.674172745424556	0.692205671678233
87250000	-0.666201736559262	0.699677223241819
87500000	-0.658152116767229	0.707108595867783
87750000	-0.650023473144617	0.714402184801521
88000000	-0.641827330827958	0.721619376658967
88250000	-0.633547723801249	0.728750093324118
88500000	-0.625182635045844	0.735773992433502
88750000	-0.616745163843165	0.742715913341849
89000000	-0.608224340789439	0.74952824752331
89250000	-0.599643932508	0.756285806071225
89500000	-0.590998935346808	0.762900818187877
89750000	-0.582263500444585	0.769442981398126
90000000	-0.573436437945137	0.77587086904575
90250000	-0.564576889166615	0.782236104919213
90500000	-0.555631288372017	0.788438790521804
90750000	-0.546609364501448	0.794581288119668
91000000	-0.537548184466694	0.800609249008282
91250000	-0.528405152473459	0.806539460277769
91500000	-0.519225533288032	0.812351448654277
91750000	-0.509954456147491	0.818053471589044
92000000	-0.500625948003994	0.823658229819068
92250000	-0.491256681897702	0.829164918102487
92500000	-0.481805242946438	0.834562415669292
92750000	-0.472297659354696	0.839853204649045
93000000	-0.462748845616764	0.845042207969769
93250000	-0.453144562779217	0.850090166892665
93500000	-0.443468457216201	0.85505121557246
93750000	-0.433736013061165	0.859918234257076
94000000	-0.423984272709208	0.864651412766762
94250000	-0.414167467749486	0.869272682147517
94500000	-0.404303252450652	0.873790254892386
94750000	-0.394386577872223	0.87820260872706
95000000	-0.384413675549484	0.882475917184593
95250000	-0.374401752298339	0.886665193517831
95500000	-0.364366555932129	0.890742470437024
95750000	-0.354279423608085	0.894699432180156
96000000	-0.344128977526032	0.898524540937972
96250000	-0.333980043044381	0.902243955996193
96500000	-0.323781716673159	0.905870375847772
96750000	-0.313511934303788	0.909351108070348
97000000	-0.303232659393728	0.912732828223172
97250000	-0.292911099643178	0.915995411262205
97500000	-0.282560645210859	0.919142218639552
97750000	-0.272173551054928	0.922182863293154
98000000	-0.261768643472214	0.925094233786243
98250000	-0.251311919654935	0.927883490463351
98500000	-0.240855333224389	0.930568582935702
98750000	-0.23036337856711	0.933108176421608
99000000	-0.219833612821328	0.935560459050947
99250000	-0.209279656692446	0.937890751821229
99500000	-0.198724250737721	0.940099244847423
99750000	-0.188128496544833	0.942209330702223
100000000	-0.177530569915995	0.944156586627735
100250000	-0.166890344431276	0.94600256358237
100500000	-0.156238163106102	0.947752139876588
100750000	-0.145589715028584	0.949359082017895
101000000	-0.134896559352621	0.950832365081245
101250000	-0.124229437698591	0.95222409253195
101500000	-0.113511094123962	0.9534545562903
101750000	-0.102786563719838	0.95461261701005
102000000	-9.20702168729312E-02	0.955656532635771
102250000	-8.13441706808887E-02	0.956515528740224
102500000	-7.06110211024365E-02	0.957297624707456
102750000	-5.98641539330758E-02	0.957953376403118
103000000	-4.91156331562894E-02	0.958512689637327
103250000	-3.83852647098386E-02	0.958893654682676
103500000	-0.027641205311636	0.959201657937793
103750000	-1.68709733971048E-02	0.95936708577162
104000000	-6.1157484366699E-03	0.959430798810896
104250000	4.63086140861454E-03	0.959376186268819
104500000	1.53640325757629E-02	0.95920248587202
104750000	2.60879171368908E-02	0.958886748855607
105000000	3.68511902482709E-02	0.958470523524315
105250000	0.047563898493862	0.957919838908557
105500000	5.82759750808391E-02	0.957266561409741
105750000	6.89661246200276E-02	0.956485904943771
106000000	7.96604125835381E-02	0.955623062998898
106250000	9.03392786862434E-02	0.954582926699647
106500000	0.101015155718137	0.953441397590639
106750000	0.111640738587682	0.952209563836006
107000000	0.122282167231317	0.950830758316441
107250000	0.132912013102016	0.949347240391046
107500000	0.143498382634129	0.947733002360746
107750000	0.154092513132312	0.946022685827302
108000000	0.164626166906319	0.944184216623515
108250000	0.175169748638786	0.942235594155503
108500000	0.18566111312476	0.940164792293302
108750000	0.196140627489486	0.937970019132629
109000000	0.206589884443077	0.935667646650205
109250000	0.217015317574051	0.933258633588744
109500000	0.227409000035484	0.930732625222791
109750000	0.237754570713083	0.928075076787204
110000000	0.248096877355784	0.925331897840445
110250000	0.258409753874747	0.922447793760064
110500000	0.268668228536918	0.919452284814015
110750000	0.27889332085566	0.916362205440702
111000000	0.289083098229504	0.913159270335036
111250000	0.299236162072189	0.90983255655521
111500000	0.309338642877461	0.906386268400645
111750000	0.319426734811394	0.902836158003005
112000000	0.32944852200278	0.89917875115157
112250000	0.339425625836841	0.895393631494393
112500000	0.349373151946934	0.891541906221114
112750000	0.359290300264849	0.88755504378991
113000000	0.369132576911623	0.883451640869459
113250000	0.378938401008691	0.879247768346282
113500000	0.388693633456638	0.874950502819825
113750000	0.398390433848504	0.870522926283947
114000000	0.408060743815401	0.866006466592485
114250000	0.417650207262191	0.861383234013568
114500000	0.427213621296172	0.856653904364955
114750000	0.436694574901949	0.851801979964914
115000000	0.446142862853631	0.846867648951726
115250000	0.45550139346924	0.841812085987381
115500000	0.464825990890835	0.836669263688054
115750000	0.474082926115317	0.83141519101946
116000000	0.483297430512061	0.826077733036801
116250000	0.492437638960832	0.820617842186741
116500000	0.501527417245096	0.815067730263917
116750000	0.510538931875672	0.809409405068548
117000000	0.519473324183765	0.803668304653346
117250000	0.52837788789477	0.797819517659567
117500000	0.537186844725084	0.791877140988821
117750000	0.545956901913709	0.785838837712436
118000000	0.554639443429561	0.779696268708495
118250000	0.563240681455076	0.773476347502245
118500000	0.571782788382926	0.767145981022181
118750000	0.580258486597975	0.760733938590248
119000000	0.58865964704797	0.754246767530625
119250000	0.596996153769185	0.747634372931129
119500000	0.605227085678008	0.740953976978569
119750000	0.613413299397035	0.734163358362531
120000000	0.62150591210356	0.727301849898383
120250000	0.629524640463842	0.720348235099597
120500000	0.637479130608044	0.71330134200695
120750000	0.645330785418333	0.706167942389859
121000000	0.653121416428814	0.698967725822381
121250000	0.660821282827109	0.691656543806488
121500000	0.668444449578969	0.684271903943632
121750000	0.675997861103598	0.676799063227036
122000000	0.683451814973968	0.669264237029301
122250000	0.690798638803816	0.66163021456728
122500000	0.698097456615233	0.653922712811806
122750000	0.705290876974175	0.64612688953964
123000000	0.712393106626435	0.6382800144313
123250000	0.719427894192143	0.630315646563873
123500000	0.726362725184353	0.622315014306358
123750000	0.73320624148764	0.614215384208807
124000000	0.739970530332113	0.606051716122697
124250000	0.746611791101211	0.597805334729968
124500000	0.753195245266718	0.589488000569881
124750000	0.75968234600071	0.581113892928928
125000000	0.766051302723174	0.572674365132403
125250000	0.77234039714678	0.564149092124729
125500000	0.778541672135703	0.555553024059606
125750000	0.784638738927665	0.546906139374297
126000000	0.790636975768661	0.538179221327219
126250000	0.796542865833607	0.52940168359188
126500000	0.802352243144697	0.52054876961126
126750000	0.808057789188493	0.511627827467251
127000000	0.813690326530106	0.502639918087211
127250000	0.819185306277529	0.493625920214538
127500000	0.824610209231005	0.484521467244484
127750000	0.82989751465106	0.475364926822098
128000000	0.83511398802341	0.466169493908893
128250000	0.840227990663511	0.456903016780473
128500000	0.845229809487162	0.447584172242999
128750000	0.850116902559018	0.438211507102473
129000000	0.854920066539402	0.428794113150565
129250000	0.859609049603573	0.419316705252559
129500000	0.864205080448161	0.409753011059431
129750000	0.868677933685792	0.40019285808698
130000000	0.873039737302612	0.39056993475901
130250000	0.877318532174482	0.38089618494424
130500000	0.881482581716127	0.371172476891572
130750000	0.885535450957964	0.361422379397807
131000000	0.889490842964744	0.351603767607651
131250000	0.893313709532646	0.341763621990458
131500000	0.897046568955725	0.331892119502205
131750000	0.900671656337696	0.321967763803052
132000000	0.904180134070579	0.311982821720089
132250000	0.907579670349721	0.301970357415589
132500000	0.910858562167704	0.291939220210401
132750000	0.914041455957754	0.281851630272491
133000000	0.917104311248298	0.27175934036173
133250000	0.920077257652366	0.261596424976197
133500000	0.922919324396693	0.251429400596475
133750000	0.925629122580275	0.241226285436933
134000000	0.928257165863651	0.230989192492699
134250000	0.930769055613638	0.220719158085025
134500000	0.933153077588351	0.210430407960235
134750000	0.935437270680791	0.200134888190727
135000000	0.937602450778258	0.189801157094309
135250000	0.939657947213384	0.179454913775396
135500000	0.941599183959963	0.169067308409946
135750000	0.943416264746242	0.158652716706438
136000000	0.945119940353286	0.148250666886893
136250000	0.946725695383878	0.137780743901439
136500000	0.948194049336369	0.12734167929771
136750000	0.949564404703347	0.11685135517139
137000000	0.950795341919689	0.106370944465491
137250000	0.951943562075476	9.58882965656321E-02
137500000	0.952946380735524	8.53742319207463E-02
137750000	0.95384895724244	7.48804719365574E-02
138000000	0.95464578982572	6.43376106767019E-02
138250000	0.955306613305452	5.37902525413789E-02
138500000	0.955865157686018	4.32445460618845E-02
138750000	0.956295712388485	3.26963379414415E-02
139000000	0.956648476626677	2.21599083984475E-02
139250000	0.956821787767057	1.16045475134518E-02
139500000	0.956904058902346	1.04924603318742E-03
139750000	0.956892633507052	-9.50541243131428E-03
140000000	0.956719892791726	-2.00762631323952E-02
140250000	0.956476972324945	-0.030629763851998
140500000	0.956113072664586	-4.11691466612726E-02
140750000	0.955606342521897	-5.17148778198901E-02
141000000	0.954997394507976	-6.22678762870789E-02
141250000	0.954283480174391	-7.27860873756933E-02
141500000	0.953435187916876	-8.33033847527009E-02
141750000	0.952477668460985	-9.38162315582928E-02
142000000	0.951393799743788	-0.104343182250287
142250000	0.950225327679604	-0.114819110197934
142500000	0.948906853328894	-0.125312786614067
142750000	0.947488093455277	-0.135772756660738
143000000	0.945951506268483	-0.146186960103015
143250000	0.944293943546554	-0.156646382662338
143500000	0.942542469047973	-0.167036105490774
143750000	0.94065026165029	-0.17742073991898
144000000	0.938669452957372	-0.187803791435574
144250000	0.936558130324982	-0.198146922241514
144500000	0.934348175542813	-0.208454415827586
144750000	0.932005898887251	-0.218759226744362
