# Hz S RI R 50
40000000	0.239013741066036	0.934174534057102
40250000	0.249402135239751	0.931400024666253
40500000	0.259754823750152	0.928539288634939
40750000	0.270089971305529	0.92552384461693
41000000	0.280356806943856	0.922419499814873
41250000	0.29060575005576	0.919210427323852
41500000	0.300820526429177	0.915865749812886
41750000	0.310964627533648	0.912432160900623
42000000	0.32111914451475	0.908877389369009
42250000	0.331190058082917	0.905214478835641
42500000	0.341254133647834	0.901433745053467
42750000	0.351251470446987	0.897562641372625
43000000	0.361206481523072	0.893566101286176
43250000	0.371109454453526	0.889459185343056
43500000	0.380981485278073	0.885248601363182
43750000	0.390787528511213	0.880931637403015
44000000	0.400567541688765	0.876493023864956
44250000	0.410275764004303	0.871951430012607
44500000	0.419941814492516	0.867324935953021
44750000	0.429538804348865	0.862579977229149
45000000	0.439095034949923	0.857722172953333
45250000	0.448609750072427	0.85278307768839
45500000	0.458034620287888	0.847719931857673
45750000	0.467403427958838	0.842569492213818
46000000	0.476723080642151	0.837295859455649
46250000	0.486018151159734	0.831950540528472
46500000	0.495211160595777	0.826472599247134
46750000	0.504354215531436	0.82090338582142
47000000	0.513437769351489	0.815252088078958
47250000	0.522458881340189	0.80946356978268
47500000	0.531407627986099	0.803617423147676
47750000	0.540293960286321	0.79764204465096
48000000	0.549106413027957	0.791596692914088
48250000	0.557848412700906	0.785427357211625
48500000	0.566538365789523	0.779181270364941
48750000	0.575134781398537	0.772833579854524
49000000	0.583671405916664	0.766400230751025
49250000	0.592142490673753	0.759849687681605
49500000	0.600520871040447	0.753241418540981
49750000	0.608837386120048	0.74652687678298
50000000	0.617081157615764	0.739727294413865
50250000	0.625228361610902	0.732823589707028
50500000	0.633344264854587	0.725840768934286
50750000	0.641352162640558	0.718780479615763
51000000	0.649265039039804	0.711623488309557
51250000	0.657134569746097	0.704353098082567
51500000	0.664888125879371	0.697034346982445
51750000	0.67259113073651	0.68962842537244
52000000	0.680187255295426	0.682132349145956
52250000	0.687709323452734	0.674556266851485
52500000	0.695128533521171	0.666886736700387
52750000	0.702497002665296	0.659128399718636
53000000	0.709754630837239	0.65130060097018
53250000	0.716920949434886	0.64341562598094
53500000	0.7240176552472	0.635416772240009
53750000	0.731025706527356	0.6273725854582
54000000	0.737924941941271	0.619252192252237
54250000	0.744748031833118	0.611024567532731
54500000	0.7514804584749	0.60273911272001
54750000	0.758113826760336	0.594408095052659
55000000	0.764651783812865	0.585959035975982
55250000	0.771106712123258	0.577470139406663
55500000	0.777479451322607	0.568901230218992
55750000	0.783724792576889	0.56025350873113
56000000	0.789902952300708	0.551556012298893
56250000	0.795953344205102	0.542767013424657
56500000	0.801932173876657	0.533939878282186
56750000	0.807799672933613	0.525018655043742
57000000	0.813575438622265	0.516055673582876
57250000	0.819260316289584	0.507026618602593
57500000	0.824822314755191	0.497929925314997
57750000	0.83030540326439	0.488780660439226
58000000	0.835679045165656	0.479563102286836
58250000	0.840947741199417	0.47030743260123
58500000	0.846112092782737	0.460971768204071
58750000	0.851177623790965	0.451585377653197
59000000	0.8561338936122	0.442135419030438
59250000	0.860988729773158	0.432644984841237
59500000	0.865753275315022	0.423112533820715
59750000	0.870386917931074	0.413515186180987
60000000	0.874944440950963	0.403869652454437
60250000	0.879361518168325	0.394154176174256
60500000	0.88368897558767	0.38442450588941
60750000	0.887901494738813	0.374634067463713
61000000	0.892010716795291	0.36478761515429
61250000	0.896014413870927	0.354890468827188
61500000	0.899908382439787	0.344973758612762
61750000	0.90369674591408	0.335020666510359
62000000	0.907359933298566	0.325000259308177
62250000	0.910921395001821	0.314941109212172
62500000	0.914370792726668	0.304859549813492
62750000	0.917704482383513	0.294711974034379
63000000	0.920938500546483	0.284564825187623
63250000	0.924063441923565	0.274364261127856
63500000	0.927054111261232	0.264146530972864
63750000	0.92994519106934	0.253875126889701
64000000	0.932723567706877	0.243586703170408
64250000	0.935372783040705	0.233235533909553
64500000	0.937925348944259	0.222904441830938
64750000	0.940363107954214	0.212522194055803
65000000	0.942679269358995	0.202114798814386
65250000	0.944886963778808	0.191669403913168
65500000	0.946976293988734	0.181218105207258
65750000	0.948944081432018	0.170734766184106
66000000	0.950802626388225	0.16022406888839
66250000	0.952546880528996	0.149711848554212
66500000	0.954160967834784	0.139175366490292
66750000	0.95565562327287	0.128621797128409
67000000	0.957058427526491	0.118044600640533
67250000	0.958318880928366	0.107452452276813
67500000	0.959502009578437	0.096847973928515
67750000	0.960522842877198	8.62138418810722E-02
68000000	0.96144684044792	7.56007756538137E-02
68250000	0.962261164513924	6.49634411966242E-02
68500000	0.962939546859078	5.43132489679179E-02
68750000	0.96351921715394	4.36576575395423E-02
69000000	0.963974923166426	3.29886451009334E-02
69250000	0.9643006456462	0.022319691618868
69500000	0.964524520385194	1.16674881052744E-02
69750000	0.964627404773007	9.81943848832983E-04
70000000	0.964601376876777	-9.66814559743447E-03
70250000	0.96447574667144	-2.03447857248094E-02
70500000	0.964228437777316	-0.031013121896586
70750000	0.963856387810961	-4.16939104708519E-02
71000000	0.96335656572773	-5.23543112851427E-02
71250000	0.962756898883284	-6.30065091424354E-02
71500000	0.962020149783534	-7.36540034263274E-02
71750000	0.961194389321312	-8.43025095955998E-02
72000000	0.960209999389308	-9.49303050147166E-02
72250000	0.959134630309003	-0.105545639157266
72500000	0.957928231361749	-0.116157117301786
72750000	0.956621377238011	-0.126754509694986
73000000	0.955183989795111	-0.137356774954791
73250000	0.953635074700566	-0.147923179570207
73500000	0.951989316205153	-0.158454559471478
73750000	0.950184849753702	-0.168991668134387
74000000	0.948283284592921	-0.179500306554826
74250000	0.946276337048173	-0.189997976203231
74500000	0.944147162972994	-0.200459753851978
74750000	0.941905993936038	-0.210907791403597
75000000	0.939518802767662	-0.221344608776269
75250000	0.937043732349336	-0.231727427246974
75500000	0.934447334329926	-0.242098645505584
75750000	0.931716478711336	-0.252439689073691
76000000	0.928908901274267	-0.262757124327922
76250000	0.925956943112668	-0.273027389094891
76500000	0.922906644840219	-0.283267267696937
76750000	0.919749064524018	-0.293487922361369
77000000	0.916444529114573	-0.303673794403083
77250000	0.913077531741081	-0.313807315720117
77500000	0.909567839467028	-0.323899143681639
77750000	0.905939381458548	-0.333985895274079
78000000	0.902218393161297	-0.344012572158223
78250000	0.898371171765871	-0.353998086855581
78500000	0.894406668376884	-0.363937675463205
78750000	0.890353529936292	-0.373831302598431
79000000	0.886165754477125	-0.383683703930161
79250000	0.881874182168512	-0.39350242209702
79500000	0.877488529063654	-0.403248300685399
79750000	0.872999213819838	-0.412980437824261
80000000	0.868374296549836	-0.422636571410243
80250000	0.863667375538985	-0.432240429197853
80500000	0.858832800921304	-0.441804895840556
80750000	0.853912190530874	-0.451315782346488
81000000	0.848853324697371	-0.460765009209099
81250000	0.84372166693691	-0.47015841636509
81500000	0.838465889588799	-0.479494494775518
81750000	0.833123169811419	-0.48878545940426
82000000	0.827660288274078	-0.497996300525318
82250000	0.822092292581016	-0.507158910239756
82500000	0.816449059931869	-0.516267857253856
82750000	0.810686727807571	-0.525295784032278
83000000	0.804823632395948	-0.534284153166852
83250000	0.798862051066962	-0.543201262433334
83500000	0.792792617913545	-0.552033496517638
83750000	0.786646702140852	-0.560829721120476
84000000	0.780366779988497	-0.569532218640029
84250000	0.774015218923368	-0.578165050929443
84500000	0.767560203995748	-0.586731497933695
84750000	0.760992761954891	-0.595227457505034
85000000	0.754369337339741	-0.603650364087099
85250000	0.74762872002789	-0.612008661656997
85500000	0.740785930814148	-0.620276641788899
85750000	0.733854896811316	-0.62848418303722
86000000	0.72682950079748	-0.636620175129093
86250000	0.719736770398355	-0.644663158652436
86500000	0.712520829955969	-0.652636834494268
86750000	0.70523781406055	-0.660513266046976
87000000	0.697874364617586	-0.668308875922167
87250000	0.690402170442939	-0.676047861093114
87500000	0.68285449049321	-0.683678028833952
87750000	0.675199287354831	-0.691263079613974
88000000	0.667485101797345	-0.698712482344187
88250000	0.659693723127682	-0.706119729450427
88500000	0.651806744273002	-0.713407585256445
88750000	0.643822923780709	-0.720624637551167
89000000	0.635766215313603	-0.727765021313267
89250000	0.627629042743464	-0.734778934988431
89500000	0.619447483999578	-0.741724107456923
89750000	0.611128858961092	-0.748582767381
90000000	0.602780591973352	-0.755342774484518
90250000	0.594301716476607	-0.762008158344947
90500000	0.585792753573889	-0.768561460207397
90750000	0.577219272152946	-0.77505342855457
91000000	0.56854403287133	-0.781443962962967
91250000	0.559807462323943	-0.78773231341228
91500000	0.551004163255242	-0.793923225846189
91750000	0.542128250388907	-0.800000709542288
92000000	0.533167182952529	-0.806009892677918
92250000	0.524170267564995	-0.81188160825247
92500000	0.51507450018397	-0.817693597889203
92750000	0.505919762945445	-0.823355034887176
93000000	0.496705591074995	-0.828978828975628
93250000	0.487433508741014	-0.834460585928594
93500000	0.478111023701696	-0.839855707512563
93750000	0.468706220033481	-0.845115122344479
94000000	0.45924073945447	-0.850293617991277
94250000	0.449725326737177	-0.855360427599127
94500000	0.440147134640836	-0.860318983711788
94750000	0.430521332127586	-0.865169068664259
95000000	0.420842613930457	-0.869920684960942
95250000	0.411087493873292	-0.874540633774813
95500000	0.401296421110523	-0.879084859049031
95750000	0.391463690004813	-0.883506789862869
96000000	0.381572963042314	-0.887802298567107
96250000	0.371628270878601	-0.891997459069425
96500000	0.36162022010279	-0.896081520375171
96750000	0.351600684747807	-0.90004888862739
97000000	0.341527815127719	-0.903928179745609
97250000	0.331389163924365	-0.907678496609448
97500000	0.321212610184569	-0.911322188107513
97750000	0.311020322327981	-0.914842517208879
98000000	0.300766038908201	-0.91826083000792
98250000	0.290455635796664	-0.921539575810631
98500000	0.280129032227481	-0.924728668659651
98750000	0.269759837254169	-0.927776865067211
99000000	0.259372987405386	-0.930719741203664
99250000	0.248936875130978	-0.933563020299357
99500000	0.238479784118324	-0.936244982758015
99750000	0.227994903858208	-0.938839081828838
100000000	0.217448928240385	-0.941300616015305
100250000	0.206888329232344	-0.943668167965474
100500000	0.196304618990611	-0.945904568489268
100750000	0.185711168538535	-0.948007551734757
101000000	0.175076831603001	-0.950016775283793
101250000	0.164414567895214	-0.951895784546626
101500000	0.153725697779318	-0.953648864208639
101750000	0.143042491113517	-0.955289442784234
102000000	0.132322118680432	-0.95680981604273
102250000	0.121567837177359	-0.958204539941964
102500000	0.110843919077899	-0.959484804589253
102750000	0.100067126157233	-0.960645654444517
103000000	8.92825752740336E-02	-0.96166549373539
103250000	7.85052686952001E-02	-0.962590791895224
103500000	6.76849447898684E-02	-0.963378733050966
103750000	5.69001507288183E-02	-0.964028018008362
104000000	4.60631792735872E-02	-0.96458919103759
104250000	3.52419306187952E-02	-0.964995399234967
104500000	0.024409053565376	-0.965323993330483
104750000	1.35769649275617E-02	-0.965478010783901
105000000	2.7416933892943E-03	-0.965544199912985
105250000	-8.10121806187954E-03	-0.965482472628735
105500000	-1.89494624372799E-02	-0.965307889074723
105750000	-2.97678116089062E-02	-0.964971163815656
106000000	-4.06276881149847E-02	-0.96456120564832
106250000	-5.14378853241058E-02	-0.963989972431343
106500000	-6.22609387343136E-02	-0.963331863183194
106750000	-7.30839009782099E-02	-0.962515640071212
107000000	-8.38891601699496E-02	-0.961613667440821
107250000	-9.46745298507525E-02	-0.960567783616773
107500000	-0.105487162207301	-0.959385660026994
107750000	-0.116248331572269	-0.958084779750112
108000000	-0.127001521803001	-0.956700330214279
108250000	-0.137763698411873	-0.955162710469144
108500000	-0.148481026555995	-0.953503625942873
108750000	-0.159195117715437	-0.951739672988122
109000000	-0.169885101723573	-0.949829365831137
109250000	-0.180546486740188	-0.947819786959027
109500000	-0.191197913335766	-0.945687896877793
109750000	-0.201809078526597	-0.943420362951632
110000000	-0.212412199371034	-0.941052902715096
110250000	-0.222969521433609	-0.93853034186168
110500000	-0.233519983645751	-0.935924321145475
110750000	-0.244025590613754	-0.933171197469428
111000000	-0.254506142823649	-0.930311335936963
111250000	-0.264952078179959	-0.927340893945669
111500000	-0.275371475660218	-0.924249193125931
111750000	-0.285763099647679	-0.921035187455947
112000000	-0.296103844515118	-0.917688834479037
112250000	-0.306395759394168	-0.914252412565311
112500000	-0.316673312162556	-0.910694208500251
112750000	-0.326885626376543	-0.906988468127368
113000000	-0.337076428245483	-0.903208486529679
113250000	-0.347228216214215	-0.89927696364426
113500000	-0.357327253227768	-0.895278439461149
113750000	-0.367366496454676	-0.891112194578331
114000000	-0.37738537935581	-0.886865148027603
114250000	-0.38734199913604	-0.882497590743537
114500000	-0.397258332217079	-0.87800561279965
114750000	-0.407102982252258	-0.873404964156609
115000000	-0.416905127309349	-0.868697764922414
115250000	-0.426664654695837	-0.863876839873386
115500000	-0.436360068172486	-0.858952879355514
115750000	-0.445991785448254	-0.853914104628575
116000000	-0.45558251992708	-0.848756330802369
116250000	-0.465105554276259	-0.843504303400391
116500000	-0.474567598495033	-0.838141143719461
116750000	-0.483969946741007	-0.83266008255845
117000000	-0.493303970113204	-0.82707461043992
117250000	-0.502583318271153	-0.821397947905789
117500000	-0.51181056653498	-0.815598905923855
117750000	-0.520931892378021	-0.809689682168292
118000000	-0.530040055396062	-0.803694837775031
118250000	-0.539043906836156	-0.797610921016317
118500000	-0.547970144931365	-0.791390961198622
118750000	-0.556858836097118	-0.785095970449657
119000000	-0.565640949056593	-0.778672490596911
119250000	-0.574364270108875	-0.772185235407806
119500000	-0.583021872686956	-0.76555455931117
119750000	-0.591596701298859	-0.758858477415025
120000000	-0.600114749236982	-0.752041677233085
120250000	-0.608538251399065	-0.745170622272669
120500000	-0.616863182684315	-0.738157373868568
120750000	-0.625116245051519	-0.731067262744374
121000000	-0.633307520798883	-0.723878820606491
121250000	-0.641411312797963	-0.716599709352737
121500000	-0.649420984169363	-0.709228857066124
121750000	-0.657364318261012	-0.701785012149232
122000000	-0.665197329837838	-0.694259921810865
122250000	-0.672952197099386	-0.68657801946962
122500000	-0.680650061164799	-0.678864361224101
122750000	-0.688224285934819	-0.671052944306122
123000000	-0.695718023121359	-0.663138684376
123250000	-0.703126465432863	-0.655185002778219
123500000	-0.710427735294761	-0.647100713615544
123750000	-0.717658627799252	-0.638952590509016
124000000	-0.724783897508222	-0.630725595990743
124250000	-0.731818950260848	-0.622414793799977
124500000	-0.738757388798523	-0.614030128988058
124750000	-0.745596215935492	-0.605558916418117
125000000	-0.752351614257076	-0.596994437732254
125250000	-0.75900256604724	-0.588367630872945
125500000	-0.765531831967828	-0.579688404720785
125750000	-0.772011539924752	-0.570906074701106
126000000	-0.778346899173398	-0.562057804583677
126250000	-0.784600063601965	-0.553149383293672
126500000	-0.790751841647627	-0.54415612424944
126750000	-0.796778499686784	-0.535088042357204
127000000	-0.80273628631157	-0.525972219898969
127250000	-0.80858394601271	-0.516795504334579
127500000	-0.814307506859712	-0.507512316208638
127750000	-0.819924481555248	-0.498185265891419
128000000	-0.825437070134638	-0.488809897263113
128250000	-0.830847272097479	-0.47937337772054
128500000	-0.836170233494667	-0.469859394850394
128750000	-0.841341507780543	-0.460289579995064
129000000	-0.846430269238148	-0.450658263259619
129250000	-0.851415591998384	-0.440991147742663
129500000	-0.856257751228393	-0.43124751097045
129750000	-0.861012853841318	-0.421453803187398
130000000	-0.865665926460738	-0.411595875892605
130250000	-0.870189841483807	-0.401699340380097
130500000	-0.874610020961903	-0.391772797882676
130750000	-0.878898982947221	-0.381770505416015
131000000	-0.883093167073406	-0.37170648394904
131250000	-0.887159327682919	-0.361615053622118
131500000	-0.891120016980598	-0.35147539978556
131750000	-0.894967413653656	-0.341305486721791
132000000	-0.898695078596777	-0.331076478134439
132250000	-0.90230381356431	-0.320797829769291
132500000	-0.905773155375771	-0.310482344368594
132750000	-0.909149447151613	-0.300126980295996
133000000	-0.912416061256462	-0.289753977271905
133250000	-0.915543482093381	-0.279355031159356
133500000	-0.918561772142444	-0.268886942043932
133750000	-0.921454284184809	-0.258422528997533
134000000	-0.924245385386007	-0.247894895991164
134250000	-0.926878132327668	-0.237338240897425
134500000	-0.929425154413701	-0.226765821153932
134750000	-0.931845955498031	-0.216165948658106
135000000	-0.934145933693326	-0.205534299019942
135250000	-0.936299965858649	-0.194876972949555
135500000	-0.938354615192303	-0.184194511947105
135750000	-0.940288125044152	-0.173497633884734
136000000	-0.942080521275415	-0.162783561384477
136250000	-0.9437822800882	-0.152046869243979
136500000	-0.945341092323286	-0.141276842285906
136750000	-0.946783174635639	-0.130506741504927
137000000	-0.948081387343768	-0.119705273827068
137250000	-0.949295858926432	-0.108914229631997
137500000	-0.950358254105258	-9.81242217405232E-02
137750000	-0.951301613262813	-8.72617998059764E-02
138000000	-0.952101434348544	-7.64450073600455E-02
138250000	-0.952832035199212	-6.56006531460905E-02
138500000	-0.953388997877688	-5.47587656716906E-02
138750000	-0.953846855327276	-4.39142187801179E-02
139000000	-0.954175475586014	-3.30550005059469E-02
139250000	-0.954373898158391	-2.21867453146737E-02
139500000	-0.954466890345066	-1.13469392425685E-02
139750000	-0.954406926967442	-4.60236694781395E-04
140000000	-0.954270629612215	1.03679792063907E-02
140250000	-0.953976214758321	2.12478021251005E-02
140500000	-0.953540403696161	3.20724157600016E-02
140750000	-0.953027371680585	4.29316911104467E-02
141000000	-0.952355584348635	5.37546454153524E-02
141250000	-0.951594269487016	6.45827215345121E-02
141500000	-0.950665038099538	7.53681908035613E-02
141750000	-0.949641725660205	8.61989696292262E-02
142000000	-0.948479614645155	9.69842015590913E-02
142250000	-0.947232162334034	0.107742378392274
142500000	-0.945823979742925	0.118516779590318
142750000	-0.944291592914383	0.129234696937964
143000000	-0.942651195352669	0.139957431686665
143250000	-0.940890577156801	0.150678822640269
143500000	-0.939012256811326	0.161349862454922
143750000	-0.937008420102972	0.172016952808853
144000000	-0.934880476472207	0.182626933224627
144250000	-0.932618307723756	0.193234342371225
144500000	-0.93028051641066	0.203797806800412
