!Agilent Technologies,E5072A,MY51200456,A.01.06
!Date: Wed Sep 02 20:44:33 2015
!Data & Calibration Information:
!Freq	S11:SOLT1(ON)
!PortZ  Port1:50+j0
!Above PortZ is port z conversion or system Z0 setting when saving the data.
!When reading, reference impedance value at option line is always used.
# Hz S dB R 50
50000000	-3.357854e+001	-1.569182e+002
50250000	-3.360579e+001	-1.577824e+002
50500000	-3.363365e+001	-1.586580e+002
50750000	-3.366416e+001	-1.595327e+002
51000000	-3.369305e+001	-1.603904e+002
51250000	-3.372153e+001	-1.612741e+002
51500000	-3.375636e+001	-1.621425e+002
51750000	-3.378508e+001	-1.630216e+002
52000000	-3.381481e+001	-1.638784e+002
52250000	-3.384828e+001	-1.647778e+002
52500000	-3.388018e+001	-1.656388e+002
52750000	-3.391476e+001	-1.665050e+002
53000000	-3.394596e+001	-1.673653e+002
53250000	-3.398257e+001	-1.682336e+002
53500000	-3.401781e+001	-1.691238e+002
53750000	-3.405294e+001	-1.699619e+002
54000000	-3.408643e+001	-1.708203e+002
54250000	-3.412708e+001	-1.716967e+002
54500000	-3.416338e+001	-1.725526e+002
54750000	-3.420027e+001	-1.734321e+002
55000000	-3.423619e+001	-1.742879e+002
55250000	-3.427898e+001	-1.751498e+002
55500000	-3.431549e+001	-1.760092e+002
55750000	-3.435596e+001	-1.768677e+002
56000000	-3.439628e+001	-1.777231e+002
56250000	-3.444002e+001	-1.785796e+002
56500000	-3.447983e+001	-1.794314e+002
56750000	-3.452115e+001	1.797055e+002
57000000	-3.456560e+001	1.788584e+002
57250000	-3.460872e+001	1.779870e+002
57500000	-3.465549e+001	1.771535e+002
