!Agilent Technologies,E5072A,MY51200456,A.01.06
!Date: Tue Sep 01 20:14:00 2015
!Data & Calibration Information:
!Freq	S11:SOLT1(ON)
!PortZ  Port1:50+j0
!Above PortZ is port z conversion or system Z0 setting when saving the data.
!When reading, reference impedance value at option line is always used.
# Hz S dB R 50
50000000	-5.752769e+001	-1.801411e+001
50250000	-5.739511e+001	-1.909860e+001
50500000	-5.811715e+001	-1.649796e+001
50750000	-5.917995e+001	-1.808299e+001
51000000	-5.609224e+001	-8.209075e+000
51250000	-5.896044e+001	-2.190931e+001
51500000	-5.896263e+001	6.725142e+000
51750000	-5.644839e+001	-1.666390e+001
52000000	-5.818316e+001	-2.834522e+001
52250000	-5.801900e+001	-9.461638e+000
52500000	-5.578049e+001	-3.174605e+001
52750000	-5.619217e+001	-9.709372e+000
53000000	-5.917511e+001	-4.270580e+000
53250000	-5.859757e+001	1.679656e+000
53500000	-5.741064e+001	-1.631598e+001
53750000	-5.750625e+001	-2.805274e+001
54000000	-5.769460e+001	-1.975299e+001
54250000	-5.500654e+001	-1.010057e+001
54500000	-5.774051e+001	-2.147856e+001
54750000	-5.618513e+001	-9.297653e+000
55000000	-5.651773e+001	-2.394236e+001
55250000	-5.744823e+001	-2.002230e+001
55500000	-5.851905e+001	-1.303825e+001
55750000	-6.055472e+001	-2.021863e+001
56000000	-5.543424e+001	-1.542910e+001
56250000	-5.783320e+001	-1.836110e+001
56500000	-5.655223e+001	-1.480934e+001
56750000	-5.840569e+001	-2.625533e+001
57000000	-5.849336e+001	-1.697759e+001
57250000	-5.583721e+001	-3.136283e+001
57500000	-5.645523e+001	-1.266899e+001
57750000	-5.748195e+001	-1.984847e+001
58000000	-5.777351e+001	4.203261e+001
58250000	-5.694002e+001	-3.320339e+001
58500000	-5.964977e+001	4.690181e+000
58750000	-5.828521e+001	-1.214163e+001
59000000	-5.788120e+001	-2.742572e+001
59250000	-5.758379e+001	-1.948794e+001
59500000	-5.764945e+001	-3.296340e+001
59750000	-5.793919e+001	-2.869399e+001
60000000	-5.653210e+001	-3.438611e+001
60250000	-5.911058e+001	-2.559494e+001
60500000	-5.713630e+001	-1.295258e+001
60750000	-5.856602e+001	-1.985630e+001
61000000	-6.000958e+001	-3.578794e+001
61250000	-5.837581e+001	-4.071005e+001
61500000	-5.667000e+001	-2.186804e+001
61750000	-5.870921e+001	-2.671404e+001
62000000	-5.574920e+001	-1.639866e+001
62250000	-5.786034e+001	-1.858480e+001
62500000	-5.659389e+001	-3.089367e+001
62750000	-5.594360e+001	-7.010613e+000
63000000	-5.498200e+001	-1.368081e+001
63250000	-5.619619e+001	-2.299867e+001
63500000	-5.446046e+001	-2.000608e+001
63750000	-5.609008e+001	-2.683779e+001
64000000	-5.359714e+001	-2.752813e+001
64250000	-5.957373e+001	-2.953829e+001
64500000	-5.584784e+001	-3.373494e+001
64750000	-5.684653e+001	-1.587396e+001
65000000	-5.518561e+001	-3.312081e+001
65250000	-5.608957e+001	-2.731054e+001
65500000	-5.689557e+001	-2.911932e+001
65750000	-5.600921e+001	-2.298762e+001
66000000	-5.673162e+001	-2.436010e+001
66250000	-5.660103e+001	-2.475805e+001
66500000	-5.736363e+001	-2.710085e+001
66750000	-5.853840e+001	-3.195398e+001
67000000	-5.578455e+001	-1.603326e+001
67250000	-5.949046e+001	-2.708287e+001
67500000	-5.511889e+001	-2.528359e+001
67750000	-5.602590e+001	-3.667037e+001
68000000	-5.606346e+001	-3.136629e+001
68250000	-5.647222e+001	-3.286810e+001
68500000	-5.544048e+001	-1.921699e+001
68750000	-5.677475e+001	-4.515693e+001
69000000	-5.716994e+001	-5.838655e+001
69250000	-5.795137e+001	-2.118648e+001
69500000	-5.924745e+001	-3.584438e+001
69750000	-5.477120e+001	-4.037224e+001
70000000	-5.538035e+001	-1.737951e+001
70250000	-5.735992e+001	-3.382291e+001
70500000	-5.270872e+001	-7.967663e+000
70750000	-5.679776e+001	-2.108430e+001
71000000	-5.511372e+001	-3.333404e+001
71250000	-5.459901e+001	-1.645564e+001
71500000	-5.760402e+001	-2.777111e+001
71750000	-5.604140e+001	-6.297588e+001
72000000	-5.725588e+001	-1.619389e+001
72250000	-5.755111e+001	-3.812019e+001
72500000	-5.589296e+001	-2.074967e+001
72750000	-5.641344e+001	-2.926369e+001
73000000	-5.566573e+001	-3.587513e+001
73250000	-5.653483e+001	-2.649166e+001
73500000	-5.322004e+001	1.711327e+001
73750000	-5.442475e+001	-4.260340e+001
74000000	-5.601701e+001	-3.524275e+001
74250000	-5.436347e+001	-3.669304e+001
74500000	-5.687895e+001	-2.848938e+001
74750000	-5.752219e+001	-5.165235e+001
75000000	-5.590418e+001	-2.752073e+001
75250000	-5.655211e+001	-2.687179e+001
75500000	-5.457630e+001	-3.814491e+001
75750000	-5.574032e+001	-1.952402e+001
76000000	-5.709312e+001	-2.080356e+001
76250000	-5.906966e+001	-1.776129e+001
76500000	-5.624628e+001	-4.171179e+001
76750000	-5.715142e+001	-3.392146e+001
77000000	-5.539759e+001	-3.895704e+001
77250000	-5.485130e+001	-4.087707e+001
77500000	-5.557315e+001	-4.381275e+001
77750000	-5.481137e+001	-2.487454e+001
78000000	-5.691248e+001	-3.812151e+001
78250000	-5.574410e+001	-4.751705e+001
78500000	-5.533795e+001	-3.751619e+001
78750000	-5.447968e+001	-3.807863e+001
79000000	-5.542024e+001	-3.544127e+001
79250000	-5.682179e+001	-2.955976e+001
79500000	-5.485436e+001	-3.578136e+001
79750000	-5.436553e+001	-4.325840e+001
80000000	-5.637787e+001	-4.084312e+001
80250000	-5.587493e+001	-3.812151e+001
80500000	-5.722743e+001	-2.830379e+001
80750000	-5.678926e+001	-4.213331e+001
81000000	-5.401260e+001	-4.140259e+001
81250000	-5.539366e+001	-4.441839e+001
81500000	-5.473224e+001	-2.915281e+001
81750000	-5.251964e+001	-4.033908e+001
82000000	-5.586194e+001	-4.363933e+001
82250000	-5.535244e+001	-3.304894e+001
82500000	-5.578098e+001	-3.319518e+001
82750000	-5.619701e+001	-2.972107e+001
83000000	-5.625451e+001	-3.097063e+001
83250000	-5.459619e+001	-3.973655e+001
83500000	-5.503662e+001	-3.922301e+001
83750000	-5.478383e+001	-4.711645e+001
84000000	-5.348501e+001	-3.247300e+001
84250000	-5.487409e+001	-4.504553e+001
84500000	-5.457840e+001	-3.669441e+001
84750000	-5.595859e+001	-4.095888e+001
85000000	-5.348283e+001	-4.428024e+001
85250000	-5.469493e+001	-5.613671e+001
85500000	-5.640968e+001	-4.064121e+001
85750000	-5.376221e+001	-3.308717e+001
86000000	-5.418812e+001	-2.892525e+001
86250000	-5.396262e+001	-4.588846e+001
86500000	-5.379495e+001	-2.440985e+001
86750000	-5.447484e+001	-4.146404e+001
87000000	-5.479137e+001	-4.855528e+001
87250000	-5.576111e+001	-4.609034e+001
87500000	-5.573492e+001	-4.724853e+001
87750000	-5.697421e+001	-4.955369e+001
88000000	-5.447595e+001	-6.083349e+001
88250000	-5.546083e+001	-4.493710e+001
88500000	-5.369088e+001	-3.160462e+001
88750000	-5.518120e+001	-4.661292e+001
89000000	-5.470552e+001	-4.197920e+001
89250000	-5.568290e+001	-4.464699e+001
89500000	-5.292218e+001	-3.530863e+001
89750000	-5.369474e+001	-3.734022e+001
90000000	-5.395003e+001	-5.698834e+001
90250000	-5.552017e+001	-4.221646e+001
90500000	-5.340430e+001	-5.215258e+001
90750000	-5.434213e+001	-4.163944e+001
91000000	-5.370348e+001	-3.200741e+001
91250000	-5.372689e+001	-3.879126e+001
91500000	-5.250553e+001	-2.765753e+001
91750000	-5.345194e+001	-4.062994e+001
92000000	-5.479610e+001	-4.508261e+001
92250000	-5.216419e+001	-3.717096e+001
92500000	-5.431984e+001	-3.950652e+001
92750000	-5.281877e+001	-4.242663e+001
93000000	-5.342782e+001	-4.161136e+001
93250000	-5.467890e+001	-3.641436e+001
93500000	-5.595990e+001	-4.622239e+001
93750000	-5.204521e+001	-3.546072e+001
94000000	-5.570427e+001	-5.507251e+001
94250000	-5.441262e+001	-4.934482e+001
94500000	-5.469199e+001	-3.731672e+001
94750000	-5.508247e+001	-3.662947e+001
95000000	-5.378278e+001	-4.176057e+001
95250000	-5.425250e+001	-4.759037e+001
95500000	-5.413142e+001	-3.906840e+001
95750000	-5.367658e+001	-3.666622e+001
96000000	-5.422322e+001	-4.259392e+001
96250000	-5.395339e+001	-4.462281e+001
96500000	-5.341043e+001	-4.638364e+001
96750000	-5.475014e+001	-5.731011e+001
97000000	-5.385645e+001	-5.121858e+001
97250000	-5.336431e+001	-4.489006e+001
97500000	-5.318808e+001	-5.301616e+001
97750000	-5.260617e+001	-4.707412e+001
98000000	-5.374845e+001	-2.878998e+001
98250000	-5.397438e+001	-4.401394e+001
98500000	-5.436436e+001	-5.103790e+001
98750000	-5.315140e+001	-3.975274e+001
99000000	-5.446029e+001	-3.775227e+001
99250000	-5.209321e+001	-4.257978e+001
99500000	-5.586562e+001	-5.502398e+001
99750000	-5.475856e+001	-5.491357e+001
100000000	-5.260770e+001	-2.882266e+001
