!Agilent Technologies,E5072A,MY51200456,A.01.06
!Date: Tue Sep 01 20:03:29 2015
!Data & Calibration Information:
!Freq	S11:SOLT1(ON)
!PortZ  Port1:50+j0
!Above PortZ is port z conversion or system Z0 setting when saving the data.
!When reading, reference impedance value at option line is always used.
# Hz S dB R 50
50000000	-2.454003e-002	-1.663103e+001
50250000	-2.430035e-002	-1.669808e+001
50500000	-2.764858e-002	-1.678609e+001
50750000	-3.062587e-002	-1.688962e+001
51000000	-2.996057e-002	-1.694752e+001
51250000	-3.038409e-002	-1.702789e+001
51500000	-2.976345e-002	-1.709982e+001
51750000	-3.013032e-002	-1.720350e+001
52000000	-2.538202e-002	-1.728835e+001
52250000	-3.065683e-002	-1.736143e+001
52500000	-2.917268e-002	-1.743086e+001
52750000	-2.553618e-002	-1.753028e+001
53000000	-2.384530e-002	-1.762597e+001
53250000	-3.095589e-002	-1.769507e+001
53500000	-3.086305e-002	-1.776790e+001
53750000	-2.568777e-002	-1.787816e+001
54000000	-3.099011e-002	-1.791897e+001
54250000	-2.643236e-002	-1.802788e+001
54500000	-2.901544e-002	-1.812778e+001
54750000	-3.031465e-002	-1.815910e+001
55000000	-2.978386e-002	-1.827624e+001
55250000	-2.602922e-002	-1.835404e+001
55500000	-2.978963e-002	-1.845046e+001
55750000	-2.743330e-002	-1.855792e+001
56000000	-2.557087e-002	-1.858425e+001
56250000	-2.911538e-002	-1.871278e+001
56500000	-2.627799e-002	-1.875521e+001
56750000	-2.518580e-002	-1.887482e+001
57000000	-3.044553e-002	-1.897957e+001
57250000	-2.223717e-002	-1.901734e+001
57500000	-2.565803e-002	-1.910957e+001
57750000	-2.537592e-002	-1.919272e+001
58000000	-3.917852e-002	-1.926624e+001
58250000	-2.520066e-002	-1.938752e+001
58500000	-3.040387e-002	-1.947391e+001
58750000	-2.653547e-002	-1.955287e+001
59000000	-2.244551e-002	-1.961918e+001
59250000	-2.766180e-002	-1.970633e+001
59500000	-2.665256e-002	-1.978218e+001
59750000	-2.804469e-002	-1.988053e+001
60000000	-2.408015e-002	-1.998864e+001
60250000	-2.877710e-002	-2.002723e+001
60500000	-3.184304e-002	-2.011828e+001
60750000	-2.677516e-002	-2.022690e+001
61000000	-1.619502e-002	-2.033948e+001
61250000	-2.551235e-002	-2.038553e+001
61500000	-2.751477e-002	-2.044344e+001
61750000	-2.821955e-002	-2.053434e+001
62000000	-2.965415e-002	-2.059302e+001
62250000	-3.004108e-002	-2.064472e+001
62500000	-2.379377e-002	-2.079284e+001
62750000	-3.011151e-002	-2.086001e+001
63000000	-2.579107e-002	-2.092180e+001
63250000	-2.936801e-002	-2.102795e+001
63500000	-2.877379e-002	-2.108990e+001
63750000	-3.103871e-002	-2.120180e+001
64000000	-2.722370e-002	-2.125090e+001
64250000	-2.926410e-002	-2.137811e+001
64500000	-3.150233e-002	-2.143429e+001
64750000	-3.030889e-002	-2.154273e+001
65000000	-2.644395e-002	-2.161899e+001
65250000	-2.423101e-002	-2.168661e+001
65500000	-2.409501e-002	-2.176659e+001
65750000	-2.727667e-002	-2.186519e+001
66000000	-2.207067e-002	-2.197330e+001
66250000	-2.522825e-002	-2.201299e+001
66500000	-2.586324e-002	-2.207983e+001
66750000	-2.354974e-002	-2.222868e+001
67000000	-2.774079e-002	-2.227546e+001
67250000	-2.419151e-002	-2.234513e+001
67500000	-2.484491e-002	-2.243459e+001
67750000	-2.155727e-002	-2.252253e+001
68000000	-2.433566e-002	-2.260012e+001
68250000	-2.362150e-002	-2.270709e+001
68500000	-2.775911e-002	-2.275401e+001
68750000	-2.152907e-002	-2.287663e+001
69000000	-2.142135e-002	-2.299736e+001
69250000	-2.700149e-002	-2.304223e+001
69500000	-2.784192e-002	-2.312010e+001
69750000	-2.456418e-002	-2.317480e+001
70000000	-2.095657e-002	-2.328340e+001
70250000	-2.207008e-002	-2.336034e+001
70500000	-3.275774e-002	-2.333532e+001
70750000	-2.676029e-002	-2.353315e+001
71000000	-2.411734e-002	-2.361198e+001
71250000	-2.462761e-002	-2.366276e+001
71500000	-2.589989e-002	-2.377629e+001
71750000	-1.702011e-002	-2.387231e+001
72000000	-2.943341e-002	-2.394371e+001
72250000	-2.557957e-002	-2.402611e+001
72500000	-2.221175e-002	-2.412703e+001
72750000	-2.623236e-002	-2.418742e+001
73000000	-2.508767e-002	-2.427107e+001
73250000	-2.600802e-002	-2.436808e+001
73500000	-2.892471e-002	-2.447803e+001
73750000	-1.896542e-002	-2.454674e+001
74000000	-2.223247e-002	-2.463973e+001
74250000	-2.153142e-002	-2.468130e+001
74500000	-2.563095e-002	-2.476052e+001
74750000	-2.383268e-002	-2.489863e+001
75000000	-2.744057e-002	-2.495506e+001
75250000	-2.903447e-002	-2.503364e+001
75500000	-2.198878e-002	-2.510504e+001
75750000	-2.770638e-002	-2.518652e+001
76000000	-3.251861e-002	-2.525972e+001
76250000	-3.321502e-002	-2.535202e+001
76500000	-2.281170e-002	-2.548105e+001
76750000	-2.202490e-002	-2.555058e+001
77000000	-2.485957e-002	-2.562723e+001
77250000	-2.399432e-002	-2.567652e+001
77500000	-2.296566e-002	-2.575553e+001
77750000	-2.675798e-002	-2.584671e+001
78000000	-2.775889e-002	-2.595568e+001
78250000	-2.535774e-002	-2.602902e+001
78500000	-2.254129e-002	-2.613597e+001
78750000	-2.496338e-002	-2.618704e+001
79000000	-2.617164e-002	-2.629253e+001
79250000	-2.469381e-002	-2.637814e+001
79500000	-2.885245e-002	-2.643279e+001
79750000	-2.309278e-002	-2.652969e+001
80000000	-2.237652e-002	-2.660335e+001
80250000	-2.570344e-002	-2.672059e+001
80500000	-2.958328e-002	-2.676787e+001
80750000	-2.839578e-002	-2.686099e+001
81000000	-2.387200e-002	-2.694760e+001
81250000	-2.878949e-002	-2.704127e+001
81500000	-3.023068e-002	-2.710654e+001
81750000	-2.460162e-002	-2.719258e+001
82000000	-2.313224e-002	-2.730250e+001
82250000	-2.863567e-002	-2.737599e+001
82500000	-2.336020e-002	-2.744576e+001
82750000	-2.668911e-002	-2.755104e+001
83000000	-3.373735e-002	-2.759965e+001
83250000	-2.279252e-002	-2.768840e+001
83500000	-2.459896e-002	-2.777347e+001
83750000	-2.401671e-002	-2.788369e+001
84000000	-2.596882e-002	-2.792622e+001
84250000	-2.404247e-002	-2.801761e+001
84500000	-2.911899e-002	-2.811454e+001
84750000	-1.940804e-002	-2.823472e+001
85000000	-1.945947e-002	-2.830707e+001
85250000	-2.281875e-002	-2.841900e+001
85500000	-2.948446e-002	-2.843408e+001
85750000	-2.685943e-002	-2.850671e+001
86000000	-2.238122e-002	-2.862832e+001
86250000	-2.368799e-002	-2.867145e+001
86500000	-2.917208e-002	-2.877888e+001
86750000	-2.510793e-002	-2.885501e+001
87000000	-2.486893e-002	-2.893697e+001
87250000	-2.736809e-002	-2.901654e+001
87500000	-2.574503e-002	-2.911481e+001
87750000	-2.909479e-002	-2.918907e+001
88000000	-2.063007e-002	-2.926524e+001
88250000	-2.603964e-002	-2.935932e+001
88500000	-2.617852e-002	-2.945663e+001
88750000	-2.270619e-002	-2.953125e+001
89000000	-2.572354e-002	-2.962192e+001
89250000	-2.443026e-002	-2.970259e+001
89500000	-2.829200e-002	-2.976498e+001
89750000	-2.668723e-002	-2.988763e+001
90000000	-1.976965e-002	-2.993543e+001
90250000	-2.625275e-002	-3.001725e+001
90500000	-2.754212e-002	-3.012123e+001
90750000	-2.327725e-002	-3.017513e+001
91000000	-2.896344e-002	-3.026480e+001
91250000	-2.604181e-002	-3.035714e+001
91500000	-2.815325e-002	-3.040296e+001
91750000	-2.878663e-002	-3.054218e+001
92000000	-2.577804e-002	-3.061416e+001
92250000	-2.751106e-002	-3.066186e+001
92500000	-2.601947e-002	-3.077308e+001
92750000	-2.383534e-002	-3.084834e+001
93000000	-1.835613e-002	-3.094252e+001
93250000	-2.869933e-002	-3.100654e+001
93500000	-2.500093e-002	-3.113819e+001
93750000	-2.641351e-002	-3.116381e+001
94000000	-2.656294e-002	-3.132805e+001
94250000	-2.464589e-002	-3.135961e+001
94500000	-2.871929e-002	-3.143013e+001
94750000	-3.342428e-002	-3.151995e+001
95000000	-2.221278e-002	-3.160834e+001
95250000	-2.513813e-002	-3.168193e+001
95500000	-3.135309e-002	-3.176657e+001
95750000	-2.910154e-002	-3.184084e+001
96000000	-3.084879e-002	-3.194448e+001
96250000	-2.342092e-002	-3.205165e+001
96500000	-2.717159e-002	-3.209857e+001
96750000	-2.675693e-002	-3.222295e+001
97000000	-2.648515e-002	-3.229896e+001
97250000	-2.470783e-002	-3.236632e+001
97500000	-2.693401e-002	-3.243782e+001
97750000	-1.845350e-002	-3.249605e+001
98000000	-2.609194e-002	-3.260398e+001
98250000	-2.173533e-002	-3.266990e+001
98500000	-3.215260e-002	-3.280771e+001
98750000	-2.864423e-002	-3.283646e+001
99000000	-2.825579e-002	-3.294382e+001
99250000	-2.424845e-002	-3.298651e+001
99500000	-2.472694e-002	-3.313483e+001
99750000	-2.674901e-002	-3.323789e+001
100000000	-2.746994e-002	-3.324299e+001
