!Agilent Technologies,E5072A,MY51200456,A.01.06
!Date: Tue Sep 01 20:08:20 2015
!Data & Calibration Information:
!Freq	S11:SOLT1(ON)
!PortZ  Port1:50+j0
!Above PortZ is port z conversion or system Z0 setting when saving the data.
!When reading, reference impedance value at option line is always used.
# Hz S dB R 50
50000000	-7.852554e-002	1.633346e+002
50250000	-8.305462e-002	1.632872e+002
50500000	-7.835844e-002	1.631801e+002
50750000	-7.784834e-002	1.631257e+002
51000000	-7.819731e-002	1.630284e+002
51250000	-7.857246e-002	1.629433e+002
51500000	-7.704957e-002	1.628582e+002
51750000	-7.685934e-002	1.627758e+002
52000000	-8.000641e-002	1.626891e+002
52250000	-8.031784e-002	1.626393e+002
52500000	-8.734711e-002	1.625140e+002
52750000	-8.085800e-002	1.624389e+002
53000000	-8.497997e-002	1.623757e+002
53250000	-7.639622e-002	1.623156e+002
53500000	-7.719757e-002	1.621868e+002
53750000	-8.186100e-002	1.621247e+002
54000000	-7.722661e-002	1.620373e+002
54250000	-7.862827e-002	1.619338e+002
54500000	-8.368117e-002	1.618480e+002
54750000	-7.926316e-002	1.617404e+002
55000000	-8.185413e-002	1.616834e+002
55250000	-8.275496e-002	1.616197e+002
55500000	-7.967115e-002	1.615488e+002
55750000	-7.868987e-002	1.614720e+002
56000000	-8.485293e-002	1.613600e+002
56250000	-8.422846e-002	1.613092e+002
56500000	-8.798665e-002	1.612098e+002
56750000	-8.367218e-002	1.611379e+002
57000000	-8.355427e-002	1.610681e+002
57250000	-8.200784e-002	1.609535e+002
57500000	-8.349857e-002	1.608607e+002
57750000	-8.441397e-002	1.607915e+002
58000000	-8.582211e-002	1.606832e+002
58250000	-8.433893e-002	1.606577e+002
58500000	-8.337296e-002	1.605635e+002
58750000	-8.368920e-002	1.605060e+002
59000000	-7.992433e-002	1.603505e+002
59250000	-8.462953e-002	1.603029e+002
59500000	-8.805746e-002	1.602422e+002
59750000	-8.553751e-002	1.601094e+002
60000000	-8.729985e-002	1.600585e+002
60250000	-8.376290e-002	1.599478e+002
60500000	-8.545021e-002	1.598878e+002
60750000	-8.338799e-002	1.597922e+002
61000000	-9.681676e-002	1.597976e+002
61250000	-8.502370e-002	1.596424e+002
61500000	-8.429024e-002	1.595607e+002
61750000	-8.501107e-002	1.594989e+002
62000000	-8.524859e-002	1.593807e+002
62250000	-8.338116e-002	1.593213e+002
62500000	-8.317803e-002	1.592494e+002
62750000	-8.590015e-002	1.591451e+002
63000000	-8.422402e-002	1.590350e+002
63250000	-8.783253e-002	1.589940e+002
63500000	-9.079815e-002	1.588860e+002
63750000	-8.375098e-002	1.588302e+002
64000000	-8.737798e-002	1.587117e+002
64250000	-8.790878e-002	1.586834e+002
64500000	-8.656239e-002	1.585734e+002
64750000	-8.494731e-002	1.585073e+002
65000000	-8.352281e-002	1.584041e+002
65250000	-8.563729e-002	1.583347e+002
65500000	-8.633166e-002	1.582526e+002
65750000	-8.435165e-002	1.581576e+002
66000000	-8.657670e-002	1.580694e+002
66250000	-8.765659e-002	1.580060e+002
66500000	-8.482740e-002	1.579331e+002
66750000	-8.411791e-002	1.578645e+002
67000000	-8.288902e-002	1.577648e+002
67250000	-8.812146e-002	1.576859e+002
67500000	-8.475632e-002	1.575758e+002
67750000	-8.990462e-002	1.575299e+002
68000000	-8.979594e-002	1.574135e+002
68250000	-8.342132e-002	1.573561e+002
68500000	-8.747122e-002	1.572580e+002
68750000	-8.692487e-002	1.572013e+002
69000000	-9.086866e-002	1.571087e+002
69250000	-8.512001e-002	1.570281e+002
69500000	-8.829630e-002	1.569712e+002
69750000	-8.742826e-002	1.568506e+002
70000000	-8.665639e-002	1.567707e+002
70250000	-8.468855e-002	1.567008e+002
70500000	-7.611548e-002	1.565611e+002
70750000	-8.637230e-002	1.565149e+002
71000000	-8.524553e-002	1.564377e+002
71250000	-8.603799e-002	1.563238e+002
71500000	-8.379682e-002	1.562668e+002
71750000	-9.530977e-002	1.562214e+002
72000000	-8.935879e-002	1.561104e+002
72250000	-8.810485e-002	1.560536e+002
72500000	-8.722477e-002	1.559619e+002
72750000	-8.976056e-002	1.558588e+002
73000000	-9.252728e-002	1.558139e+002
73250000	-8.673525e-002	1.557321e+002
73500000	-8.742955e-002	1.556288e+002
73750000	-9.211574e-002	1.555275e+002
74000000	-8.971035e-002	1.554607e+002
74250000	-9.134102e-002	1.553625e+002
74500000	-8.970409e-002	1.553138e+002
74750000	-9.009567e-002	1.552363e+002
75000000	-8.804424e-002	1.551638e+002
75250000	-8.964530e-002	1.550391e+002
75500000	-9.520002e-002	1.549443e+002
75750000	-8.706904e-002	1.548745e+002
76000000	-8.486410e-002	1.548259e+002
76250000	-8.561528e-002	1.547386e+002
76500000	-9.155618e-002	1.546564e+002
76750000	-8.947125e-002	1.545627e+002
77000000	-9.746362e-002	1.545008e+002
77250000	-9.341132e-002	1.544169e+002
77500000	-9.678375e-002	1.543359e+002
77750000	-9.304553e-002	1.542165e+002
78000000	-9.099305e-002	1.541620e+002
78250000	-9.457945e-002	1.541005e+002
78500000	-9.390912e-002	1.539987e+002
78750000	-9.307269e-002	1.538906e+002
79000000	-8.962026e-002	1.538693e+002
79250000	-9.054622e-002	1.537438e+002
79500000	-9.112734e-002	1.536418e+002
79750000	-9.299709e-002	1.535641e+002
80000000	-9.495786e-002	1.535248e+002
80250000	-8.934840e-002	1.534346e+002
80500000	-8.965583e-002	1.533254e+002
80750000	-8.980067e-002	1.532685e+002
81000000	-9.336451e-002	1.531583e+002
81250000	-9.591293e-002	1.530720e+002
81500000	-8.685528e-002	1.529707e+002
81750000	-9.221050e-002	1.528724e+002
82000000	-9.332337e-002	1.528682e+002
82250000	-9.425741e-002	1.527640e+002
82500000	-8.949198e-002	1.526766e+002
82750000	-9.498144e-002	1.526042e+002
83000000	-9.124899e-002	1.525240e+002
83250000	-9.771847e-002	1.524456e+002
83500000	-9.937181e-002	1.523154e+002
83750000	-9.783668e-002	1.522920e+002
84000000	-9.635107e-002	1.521725e+002
84250000	-9.280962e-002	1.521043e+002
84500000	-9.517405e-002	1.520159e+002
84750000	-9.244080e-002	1.519466e+002
85000000	-1.006813e-001	1.518543e+002
85250000	-9.395643e-002	1.518005e+002
85500000	-8.697579e-002	1.517069e+002
85750000	-9.156267e-002	1.515922e+002
86000000	-9.095338e-002	1.514977e+002
86250000	-9.715100e-002	1.514514e+002
86500000	-9.516764e-002	1.513197e+002
86750000	-9.663276e-002	1.512732e+002
87000000	-9.362403e-002	1.511709e+002
87250000	-9.704403e-002	1.511478e+002
87500000	-9.312586e-002	1.510524e+002
87750000	-9.500110e-002	1.509626e+002
88000000	-9.871351e-002	1.509003e+002
88250000	-9.760727e-002	1.508068e+002
88500000	-9.554806e-002	1.506919e+002
88750000	-1.001228e-001	1.506064e+002
89000000	-9.468442e-002	1.505505e+002
89250000	-9.579200e-002	1.504616e+002
89500000	-9.957109e-002	1.503521e+002
89750000	-9.605690e-002	1.503002e+002
90000000	-1.010977e-001	1.502346e+002
90250000	-9.491791e-002	1.501426e+002
90500000	-9.947410e-002	1.500543e+002
90750000	-9.273697e-002	1.499824e+002
91000000	-9.467182e-002	1.498724e+002
91250000	-9.701668e-002	1.497972e+002
91500000	-9.449637e-002	1.496676e+002
91750000	-9.769155e-002	1.496304e+002
92000000	-1.014159e-001	1.495684e+002
92250000	-1.003897e-001	1.494628e+002
92500000	-9.701619e-002	1.493817e+002
92750000	-9.936877e-002	1.492806e+002
93000000	-9.954561e-002	1.492224e+002
93250000	-9.838913e-002	1.491421e+002
93500000	-9.529280e-002	1.490921e+002
93750000	-9.767243e-002	1.489152e+002
94000000	-9.891032e-002	1.489280e+002
94250000	-9.767042e-002	1.488266e+002
94500000	-9.666736e-002	1.487471e+002
94750000	-9.396843e-002	1.486599e+002
95000000	-9.894982e-002	1.485720e+002
95250000	-1.004663e-001	1.485247e+002
95500000	-9.558329e-002	1.483926e+002
95750000	-9.403774e-002	1.483129e+002
96000000	-9.307558e-002	1.482397e+002
96250000	-9.619034e-002	1.481528e+002
96500000	-1.008517e-001	1.480711e+002
96750000	-1.012211e-001	1.480095e+002
97000000	-1.004231e-001	1.479362e+002
97250000	-1.024134e-001	1.478351e+002
97500000	-1.043442e-001	1.477325e+002
97750000	-1.034783e-001	1.476794e+002
98000000	-9.783056e-002	1.475808e+002
98250000	-9.708403e-002	1.474919e+002
98500000	-9.930392e-002	1.474382e+002
98750000	-1.031214e-001	1.473460e+002
99000000	-9.854228e-002	1.472313e+002
99250000	-1.028149e-001	1.471302e+002
99500000	-9.609851e-002	1.471258e+002
99750000	-1.050502e-001	1.470468e+002
100000000	-9.237728e-002	1.469097e+002
