!Agilent Technologies,E5072A,MY51200456,A.01.06
!Date: Mon Aug 31 08:10:39 2015
!Data & Calibration Information:
!Freq	S11:SOLT1(ON)
!PortZ  Port1:50+j0
!Above PortZ is port z conversion or system Z0 setting when saving the data.
!When reading, reference impedance value at option line is always used.
# Hz S dB R 50
50000000	-7.849055e-001	-8.438752e+001
50250000	-7.743106e-001	-9.092869e+001
50500000	-7.648063e-001	-9.746154e+001
50750000	-7.563064e-001	-1.039893e+002
51000000	-7.488895e-001	-1.105135e+002
51250000	-7.426861e-001	-1.170371e+002
51500000	-7.377259e-001	-1.235574e+002
51750000	-7.340050e-001	-1.300807e+002
52000000	-7.316329e-001	-1.366066e+002
52250000	-7.304821e-001	-1.431378e+002
52500000	-7.306936e-001	-1.496739e+002
52750000	-7.323351e-001	-1.562182e+002
53000000	-7.352193e-001	-1.627712e+002
53250000	-7.392665e-001	-1.693368e+002
53500000	-7.446942e-001	-1.759138e+002
53750000	-7.512462e-001	1.774958e+002
54000000	-7.589831e-001	1.708909e+002
54250000	-7.678501e-001	1.642688e+002
54500000	-7.776408e-001	1.576309e+002
54750000	-7.884185e-001	1.509751e+002
55000000	-7.998248e-001	1.443017e+002
55250000	-8.120355e-001	1.376075e+002
55500000	-8.248757e-001	1.308966e+002
55750000	-8.382295e-001	1.241659e+002
56000000	-8.517291e-001	1.174161e+002
56250000	-8.655461e-001	1.106471e+002
56500000	-8.795444e-001	1.038600e+002
56750000	-8.932394e-001	9.705517e+001
57000000	-9.069011e-001	9.023374e+001
57250000	-9.202285e-001	8.339623e+001
57500000	-9.332698e-001	7.654359e+001
57750000	-9.456828e-001	6.967888e+001
58000000	-9.576485e-001	6.280179e+001
58250000	-9.688243e-001	5.591534e+001
58500000	-9.790951e-001	4.902121e+001
58750000	-9.884796e-001	4.212098e+001
59000000	-9.973117e-001	3.521715e+001
59250000	-1.004871e+000	2.831088e+001
59500000	-1.011747e+000	2.140589e+001
59750000	-1.017395e+000	1.450313e+001
60000000	-1.022287e+000	7.605068e+000
60250000	-1.026025e+000	7.141365e-001
60500000	-1.029069e+000	-6.168465e+000
60750000	-1.031035e+000	-1.303994e+001
61000000	-1.032272e+000	-1.989749e+001
61250000	-1.032618e+000	-2.674331e+001
61500000	-1.032369e+000	-3.357183e+001
61750000	-1.031413e+000	-4.038433e+001
62000000	-1.029964e+000	-4.717722e+001
62250000	-1.027989e+000	-5.395118e+001
62500000	-1.025610e+000	-6.070584e+001
62750000	-1.022942e+000	-6.743935e+001
63000000	-1.019925e+000	-7.415133e+001
63250000	-1.016885e+000	-8.084353e+001
63500000	-1.013828e+000	-8.751432e+001
63750000	-1.010679e+000	-9.416430e+001
64000000	-1.007448e+000	-1.007944e+002
64250000	-1.004493e+000	-1.074060e+002
64500000	-1.001625e+000	-1.139979e+002
64750000	-9.989209e-001	-1.205729e+002
65000000	-9.964777e-001	-1.271327e+002
65250000	-9.935592e-001	-1.336762e+002
65500000	-9.916410e-001	-1.402086e+002
65750000	-9.901098e-001	-1.467279e+002
66000000	-9.888928e-001	-1.532379e+002
66250000	-9.881490e-001	-1.597396e+002
66500000	-9.874665e-001	-1.662358e+002
66750000	-9.872170e-001	-1.727282e+002
67000000	-9.873778e-001	-1.792176e+002
67250000	-9.878209e-001	1.742933e+002
67500000	-9.885754e-001	1.678022e+002
67750000	-9.896937e-001	1.613068e+002
68000000	-9.909388e-001	1.548052e+002
68250000	-9.923324e-001	1.482959e+002
68500000	-9.939391e-001	1.417777e+002
68750000	-9.958361e-001	1.352478e+002
69000000	-9.975507e-001	1.287030e+002
69250000	-9.997372e-001	1.221436e+002
69500000	-1.001821e+000	1.155689e+002
69750000	-1.004052e+000	1.089764e+002
70000000	-1.006244e+000	1.023645e+002
70250000	-1.008343e+000	9.573170e+001
70500000	-1.010772e+000	8.907391e+001
70750000	-1.012794e+000	8.240105e+001
71000000	-1.014923e+000	7.570618e+001
71250000	-1.017045e+000	6.898621e+001
71500000	-1.019116e+000	6.224253e+001
71750000	-1.021069e+000	5.547689e+001
72000000	-1.023137e+000	4.869291e+001
72250000	-1.025074e+000	4.188834e+001
72500000	-1.027074e+000	3.505960e+001
72750000	-1.029079e+000	2.821159e+001
73000000	-1.031232e+000	2.134893e+001
73250000	-1.033623e+000	1.447319e+001
73500000	-1.035993e+000	7.582125e+000
73750000	-1.038696e+000	6.746020e-001
74000000	-1.041550e+000	-6.239873e+000
74250000	-1.044699e+000	-1.315909e+001
74500000	-1.048157e+000	-2.008453e+001
74750000	-1.051997e+000	-2.701495e+001
75000000	-1.056242e+000	-3.394461e+001
75250000	-1.060939e+000	-4.086851e+001
75500000	-1.066033e+000	-4.778726e+001
75750000	-1.071511e+000	-5.470063e+001
76000000	-1.077578e+000	-6.160463e+001
76250000	-1.084121e+000	-6.849339e+001
76500000	-1.091035e+000	-7.536696e+001
76750000	-1.098307e+000	-8.222792e+001
77000000	-1.106229e+000	-8.906956e+001
77250000	-1.114521e+000	-9.588909e+001
77500000	-1.123088e+000	-1.026879e+002
77750000	-1.131975e+000	-1.094668e+002
78000000	-1.141215e+000	-1.162223e+002
78250000	-1.150519e+000	-1.229519e+002
78500000	-1.160035e+000	-1.296603e+002
78750000	-1.169492e+000	-1.363455e+002
79000000	-1.178953e+000	-1.430054e+002
79250000	-1.188197e+000	-1.496408e+002
79500000	-1.197230e+000	-1.562569e+002
79750000	-1.205951e+000	-1.628510e+002
80000000	-1.214466e+000	-1.694231e+002
80250000	-1.222383e+000	-1.759767e+002
80500000	-1.229674e+000	1.774851e+002
80750000	-1.236438e+000	1.709642e+002
81000000	-1.242511e+000	1.644588e+002
81250000	-1.247863e+000	1.579633e+002
81500000	-1.252212e+000	1.514763e+002
81750000	-1.255644e+000	1.450007e+002
82000000	-1.258110e+000	1.385290e+002
82250000	-1.259490e+000	1.320589e+002
82500000	-1.259955e+000	1.255904e+002
82750000	-1.259112e+000	1.191219e+002
83000000	-1.257323e+000	1.126483e+002
83250000	-1.254367e+000	1.061676e+002
83500000	-1.250353e+000	9.968103e+001
83750000	-1.245182e+000	9.318315e+001
84000000	-1.238921e+000	8.666974e+001
84250000	-1.231790e+000	8.014348e+001
84500000	-1.223419e+000	7.360245e+001
84750000	-1.214378e+000	6.704045e+001
85000000	-1.204601e+000	6.045851e+001
85250000	-1.194147e+000	5.385735e+001
85500000	-1.183085e+000	4.723483e+001
85750000	-1.171600e+000	4.058611e+001
86000000	-1.159783e+000	3.391538e+001
86250000	-1.147968e+000	2.722236e+001
86500000	-1.136092e+000	2.050350e+001
86750000	-1.124498e+000	1.375807e+001
87000000	-1.113363e+000	6.992173e+000
87250000	-1.102957e+000	2.049713e-001
87500000	-1.093118e+000	-6.605920e+000
87750000	-1.084236e+000	-1.343822e+001
88000000	-1.076594e+000	-2.028704e+001
88250000	-1.070237e+000	-2.715224e+001
88500000	-1.065238e+000	-3.403485e+001
88750000	-1.061928e+000	-4.092759e+001
89000000	-1.060019e+000	-4.782927e+001
89250000	-1.060193e+000	-5.473869e+001
89500000	-1.061900e+000	-6.165316e+001
89750000	-1.065511e+000	-6.856801e+001
90000000	-1.070976e+000	-7.548060e+001
90250000	-1.078058e+000	-8.239067e+001
90500000	-1.086983e+000	-8.929262e+001
90750000	-1.097719e+000	-9.618436e+001
91000000	-1.109640e+000	-1.030660e+002
91250000	-1.123024e+000	-1.099331e+002
91500000	-1.137756e+000	-1.167833e+002
91750000	-1.153514e+000	-1.236155e+002
92000000	-1.170073e+000	-1.304291e+002
92250000	-1.187386e+000	-1.372219e+002
92500000	-1.205031e+000	-1.439925e+002
92750000	-1.222928e+000	-1.507417e+002
93000000	-1.240954e+000	-1.574701e+002
93250000	-1.258510e+000	-1.641737e+002
93500000	-1.275875e+000	-1.708552e+002
93750000	-1.292610e+000	-1.775162e+002
94000000	-1.308550e+000	1.758441e+002
94250000	-1.323348e+000	1.692251e+002
94500000	-1.337080e+000	1.626236e+002
94750000	-1.349548e+000	1.560385e+002
95000000	-1.360622e+000	1.494703e+002
95250000	-1.370037e+000	1.429162e+002
95500000	-1.377821e+000	1.363734e+002
95750000	-1.383940e+000	1.298406e+002
96000000	-1.388160e+000	1.233153e+002
96250000	-1.390489e+000	1.167949e+002
96500000	-1.390949e+000	1.102784e+002
96750000	-1.389656e+000	1.037634e+002
97000000	-1.386491e+000	9.724840e+001
97250000	-1.381554e+000	9.073065e+001
97500000	-1.374788e+000	8.420845e+001
97750000	-1.366438e+000	7.767976e+001
98000000	-1.356443e+000	7.114148e+001
98250000	-1.344992e+000	6.459171e+001
98500000	-1.332183e+000	5.803113e+001
98750000	-1.318208e+000	5.145710e+001
99000000	-1.303277e+000	4.486845e+001
99250000	-1.287360e+000	3.826452e+001
99500000	-1.270928e+000	3.164395e+001
99750000	-1.253811e+000	2.500568e+001
100000000	-1.236496e+000	1.834957e+001
