!Agilent Technologies,E5072A,MY51200456,A.01.06
!Date: Mon Aug 31 08:08:15 2015
!Data & Calibration Information:
!Freq	S11:SOLT1(ON)
!PortZ  Port1:50+j0
!Above PortZ is port z conversion or system Z0 setting when saving the data.
!When reading, reference impedance value at option line is always used.
# Hz S dB R 50
50000000	-3.572781e+001	-1.493276e+002
50250000	-3.576454e+001	-1.501248e+002
50500000	-3.580011e+001	-1.509482e+002
50750000	-3.584093e+001	-1.517462e+002
51000000	-3.588340e+001	-1.525374e+002
51250000	-3.592051e+001	-1.533654e+002
51500000	-3.596680e+001	-1.541771e+002
51750000	-3.600601e+001	-1.549861e+002
52000000	-3.604513e+001	-1.557869e+002
52250000	-3.608852e+001	-1.566179e+002
52500000	-3.613060e+001	-1.574270e+002
52750000	-3.617584e+001	-1.582479e+002
53000000	-3.622152e+001	-1.590373e+002
53250000	-3.626511e+001	-1.598445e+002
53500000	-3.631008e+001	-1.606682e+002
53750000	-3.635385e+001	-1.614622e+002
54000000	-3.639792e+001	-1.622801e+002
54250000	-3.644830e+001	-1.630739e+002
54500000	-3.649539e+001	-1.638643e+002
54750000	-3.654358e+001	-1.646774e+002
55000000	-3.659144e+001	-1.655082e+002
55250000	-3.664159e+001	-1.662865e+002
55500000	-3.669129e+001	-1.671016e+002
55750000	-3.673866e+001	-1.678883e+002
56000000	-3.679109e+001	-1.686834e+002
56250000	-3.684431e+001	-1.694737e+002
56500000	-3.689522e+001	-1.702778e+002
56750000	-3.694811e+001	-1.710664e+002
57000000	-3.700240e+001	-1.718668e+002
57250000	-3.705533e+001	-1.726863e+002
57500000	-3.711240e+001	-1.734455e+002
57750000	-3.717068e+001	-1.742790e+002
58000000	-3.723187e+001	-1.749820e+002
58250000	-3.728372e+001	-1.758259e+002
58500000	-3.734379e+001	-1.766316e+002
58750000	-3.740301e+001	-1.774360e+002
59000000	-3.746156e+001	-1.781953e+002
59250000	-3.752150e+001	-1.790193e+002
59500000	-3.758144e+001	-1.797504e+002
59750000	-3.764237e+001	1.794246e+002
60000000	-3.770561e+001	1.786675e+002
60250000	-3.776797e+001	1.778800e+002
60500000	-3.783375e+001	1.770899e+002
60750000	-3.789722e+001	1.763177e+002
61000000	-3.796634e+001	1.755927e+002
61250000	-3.803369e+001	1.747661e+002
61500000	-3.810075e+001	1.739624e+002
61750000	-3.816796e+001	1.732390e+002
62000000	-3.823933e+001	1.724781e+002
62250000	-3.830459e+001	1.717014e+002
62500000	-3.838020e+001	1.709158e+002
62750000	-3.845447e+001	1.701580e+002
63000000	-3.852932e+001	1.694080e+002
63250000	-3.859993e+001	1.686741e+002
63500000	-3.867708e+001	1.678996e+002
63750000	-3.875644e+001	1.671368e+002
64000000	-3.882905e+001	1.663995e+002
64250000	-3.890693e+001	1.656365e+002
64500000	-3.898942e+001	1.649221e+002
64750000	-3.906988e+001	1.641618e+002
65000000	-3.914799e+001	1.634285e+002
65250000	-3.922715e+001	1.626517e+002
65500000	-3.931025e+001	1.619210e+002
65750000	-3.939770e+001	1.611942e+002
66000000	-3.948555e+001	1.605004e+002
66250000	-3.957649e+001	1.597417e+002
66500000	-3.965914e+001	1.590537e+002
66750000	-3.975466e+001	1.583304e+002
67000000	-3.984325e+001	1.576238e+002
67250000	-3.993607e+001	1.568957e+002
67500000	-4.003277e+001	1.562069e+002
67750000	-4.012173e+001	1.555497e+002
68000000	-4.022007e+001	1.548300e+002
68250000	-4.031954e+001	1.541543e+002
68500000	-4.041711e+001	1.534553e+002
68750000	-4.051729e+001	1.528189e+002
69000000	-4.061431e+001	1.521204e+002
69250000	-4.072246e+001	1.514657e+002
69500000	-4.082009e+001	1.508105e+002
69750000	-4.093194e+001	1.501703e+002
70000000	-4.104013e+001	1.495506e+002
70250000	-4.114728e+001	1.488935e+002
70500000	-4.128103e+001	1.482292e+002
70750000	-4.137013e+001	1.476728e+002
71000000	-4.148427e+001	1.470791e+002
71250000	-4.159884e+001	1.464781e+002
71500000	-4.172056e+001	1.458598e+002
71750000	-4.183767e+001	1.452678e+002
72000000	-4.195505e+001	1.447422e+002
72250000	-4.207598e+001	1.441829e+002
72500000	-4.219935e+001	1.436447e+002
72750000	-4.232754e+001	1.430595e+002
73000000	-4.245440e+001	1.425532e+002
73250000	-4.258039e+001	1.420467e+002
73500000	-4.269581e+001	1.416233e+002
73750000	-4.284275e+001	1.410441e+002
74000000	-4.298111e+001	1.405216e+002
74250000	-4.311695e+001	1.401104e+002
74500000	-4.324326e+001	1.397339e+002
74750000	-4.339063e+001	1.393063e+002
75000000	-4.352976e+001	1.388481e+002
75250000	-4.367942e+001	1.385094e+002
75500000	-4.380223e+001	1.381292e+002
75750000	-4.395621e+001	1.377710e+002
76000000	-4.409907e+001	1.374248e+002
76250000	-4.424533e+001	1.370970e+002
76500000	-4.439265e+001	1.368343e+002
76750000	-4.454869e+001	1.365749e+002
77000000	-4.470224e+001	1.363323e+002
77250000	-4.485335e+001	1.361163e+002
77500000	-4.500067e+001	1.359174e+002
77750000	-4.516933e+001	1.358136e+002
78000000	-4.531932e+001	1.356653e+002
78250000	-4.547464e+001	1.354975e+002
78500000	-4.562903e+001	1.354542e+002
78750000	-4.579430e+001	1.353478e+002
79000000	-4.594451e+001	1.353269e+002
79250000	-4.610248e+001	1.353609e+002
79500000	-4.625991e+001	1.354346e+002
79750000	-4.643735e+001	1.355291e+002
80000000	-4.658820e+001	1.356461e+002
80250000	-4.673898e+001	1.357607e+002
80500000	-4.690688e+001	1.359632e+002
80750000	-4.706311e+001	1.361365e+002
81000000	-4.721146e+001	1.364222e+002
81250000	-4.736328e+001	1.367080e+002
81500000	-4.752947e+001	1.370440e+002
81750000	-4.766518e+001	1.374659e+002
82000000	-4.779440e+001	1.378617e+002
82250000	-4.793828e+001	1.382812e+002
82500000	-4.809212e+001	1.387304e+002
82750000	-4.821630e+001	1.391589e+002
83000000	-4.834896e+001	1.397356e+002
83250000	-4.847195e+001	1.403992e+002
83500000	-4.859066e+001	1.411077e+002
83750000	-4.871819e+001	1.417225e+002
84000000	-4.883431e+001	1.422938e+002
84250000	-4.894892e+001	1.431163e+002
84500000	-4.903267e+001	1.437332e+002
84750000	-4.912383e+001	1.445142e+002
85000000	-4.920041e+001	1.452765e+002
85250000	-4.928411e+001	1.460262e+002
85500000	-4.935411e+001	1.469322e+002
85750000	-4.941761e+001	1.477175e+002
86000000	-4.948314e+001	1.486481e+002
86250000	-4.952213e+001	1.494240e+002
86500000	-4.956911e+001	1.501860e+002
86750000	-4.962037e+001	1.510023e+002
87000000	-4.963348e+001	1.517727e+002
87250000	-4.965873e+001	1.527075e+002
87500000	-4.966430e+001	1.533306e+002
87750000	-4.969915e+001	1.541983e+002
88000000	-4.970467e+001	1.549595e+002
88250000	-4.970744e+001	1.556552e+002
88500000	-4.970236e+001	1.565318e+002
88750000	-4.969254e+001	1.571069e+002
89000000	-4.967567e+001	1.579352e+002
89250000	-4.965646e+001	1.585028e+002
89500000	-4.962992e+001	1.592552e+002
89750000	-4.960533e+001	1.599571e+002
90000000	-4.957776e+001	1.604655e+002
90250000	-4.953787e+001	1.610849e+002
90500000	-4.951894e+001	1.616543e+002
90750000	-4.947112e+001	1.622124e+002
91000000	-4.941369e+001	1.627027e+002
91250000	-4.938870e+001	1.633287e+002
91500000	-4.935259e+001	1.637734e+002
91750000	-4.930952e+001	1.641979e+002
92000000	-4.926756e+001	1.647191e+002
92250000	-4.921799e+001	1.651306e+002
92500000	-4.916687e+001	1.655952e+002
92750000	-4.912921e+001	1.660130e+002
93000000	-4.907951e+001	1.664016e+002
93250000	-4.902790e+001	1.667272e+002
93500000	-4.897649e+001	1.670956e+002
93750000	-4.892051e+001	1.675668e+002
94000000	-4.887479e+001	1.677482e+002
94250000	-4.882529e+001	1.681448e+002
94500000	-4.876969e+001	1.685128e+002
94750000	-4.871586e+001	1.687949e+002
95000000	-4.866881e+001	1.691423e+002
95250000	-4.860169e+001	1.694463e+002
95500000	-4.855246e+001	1.697405e+002
95750000	-4.850538e+001	1.701089e+002
96000000	-4.842994e+001	1.702862e+002
96250000	-4.839194e+001	1.706273e+002
96500000	-4.831895e+001	1.709115e+002
96750000	-4.826153e+001	1.710774e+002
97000000	-4.819404e+001	1.713600e+002
97250000	-4.815191e+001	1.717513e+002
97500000	-4.806771e+001	1.719568e+002
97750000	-4.800424e+001	1.722161e+002
98000000	-4.793894e+001	1.725271e+002
98250000	-4.789382e+001	1.726834e+002
98500000	-4.781050e+001	1.729484e+002
98750000	-4.774160e+001	1.732014e+002
99000000	-4.768331e+001	1.733801e+002
99250000	-4.760886e+001	1.736677e+002
99500000	-4.753134e+001	1.739545e+002
99750000	-4.744910e+001	1.741309e+002
100000000	-4.737033e+001	1.743519e+002
