!Agilent Technologies,E5072A,MY51200456,A.01.06
!Date: Mon Aug 31 08:06:08 2015
!Data & Calibration Information:
!Freq	S11:SOLT1(ON)
!PortZ  Port1:50+j0
!Above PortZ is port z conversion or system Z0 setting when saving the data.
!When reading, reference impedance value at option line is always used.
# Hz S dB R 50
50000000	-3.355643e-001	1.474951e+002
50250000	-3.381479e-001	1.464356e+002
50500000	-3.405363e-001	1.453758e+002
50750000	-3.427973e-001	1.443158e+002
51000000	-3.453769e-001	1.432559e+002
51250000	-3.477435e-001	1.421969e+002
51500000	-3.501344e-001	1.411367e+002
51750000	-3.524865e-001	1.400765e+002
52000000	-3.549470e-001	1.390173e+002
52250000	-3.572487e-001	1.379578e+002
52500000	-3.595751e-001	1.368985e+002
52750000	-3.619232e-001	1.358390e+002
53000000	-3.642422e-001	1.347799e+002
53250000	-3.665132e-001	1.337193e+002
53500000	-3.687502e-001	1.326604e+002
53750000	-3.711094e-001	1.316007e+002
54000000	-3.733694e-001	1.305423e+002
54250000	-3.756505e-001	1.294811e+002
54500000	-3.779068e-001	1.284218e+002
54750000	-3.801771e-001	1.273625e+002
55000000	-3.823142e-001	1.263037e+002
55250000	-3.845397e-001	1.252425e+002
55500000	-3.868305e-001	1.241836e+002
55750000	-3.891239e-001	1.231242e+002
56000000	-3.913201e-001	1.220649e+002
56250000	-3.935846e-001	1.210053e+002
56500000	-3.958647e-001	1.199456e+002
56750000	-3.979480e-001	1.188866e+002
57000000	-4.001441e-001	1.178271e+002
57250000	-4.022031e-001	1.167679e+002
57500000	-4.044257e-001	1.157077e+002
57750000	-4.064394e-001	1.146484e+002
58000000	-4.087411e-001	1.135887e+002
58250000	-4.107434e-001	1.125288e+002
58500000	-4.127523e-001	1.114695e+002
58750000	-4.148616e-001	1.104098e+002
59000000	-4.170333e-001	1.093502e+002
59250000	-4.189631e-001	1.082905e+002
59500000	-4.211606e-001	1.072314e+002
59750000	-4.231467e-001	1.061716e+002
60000000	-4.252519e-001	1.051121e+002
60250000	-4.272144e-001	1.040527e+002
60500000	-4.293313e-001	1.029935e+002
60750000	-4.312908e-001	1.019351e+002
61000000	-4.333826e-001	1.008741e+002
61250000	-4.353045e-001	9.981593e+001
61500000	-4.371305e-001	9.875603e+001
61750000	-4.392062e-001	9.769642e+001
62000000	-4.412061e-001	9.663687e+001
62250000	-4.431432e-001	9.557852e+001
62500000	-4.450067e-001	9.451829e+001
62750000	-4.469154e-001	9.345919e+001
63000000	-4.489448e-001	9.239905e+001
63250000	-4.507572e-001	9.134087e+001
63500000	-4.526192e-001	9.028103e+001
63750000	-4.544746e-001	8.922170e+001
64000000	-4.563331e-001	8.816247e+001
64250000	-4.579864e-001	8.710330e+001
64500000	-4.599454e-001	8.604367e+001
64750000	-4.616370e-001	8.498428e+001
65000000	-4.635482e-001	8.392570e+001
65250000	-4.645743e-001	8.286733e+001
65500000	-4.662914e-001	8.180800e+001
65750000	-4.681107e-001	8.074824e+001
66000000	-4.697859e-001	7.968955e+001
66250000	-4.713619e-001	7.863071e+001
66500000	-4.730747e-001	7.757133e+001
66750000	-4.747075e-001	7.651135e+001
67000000	-4.763358e-001	7.545216e+001
67250000	-4.779496e-001	7.439294e+001
67500000	-4.797181e-001	7.333440e+001
67750000	-4.812441e-001	7.227635e+001
68000000	-4.828881e-001	7.121601e+001
68250000	-4.844382e-001	7.015737e+001
68500000	-4.858945e-001	6.909912e+001
68750000	-4.875051e-001	6.804157e+001
69000000	-4.888169e-001	6.698159e+001
69250000	-4.904453e-001	6.592242e+001
69500000	-4.918653e-001	6.486268e+001
69750000	-4.934011e-001	6.380522e+001
70000000	-4.947334e-001	6.274791e+001
70250000	-4.959881e-001	6.168952e+001
70500000	-4.975667e-001	6.062607e+001
70750000	-4.988203e-001	5.956818e+001
71000000	-5.001767e-001	5.851181e+001
71250000	-5.014719e-001	5.745504e+001
71500000	-5.027585e-001	5.639471e+001
71750000	-5.040629e-001	5.533374e+001
72000000	-5.053007e-001	5.427610e+001
72250000	-5.065612e-001	5.322157e+001
72500000	-5.076245e-001	5.216333e+001
72750000	-5.087264e-001	5.110185e+001
73000000	-5.098982e-001	5.004101e+001
73250000	-5.110543e-001	4.898633e+001
73500000	-5.120261e-001	4.793307e+001
73750000	-5.132334e-001	4.687107e+001
74000000	-5.142777e-001	4.580975e+001
74250000	-5.152245e-001	4.475272e+001
74500000	-5.161290e-001	4.369811e+001
74750000	-5.171097e-001	4.263977e+001
75000000	-5.179213e-001	4.157786e+001
75250000	-5.189024e-001	4.051966e+001
75500000	-5.195833e-001	3.946548e+001
75750000	-5.203675e-001	3.840784e+001
76000000	-5.210202e-001	3.734732e+001
76250000	-5.217483e-001	3.628932e+001
76500000	-5.224563e-001	3.523463e+001
76750000	-5.230016e-001	3.417626e+001
77000000	-5.235431e-001	3.311638e+001
77250000	-5.241659e-001	3.206018e+001
77500000	-5.246200e-001	3.100535e+001
77750000	-5.251570e-001	2.994608e+001
78000000	-5.256127e-001	2.888651e+001
78250000	-5.258776e-001	2.783000e+001
78500000	-5.262361e-001	2.677368e+001
78750000	-5.264800e-001	2.571374e+001
79000000	-5.266733e-001	2.465552e+001
79250000	-5.269321e-001	2.360023e+001
79500000	-5.270141e-001	2.254182e+001
79750000	-5.270725e-001	2.148243e+001
80000000	-5.272350e-001	2.042525e+001
80250000	-5.270183e-001	1.936946e+001
80500000	-5.269707e-001	1.831016e+001
80750000	-5.268506e-001	1.725089e+001
81000000	-5.266670e-001	1.619533e+001
81250000	-5.263537e-001	1.513740e+001
81500000	-5.261240e-001	1.407663e+001
81750000	-5.256975e-001	1.301829e+001
82000000	-5.253564e-001	1.196171e+001
82250000	-5.248009e-001	1.090266e+001
82500000	-5.242584e-001	9.841696e+000
82750000	-5.236921e-001	8.784693e+000
83000000	-5.231267e-001	7.726634e+000
83250000	-5.223537e-001	6.665031e+000
83500000	-5.216675e-001	5.605631e+000
83750000	-5.208425e-001	4.547951e+000
84000000	-5.200020e-001	3.487603e+000
84250000	-5.190711e-001	2.425420e+000
84500000	-5.181063e-001	1.366575e+000
84750000	-5.171241e-001	3.069043e-001
85000000	-5.159339e-001	-7.567880e-001
85250000	-5.149571e-001	-1.818559e+000
85500000	-5.138183e-001	-2.877854e+000
85750000	-5.126059e-001	-3.940527e+000
86000000	-5.112156e-001	-5.004884e+000
86250000	-5.099131e-001	-6.065424e+000
86500000	-5.085014e-001	-7.126639e+000
86750000	-5.070892e-001	-8.192037e+000
87000000	-5.056567e-001	-9.257114e+000
87250000	-5.042413e-001	-1.031836e+001
87500000	-5.026749e-001	-1.138088e+001
87750000	-5.010284e-001	-1.244833e+001
88000000	-4.995389e-001	-1.351348e+001
88250000	-4.978669e-001	-1.457683e+001
88500000	-4.961973e-001	-1.564440e+001
88750000	-4.944651e-001	-1.671266e+001
89000000	-4.926242e-001	-1.777898e+001
89250000	-4.910003e-001	-1.884579e+001
89500000	-4.891739e-001	-1.991495e+001
89750000	-4.873628e-001	-2.098363e+001
90000000	-4.855417e-001	-2.205103e+001
90250000	-4.835932e-001	-2.312108e+001
90500000	-4.818165e-001	-2.419075e+001
90750000	-4.800398e-001	-2.525979e+001
91000000	-4.782184e-001	-2.632951e+001
91250000	-4.762592e-001	-2.740157e+001
91500000	-4.743443e-001	-2.847362e+001
91750000	-4.727325e-001	-2.954385e+001
92000000	-4.708897e-001	-3.061717e+001
92250000	-4.690023e-001	-3.169136e+001
92500000	-4.672492e-001	-3.276361e+001
92750000	-4.654769e-001	-3.383698e+001
93000000	-4.636823e-001	-3.491372e+001
93250000	-4.618488e-001	-3.598894e+001
93500000	-4.600455e-001	-3.706272e+001
93750000	-4.583386e-001	-3.813918e+001
94000000	-4.566136e-001	-3.921589e+001
94250000	-4.549299e-001	-4.029097e+001
94500000	-4.533346e-001	-4.136662e+001
94750000	-4.515678e-001	-4.244574e+001
95000000	-4.500048e-001	-4.352233e+001
95250000	-4.486136e-001	-4.460158e+001
95500000	-4.470399e-001	-4.567874e+001
95750000	-4.456559e-001	-4.675644e+001
96000000	-4.443188e-001	-4.783541e+001
96250000	-4.428922e-001	-4.891428e+001
96500000	-4.414679e-001	-4.999488e+001
96750000	-4.402437e-001	-5.107468e+001
97000000	-4.390060e-001	-5.215618e+001
97250000	-4.377711e-001	-5.323609e+001
97500000	-4.367239e-001	-5.431616e+001
97750000	-4.355677e-001	-5.539699e+001
98000000	-4.345004e-001	-5.647734e+001
98250000	-4.334856e-001	-5.755839e+001
98500000	-4.326378e-001	-5.864120e+001
98750000	-4.316556e-001	-5.972320e+001
99000000	-4.308767e-001	-6.080482e+001
99250000	-4.300308e-001	-6.188692e+001
99500000	-4.293022e-001	-6.296853e+001
99750000	-4.287215e-001	-6.405005e+001
100000000	-4.281122e-001	-6.513271e+001
