!Agilent Technologies,E5072A,MY51200456,A.01.06
!Date: Mon Aug 31 08:09:31 2015
!Data & Calibration Information:
!Freq	S11:SOLT1(ON)
!PortZ  Port1:50+j0
!Above PortZ is port z conversion or system Z0 setting when saving the data.
!When reading, reference impedance value at option line is always used.
# Hz S dB R 50
50000000	-3.404608e-001	-3.379006e+001
50250000	-3.402636e-001	-3.485203e+001
50500000	-3.401965e-001	-3.591396e+001
50750000	-3.401528e-001	-3.697555e+001
51000000	-3.400442e-001	-3.803743e+001
51250000	-3.399809e-001	-3.910054e+001
51500000	-3.399708e-001	-4.016116e+001
51750000	-3.399615e-001	-4.122327e+001
52000000	-3.399459e-001	-4.228521e+001
52250000	-3.399229e-001	-4.334727e+001
52500000	-3.399352e-001	-4.440869e+001
52750000	-3.399863e-001	-4.547061e+001
53000000	-3.400319e-001	-4.653259e+001
53250000	-3.399782e-001	-4.759354e+001
53500000	-3.401109e-001	-4.865512e+001
53750000	-3.401823e-001	-4.971657e+001
54000000	-3.402204e-001	-5.077913e+001
54250000	-3.404244e-001	-5.183957e+001
54500000	-3.405184e-001	-5.290124e+001
54750000	-3.406989e-001	-5.396276e+001
55000000	-3.409822e-001	-5.502518e+001
55250000	-3.411808e-001	-5.608516e+001
55500000	-3.413853e-001	-5.714673e+001
55750000	-3.415649e-001	-5.820886e+001
56000000	-3.418496e-001	-5.927009e+001
56250000	-3.421521e-001	-6.033068e+001
56500000	-3.424754e-001	-6.139159e+001
56750000	-3.428946e-001	-6.245298e+001
57000000	-3.431260e-001	-6.351401e+001
57250000	-3.435923e-001	-6.457468e+001
57500000	-3.438298e-001	-6.563482e+001
57750000	-3.443107e-001	-6.669600e+001
58000000	-3.446346e-001	-6.775622e+001
58250000	-3.452003e-001	-6.881713e+001
58500000	-3.456781e-001	-6.987737e+001
58750000	-3.462183e-001	-7.093772e+001
59000000	-3.466895e-001	-7.199811e+001
59250000	-3.473073e-001	-7.305899e+001
59500000	-3.477566e-001	-7.411933e+001
59750000	-3.484383e-001	-7.517962e+001
60000000	-3.488940e-001	-7.623986e+001
60250000	-3.495956e-001	-7.729912e+001
60500000	-3.503298e-001	-7.835968e+001
60750000	-3.510098e-001	-7.941929e+001
61000000	-3.516175e-001	-8.047817e+001
61250000	-3.523968e-001	-8.153911e+001
61500000	-3.533020e-001	-8.259832e+001
61750000	-3.539413e-001	-8.365859e+001
62000000	-3.547126e-001	-8.471680e+001
62250000	-3.555764e-001	-8.577634e+001
62500000	-3.563846e-001	-8.683595e+001
62750000	-3.573216e-001	-8.789493e+001
63000000	-3.579808e-001	-8.895324e+001
63250000	-3.589963e-001	-9.001241e+001
63500000	-3.600045e-001	-9.107110e+001
63750000	-3.610494e-001	-9.212958e+001
64000000	-3.618989e-001	-9.318768e+001
64250000	-3.629773e-001	-9.424682e+001
64500000	-3.639409e-001	-9.530439e+001
64750000	-3.650012e-001	-9.636219e+001
65000000	-3.661261e-001	-9.742064e+001
65250000	-3.665298e-001	-9.847725e+001
65500000	-3.676103e-001	-9.953567e+001
65750000	-3.687663e-001	-1.005929e+002
66000000	-3.697768e-001	-1.016505e+002
66250000	-3.711841e-001	-1.027079e+002
66500000	-3.722792e-001	-1.037649e+002
66750000	-3.734223e-001	-1.048226e+002
67000000	-3.747770e-001	-1.058796e+002
67250000	-3.761534e-001	-1.069359e+002
67500000	-3.773015e-001	-1.079922e+002
67750000	-3.787129e-001	-1.090497e+002
68000000	-3.801286e-001	-1.101063e+002
68250000	-3.816153e-001	-1.111640e+002
68500000	-3.832091e-001	-1.122187e+002
68750000	-3.844910e-001	-1.132746e+002
69000000	-3.861439e-001	-1.143309e+002
69250000	-3.875327e-001	-1.153880e+002
69500000	-3.890794e-001	-1.164441e+002
69750000	-3.906053e-001	-1.174981e+002
70000000	-3.921314e-001	-1.185524e+002
70250000	-3.938182e-001	-1.196085e+002
70500000	-3.952473e-001	-1.206634e+002
70750000	-3.970545e-001	-1.217194e+002
71000000	-3.987156e-001	-1.227721e+002
71250000	-4.004394e-001	-1.238263e+002
71500000	-4.021771e-001	-1.248817e+002
71750000	-4.041097e-001	-1.259370e+002
72000000	-4.058939e-001	-1.269894e+002
72250000	-4.077596e-001	-1.280409e+002
72500000	-4.095399e-001	-1.290952e+002
72750000	-4.114304e-001	-1.301508e+002
73000000	-4.133615e-001	-1.312037e+002
73250000	-4.153940e-001	-1.322541e+002
73500000	-4.175239e-001	-1.333061e+002
73750000	-4.193558e-001	-1.343594e+002
74000000	-4.212331e-001	-1.354127e+002
74250000	-4.233328e-001	-1.364626e+002
74500000	-4.253659e-001	-1.375134e+002
74750000	-4.274388e-001	-1.385663e+002
75000000	-4.296401e-001	-1.396195e+002
75250000	-4.318223e-001	-1.406685e+002
75500000	-4.339133e-001	-1.417174e+002
75750000	-4.360461e-001	-1.427687e+002
76000000	-4.382884e-001	-1.438204e+002
76250000	-4.404868e-001	-1.448690e+002
76500000	-4.427423e-001	-1.459166e+002
76750000	-4.449744e-001	-1.469673e+002
77000000	-4.473231e-001	-1.480171e+002
77250000	-4.497023e-001	-1.490639e+002
77500000	-4.520576e-001	-1.501112e+002
77750000	-4.543212e-001	-1.511600e+002
78000000	-4.567158e-001	-1.522091e+002
78250000	-4.590358e-001	-1.532545e+002
78500000	-4.614697e-001	-1.543017e+002
78750000	-4.638439e-001	-1.553496e+002
79000000	-4.663709e-001	-1.563955e+002
79250000	-4.687209e-001	-1.574398e+002
79500000	-4.711834e-001	-1.584866e+002
79750000	-4.735694e-001	-1.595331e+002
80000000	-4.760856e-001	-1.605770e+002
80250000	-4.786623e-001	-1.616210e+002
80500000	-4.811148e-001	-1.626665e+002
80750000	-4.835459e-001	-1.637104e+002
81000000	-4.859737e-001	-1.647521e+002
81250000	-4.885907e-001	-1.657958e+002
81500000	-4.910698e-001	-1.668403e+002
81750000	-4.935906e-001	-1.678816e+002
82000000	-4.961269e-001	-1.689231e+002
82250000	-4.985424e-001	-1.699660e+002
82500000	-5.011556e-001	-1.710074e+002
82750000	-5.036452e-001	-1.720467e+002
83000000	-5.061109e-001	-1.730871e+002
83250000	-5.086393e-001	-1.741295e+002
83500000	-5.110494e-001	-1.751683e+002
83750000	-5.135166e-001	-1.762064e+002
84000000	-5.160141e-001	-1.772470e+002
84250000	-5.184740e-001	-1.782862e+002
84500000	-5.208263e-001	-1.793229e+002
84750000	-5.233253e-001	1.796393e+002
85000000	-5.256141e-001	1.785994e+002
85250000	-5.279415e-001	1.775627e+002
85500000	-5.302528e-001	1.765277e+002
85750000	-5.324808e-001	1.754900e+002
86000000	-5.347108e-001	1.744528e+002
86250000	-5.368909e-001	1.734187e+002
86500000	-5.391531e-001	1.723836e+002
86750000	-5.412239e-001	1.713466e+002
87000000	-5.434609e-001	1.703119e+002
87250000	-5.455250e-001	1.692793e+002
87500000	-5.474925e-001	1.682452e+002
87750000	-5.495562e-001	1.672093e+002
88000000	-5.515638e-001	1.661764e+002
88250000	-5.534867e-001	1.651439e+002
88500000	-5.553994e-001	1.641095e+002
88750000	-5.572641e-001	1.630759e+002
89000000	-5.590765e-001	1.620445e+002
89250000	-5.607764e-001	1.610119e+002
89500000	-5.623943e-001	1.599785e+002
89750000	-5.640672e-001	1.589469e+002
90000000	-5.655603e-001	1.579157e+002
90250000	-5.671386e-001	1.568839e+002
90500000	-5.685891e-001	1.558523e+002
90750000	-5.699546e-001	1.548228e+002
91000000	-5.713302e-001	1.537912e+002
91250000	-5.726537e-001	1.527590e+002
91500000	-5.739030e-001	1.517288e+002
91750000	-5.751415e-001	1.506981e+002
92000000	-5.763385e-001	1.496663e+002
92250000	-5.773828e-001	1.486353e+002
92500000	-5.783294e-001	1.476062e+002
92750000	-5.793559e-001	1.465749e+002
93000000	-5.803726e-001	1.455428e+002
93250000	-5.811326e-001	1.445123e+002
93500000	-5.818996e-001	1.434831e+002
93750000	-5.827810e-001	1.424520e+002
94000000	-5.834395e-001	1.414212e+002
94250000	-5.840285e-001	1.403922e+002
94500000	-5.846478e-001	1.393611e+002
94750000	-5.851466e-001	1.383298e+002
95000000	-5.857255e-001	1.372992e+002
95250000	-5.861112e-001	1.362693e+002
95500000	-5.864602e-001	1.352384e+002
95750000	-5.868441e-001	1.342082e+002
96000000	-5.870836e-001	1.331769e+002
96250000	-5.871649e-001	1.321451e+002
96500000	-5.872980e-001	1.311128e+002
96750000	-5.873864e-001	1.300808e+002
97000000	-5.875139e-001	1.290491e+002
97250000	-5.874559e-001	1.280176e+002
97500000	-5.873919e-001	1.269858e+002
97750000	-5.873465e-001	1.259546e+002
98000000	-5.871147e-001	1.249220e+002
98250000	-5.870484e-001	1.238880e+002
98500000	-5.866832e-001	1.228552e+002
98750000	-5.864235e-001	1.218215e+002
99000000	-5.862214e-001	1.207874e+002
99250000	-5.858711e-001	1.197550e+002
99500000	-5.855737e-001	1.187211e+002
99750000	-5.849659e-001	1.176872e+002
100000000	-5.846570e-001	1.166533e+002
