!Agilent Technologies,E5072A,MY51200456,A.01.06
!Date: Wed Sep 02 20:44:33 2015
!Data & Calibration Information:
!Freq	S11:SOLT1(ON)
!PortZ  Port1:50+j0
!Above PortZ is port z conversion or system Z0 setting when saving the data.
!When reading, reference impedance value at option line is always used.
# Hz S dB R 50
50000000	-3.357854e+001	-1.569182e+002
50250000	-3.360579e+001	-1.577824e+002
50500000	-3.363365e+001	-1.586580e+002
50750000	-3.366416e+001	-1.595327e+002
51000000	-3.369305e+001	-1.603904e+002
51250000	-3.372153e+001	-1.612741e+002
51500000	-3.375636e+001	-1.621425e+002
51750000	-3.378508e+001	-1.630216e+002
52000000	-3.381481e+001	-1.638784e+002
52250000	-3.384828e+001	-1.647778e+002
52500000	-3.388018e+001	-1.656388e+002
52750000	-3.391476e+001	-1.665050e+002
53000000	-3.394596e+001	-1.673653e+002
53250000	-3.398257e+001	-1.682336e+002
53500000	-3.401781e+001	-1.691238e+002
53750000	-3.405294e+001	-1.699619e+002
54000000	-3.408643e+001	-1.708203e+002
54250000	-3.412708e+001	-1.716967e+002
54500000	-3.416338e+001	-1.725526e+002
54750000	-3.420027e+001	-1.734321e+002
55000000	-3.423619e+001	-1.742879e+002
55250000	-3.427898e+001	-1.751498e+002
55500000	-3.431549e+001	-1.760092e+002
55750000	-3.435596e+001	-1.768677e+002
56000000	-3.439628e+001	-1.777231e+002
56250000	-3.444002e+001	-1.785796e+002
56500000	-3.447983e+001	-1.794314e+002
56750000	-3.452115e+001	1.797055e+002
57000000	-3.456560e+001	1.788584e+002
57250000	-3.460872e+001	1.779870e+002
57500000	-3.465549e+001	1.771535e+002
57750000	-3.469940e+001	1.762990e+002
58000000	-3.474949e+001	1.754702e+002
58250000	-3.479272e+001	1.745978e+002
58500000	-3.483991e+001	1.737498e+002
58750000	-3.488988e+001	1.728986e+002
59000000	-3.493724e+001	1.720598e+002
59250000	-3.498550e+001	1.712008e+002
59500000	-3.503578e+001	1.703823e+002
59750000	-3.508735e+001	1.695216e+002
60000000	-3.513887e+001	1.687149e+002
60250000	-3.518868e+001	1.678441e+002
60500000	-3.524445e+001	1.670024e+002
60750000	-3.529727e+001	1.661795e+002
61000000	-3.535722e+001	1.653578e+002
61250000	-3.540687e+001	1.645165e+002
61500000	-3.546504e+001	1.636509e+002
61750000	-3.551948e+001	1.628485e+002
62000000	-3.558070e+001	1.620118e+002
62250000	-3.563710e+001	1.611939e+002
62500000	-3.569655e+001	1.603779e+002
62750000	-3.575606e+001	1.595375e+002
63000000	-3.582040e+001	1.587340e+002
63250000	-3.587950e+001	1.579097e+002
63500000	-3.594138e+001	1.570598e+002
63750000	-3.600545e+001	1.562654e+002
64000000	-3.606822e+001	1.554358e+002
64250000	-3.613310e+001	1.546225e+002
64500000	-3.620153e+001	1.538089e+002
64750000	-3.626920e+001	1.529998e+002
65000000	-3.633254e+001	1.521845e+002
65250000	-3.640249e+001	1.513524e+002
65500000	-3.647113e+001	1.505667e+002
65750000	-3.654500e+001	1.497352e+002
66000000	-3.661651e+001	1.489515e+002
66250000	-3.668756e+001	1.481228e+002
66500000	-3.676033e+001	1.473264e+002
66750000	-3.683938e+001	1.465248e+002
67000000	-3.691335e+001	1.457597e+002
67250000	-3.698953e+001	1.449192e+002
67500000	-3.707196e+001	1.441427e+002
67750000	-3.714812e+001	1.433710e+002
68000000	-3.722917e+001	1.425767e+002
68250000	-3.731268e+001	1.417959e+002
68500000	-3.739584e+001	1.409847e+002
68750000	-3.747877e+001	1.402407e+002
69000000	-3.756123e+001	1.394575e+002
69250000	-3.765078e+001	1.386911e+002
69500000	-3.773555e+001	1.379116e+002
69750000	-3.782621e+001	1.371423e+002
70000000	-3.792268e+001	1.363947e+002
70250000	-3.801110e+001	1.356064e+002
70500000	-3.811847e+001	1.347913e+002
70750000	-3.819476e+001	1.341185e+002
71000000	-3.829050e+001	1.333652e+002
71250000	-3.839195e+001	1.326074e+002
71500000	-3.849970e+001	1.318701e+002
71750000	-3.858671e+001	1.311219e+002
72000000	-3.868954e+001	1.303876e+002
72250000	-3.879401e+001	1.296705e+002
72500000	-3.890836e+001	1.289412e+002
72750000	-3.900923e+001	1.281969e+002
73000000	-3.911441e+001	1.274759e+002
73250000	-3.922558e+001	1.267360e+002
73500000	-3.933124e+001	1.260638e+002
73750000	-3.945654e+001	1.253210e+002
74000000	-3.957073e+001	1.245907e+002
74250000	-3.968624e+001	1.239229e+002
74500000	-3.980412e+001	1.232575e+002
74750000	-3.993250e+001	1.225698e+002
75000000	-4.005042e+001	1.218944e+002
75250000	-4.017718e+001	1.211934e+002
75500000	-4.030193e+001	1.205544e+002
75750000	-4.043490e+001	1.198807e+002
76000000	-4.056642e+001	1.192119e+002
76250000	-4.069392e+001	1.185485e+002
76500000	-4.083670e+001	1.179403e+002
76750000	-4.098391e+001	1.172979e+002
77000000	-4.111821e+001	1.166766e+002
77250000	-4.126255e+001	1.160600e+002
77500000	-4.140914e+001	1.154484e+002
77750000	-4.156417e+001	1.148317e+002
78000000	-4.171150e+001	1.142827e+002
78250000	-4.186565e+001	1.136712e+002
78500000	-4.202829e+001	1.131223e+002
78750000	-4.218220e+001	1.125534e+002
79000000	-4.234247e+001	1.120421e+002
79250000	-4.251560e+001	1.114580e+002
79500000	-4.269385e+001	1.109428e+002
79750000	-4.286657e+001	1.104898e+002
80000000	-4.304615e+001	1.099920e+002
80250000	-4.322451e+001	1.094969e+002
80500000	-4.341752e+001	1.090512e+002
80750000	-4.359342e+001	1.086068e+002
81000000	-4.379489e+001	1.081567e+002
81250000	-4.400364e+001	1.077986e+002
81500000	-4.420162e+001	1.073900e+002
81750000	-4.440364e+001	1.071235e+002
82000000	-4.460665e+001	1.067630e+002
82250000	-4.482853e+001	1.064476e+002
82500000	-4.504936e+001	1.061352e+002
82750000	-4.526590e+001	1.059240e+002
83000000	-4.550764e+001	1.056397e+002
83250000	-4.574025e+001	1.056020e+002
83500000	-4.598787e+001	1.055022e+002
83750000	-4.623779e+001	1.053350e+002
84000000	-4.648859e+001	1.052362e+002
84250000	-4.675819e+001	1.052799e+002
84500000	-4.701159e+001	1.053083e+002
84750000	-4.729801e+001	1.053549e+002
85000000	-4.757802e+001	1.056527e+002
85250000	-4.785870e+001	1.058901e+002
85500000	-4.814696e+001	1.062046e+002
85750000	-4.844962e+001	1.065905e+002
86000000	-4.874350e+001	1.072253e+002
86250000	-4.906235e+001	1.077430e+002
86500000	-4.938324e+001	1.083656e+002
86750000	-4.972200e+001	1.091986e+002
87000000	-5.001591e+001	1.101287e+002
87250000	-5.035709e+001	1.112953e+002
87500000	-5.068621e+001	1.124455e+002
87750000	-5.102568e+001	1.137605e+002
88000000	-5.136097e+001	1.153813e+002
88250000	-5.169230e+001	1.171132e+002
88500000	-5.202691e+001	1.191196e+002
88750000	-5.232453e+001	1.211430e+002
89000000	-5.261973e+001	1.237580e+002
89250000	-5.288473e+001	1.262626e+002
89500000	-5.315252e+001	1.290274e+002
89750000	-5.335681e+001	1.322062e+002
90000000	-5.353018e+001	1.351609e+002
90250000	-5.368891e+001	1.387393e+002
90500000	-5.377840e+001	1.421540e+002
90750000	-5.380267e+001	1.455985e+002
91000000	-5.380184e+001	1.492578e+002
91250000	-5.378822e+001	1.526947e+002
91500000	-5.368404e+001	1.562009e+002
91750000	-5.355578e+001	1.596029e+002
92000000	-5.338480e+001	1.628168e+002
92250000	-5.315932e+001	1.657086e+002
92500000	-5.288083e+001	1.684553e+002
92750000	-5.262946e+001	1.711205e+002
93000000	-5.232073e+001	1.733253e+002
93250000	-5.201005e+001	1.755890e+002
93500000	-5.171804e+001	1.773532e+002
93750000	-5.138987e+001	1.793203e+002
94000000	-5.104990e+001	-1.793161e+002
94250000	-5.072316e+001	-1.779189e+002
94500000	-5.040696e+001	-1.765921e+002
94750000	-5.007555e+001	-1.755659e+002
95000000	-4.977311e+001	-1.745615e+002
95250000	-4.943835e+001	-1.738334e+002
95500000	-4.912609e+001	-1.730757e+002
95750000	-4.883415e+001	-1.724458e+002
96000000	-4.853211e+001	-1.720208e+002
96250000	-4.823781e+001	-1.715940e+002
96500000	-4.795861e+001	-1.712914e+002
96750000	-4.768454e+001	-1.710155e+002
97000000	-4.740722e+001	-1.708307e+002
97250000	-4.715000e+001	-1.706590e+002
97500000	-4.688160e+001	-1.706070e+002
97750000	-4.662976e+001	-1.705713e+002
98000000	-4.638157e+001	-1.705954e+002
98250000	-4.614944e+001	-1.705929e+002
98500000	-4.591355e+001	-1.708397e+002
98750000	-4.568523e+001	-1.709261e+002
99000000	-4.546797e+001	-1.710892e+002
99250000	-4.523860e+001	-1.713545e+002
99500000	-4.502070e+001	-1.715119e+002
99750000	-4.480960e+001	-1.718610e+002
100000000	-4.461161e+001	-1.720838e+002
