!Agilent Technologies,E5072A,MY51200456,A.01.06
!Date: Wed Sep 02 20:43:17 2015
!Data & Calibration Information:
!Freq	S11:SOLT1(ON)
!PortZ  Port1:50+j0
!Above PortZ is port z conversion or system Z0 setting when saving the data.
!When reading, reference impedance value at option line is always used.
# Hz S dB R 50
50000000	-3.429371e+001	-1.521535e+002
50250000	-3.431612e+001	-1.529255e+002
50500000	-3.433576e+001	-1.536911e+002
50750000	-3.435744e+001	-1.544682e+002
51000000	-3.438089e+001	-1.552328e+002
51250000	-3.440132e+001	-1.560171e+002
51500000	-3.443021e+001	-1.567742e+002
51750000	-3.445207e+001	-1.575507e+002
52000000	-3.447545e+001	-1.583251e+002
52250000	-3.449903e+001	-1.591041e+002
52500000	-3.452133e+001	-1.598576e+002
52750000	-3.454993e+001	-1.606435e+002
53000000	-3.457092e+001	-1.613977e+002
53250000	-3.459899e+001	-1.621609e+002
53500000	-3.462628e+001	-1.629433e+002
53750000	-3.465235e+001	-1.636960e+002
54000000	-3.467367e+001	-1.644663e+002
54250000	-3.470530e+001	-1.652122e+002
54500000	-3.473307e+001	-1.659844e+002
54750000	-3.475947e+001	-1.667454e+002
55000000	-3.478236e+001	-1.675240e+002
55250000	-3.481656e+001	-1.682700e+002
55500000	-3.484463e+001	-1.690208e+002
55750000	-3.487249e+001	-1.697711e+002
56000000	-3.490218e+001	-1.705223e+002
56250000	-3.493342e+001	-1.712607e+002
56500000	-3.496256e+001	-1.720269e+002
56750000	-3.499151e+001	-1.727790e+002
57000000	-3.502359e+001	-1.735174e+002
57250000	-3.505303e+001	-1.742961e+002
57500000	-3.508684e+001	-1.750145e+002
57750000	-3.511963e+001	-1.757818e+002
58000000	-3.515974e+001	-1.764865e+002
58250000	-3.518671e+001	-1.772401e+002
58500000	-3.522142e+001	-1.780056e+002
58750000	-3.525607e+001	-1.787696e+002
59000000	-3.528821e+001	-1.794807e+002
59250000	-3.532476e+001	1.797595e+002
59500000	-3.536050e+001	1.790515e+002
59750000	-3.539383e+001	1.782954e+002
60000000	-3.542872e+001	1.775918e+002
60250000	-3.546661e+001	1.768388e+002
60500000	-3.550596e+001	1.760943e+002
60750000	-3.554208e+001	1.753769e+002
61000000	-3.557969e+001	1.746608e+002
61250000	-3.561735e+001	1.739246e+002
61500000	-3.565895e+001	1.731650e+002
61750000	-3.569452e+001	1.724800e+002
62000000	-3.573544e+001	1.717527e+002
62250000	-3.577402e+001	1.710228e+002
62500000	-3.581522e+001	1.703254e+002
62750000	-3.585730e+001	1.695858e+002
63000000	-3.590026e+001	1.689040e+002
63250000	-3.593971e+001	1.681773e+002
63500000	-3.598160e+001	1.674522e+002
63750000	-3.602456e+001	1.667286e+002
64000000	-3.606697e+001	1.660379e+002
64250000	-3.610795e+001	1.653200e+002
64500000	-3.615583e+001	1.646288e+002
64750000	-3.620096e+001	1.639151e+002
65000000	-3.624640e+001	1.632140e+002
65250000	-3.628938e+001	1.624804e+002
65500000	-3.633686e+001	1.617878e+002
65750000	-3.638268e+001	1.610798e+002
66000000	-3.642852e+001	1.604010e+002
66250000	-3.647844e+001	1.596837e+002
66500000	-3.652764e+001	1.590057e+002
66750000	-3.657644e+001	1.583302e+002
67000000	-3.662250e+001	1.576478e+002
67250000	-3.667511e+001	1.569065e+002
67500000	-3.672731e+001	1.562604e+002
67750000	-3.677514e+001	1.555753e+002
68000000	-3.682783e+001	1.548948e+002
68250000	-3.687855e+001	1.542285e+002
68500000	-3.693235e+001	1.535393e+002
68750000	-3.698506e+001	1.528811e+002
69000000	-3.703876e+001	1.521937e+002
69250000	-3.709254e+001	1.515212e+002
69500000	-3.714765e+001	1.508772e+002
69750000	-3.720414e+001	1.502068e+002
70000000	-3.726026e+001	1.495634e+002
70250000	-3.731585e+001	1.488878e+002
70500000	-3.738280e+001	1.482134e+002
70750000	-3.742916e+001	1.475913e+002
71000000	-3.749022e+001	1.469343e+002
71250000	-3.755121e+001	1.462954e+002
71500000	-3.761386e+001	1.456769e+002
71750000	-3.766740e+001	1.449915e+002
72000000	-3.772675e+001	1.443667e+002
72250000	-3.778905e+001	1.437631e+002
72500000	-3.785448e+001	1.431347e+002
72750000	-3.791823e+001	1.424814e+002
73000000	-3.798156e+001	1.418321e+002
73250000	-3.804261e+001	1.412190e+002
73500000	-3.810475e+001	1.405778e+002
73750000	-3.817701e+001	1.399778e+002
74000000	-3.824637e+001	1.393504e+002
74250000	-3.831040e+001	1.387646e+002
74500000	-3.837884e+001	1.381833e+002
74750000	-3.844904e+001	1.375709e+002
75000000	-3.851726e+001	1.369689e+002
75250000	-3.858748e+001	1.363555e+002
75500000	-3.865615e+001	1.357700e+002
75750000	-3.873095e+001	1.352019e+002
76000000	-3.880012e+001	1.345963e+002
76250000	-3.886708e+001	1.340230e+002
76500000	-3.894599e+001	1.334428e+002
76750000	-3.902897e+001	1.328758e+002
77000000	-3.909695e+001	1.323194e+002
77250000	-3.917333e+001	1.317654e+002
77500000	-3.925140e+001	1.311970e+002
77750000	-3.933238e+001	1.306473e+002
78000000	-3.940502e+001	1.300959e+002
78250000	-3.948642e+001	1.295352e+002
78500000	-3.956785e+001	1.290155e+002
78750000	-3.964787e+001	1.284781e+002
79000000	-3.972495e+001	1.279262e+002
79250000	-3.981095e+001	1.274081e+002
79500000	-3.989453e+001	1.268963e+002
79750000	-3.997976e+001	1.264122e+002
80000000	-4.006942e+001	1.259061e+002
80250000	-4.014552e+001	1.253961e+002
80500000	-4.024473e+001	1.249219e+002
80750000	-4.032408e+001	1.244219e+002
81000000	-4.041829e+001	1.239173e+002
81250000	-4.050860e+001	1.234319e+002
81500000	-4.060218e+001	1.229895e+002
81750000	-4.068911e+001	1.225329e+002
82000000	-4.078141e+001	1.220690e+002
82250000	-4.087261e+001	1.216208e+002
82500000	-4.096915e+001	1.211889e+002
82750000	-4.106371e+001	1.206845e+002
83000000	-4.116248e+001	1.203034e+002
83250000	-4.125936e+001	1.198867e+002
83500000	-4.136038e+001	1.195064e+002
83750000	-4.146283e+001	1.190919e+002
84000000	-4.156325e+001	1.186687e+002
84250000	-4.166592e+001	1.183018e+002
84500000	-4.176399e+001	1.179371e+002
84750000	-4.187162e+001	1.175669e+002
85000000	-4.197825e+001	1.172375e+002
85250000	-4.208338e+001	1.169040e+002
85500000	-4.219397e+001	1.165613e+002
85750000	-4.230266e+001	1.162383e+002
86000000	-4.240215e+001	1.159490e+002
86250000	-4.251719e+001	1.156717e+002
86500000	-4.263745e+001	1.153595e+002
86750000	-4.274783e+001	1.150212e+002
87000000	-4.285009e+001	1.148227e+002
87250000	-4.297251e+001	1.145962e+002
87500000	-4.308954e+001	1.143109e+002
87750000	-4.321005e+001	1.141023e+002
88000000	-4.332342e+001	1.139235e+002
88250000	-4.345332e+001	1.137434e+002
88500000	-4.357339e+001	1.135309e+002
88750000	-4.368771e+001	1.133428e+002
89000000	-4.381225e+001	1.132860e+002
89250000	-4.392911e+001	1.131497e+002
89500000	-4.406343e+001	1.130561e+002
89750000	-4.417931e+001	1.129828e+002
90000000	-4.431130e+001	1.128911e+002
90250000	-4.443768e+001	1.128623e+002
90500000	-4.456117e+001	1.128282e+002
90750000	-4.468525e+001	1.128555e+002
91000000	-4.481973e+001	1.129285e+002
91250000	-4.494767e+001	1.129192e+002
91500000	-4.507577e+001	1.129789e+002
91750000	-4.521976e+001	1.130447e+002
92000000	-4.535087e+001	1.131649e+002
92250000	-4.547908e+001	1.133301e+002
92500000	-4.560610e+001	1.135695e+002
92750000	-4.574671e+001	1.137403e+002
93000000	-4.586775e+001	1.139685e+002
93250000	-4.600144e+001	1.142863e+002
93500000	-4.613210e+001	1.145082e+002
93750000	-4.626844e+001	1.149481e+002
94000000	-4.638971e+001	1.152009e+002
94250000	-4.652176e+001	1.156561e+002
94500000	-4.664744e+001	1.160337e+002
94750000	-4.677749e+001	1.165699e+002
95000000	-4.691164e+001	1.169808e+002
95250000	-4.700382e+001	1.175898e+002
95500000	-4.714883e+001	1.182078e+002
95750000	-4.726571e+001	1.187763e+002
96000000	-4.736334e+001	1.194398e+002
96250000	-4.749293e+001	1.201111e+002
96500000	-4.758651e+001	1.208600e+002
96750000	-4.768044e+001	1.215905e+002
97000000	-4.777825e+001	1.223825e+002
97250000	-4.787610e+001	1.231705e+002
97500000	-4.795621e+001	1.240857e+002
97750000	-4.804505e+001	1.249948e+002
98000000	-4.811821e+001	1.259914e+002
98250000	-4.820068e+001	1.268146e+002
98500000	-4.824576e+001	1.278339e+002
98750000	-4.829888e+001	1.288598e+002
99000000	-4.834782e+001	1.297752e+002
99250000	-4.838176e+001	1.308726e+002
99500000	-4.842302e+001	1.320019e+002
99750000	-4.842647e+001	1.330008e+002
100000000	-4.845519e+001	1.341966e+002
