!Agilent Technologies,E5072A,MY51200456,A.01.06
!Date: Wed Sep 02 20:41:22 2015
!Data & Calibration Information:
!Freq	S11:SOLT1(ON)
!PortZ  Port1:50+j0
!Above PortZ is port z conversion or system Z0 setting when saving the data.
!When reading, reference impedance value at option line is always used.
# Hz S dB R 50
50000000	-3.525613e-001	1.478539e+002
50250000	-3.550564e-001	1.468010e+002
50500000	-3.573702e-001	1.457478e+002
50750000	-3.597156e-001	1.446944e+002
51000000	-3.621958e-001	1.436412e+002
51250000	-3.645746e-001	1.425888e+002
51500000	-3.669017e-001	1.415350e+002
51750000	-3.692261e-001	1.404821e+002
52000000	-3.715858e-001	1.394298e+002
52250000	-3.737432e-001	1.383771e+002
52500000	-3.761288e-001	1.373247e+002
52750000	-3.783904e-001	1.362719e+002
53000000	-3.806084e-001	1.352199e+002
53250000	-3.828212e-001	1.341668e+002
53500000	-3.850047e-001	1.331141e+002
53750000	-3.871768e-001	1.320614e+002
54000000	-3.892818e-001	1.310100e+002
54250000	-3.914473e-001	1.299560e+002
54500000	-3.936058e-001	1.289034e+002
54750000	-3.957261e-001	1.278509e+002
55000000	-3.977162e-001	1.267987e+002
55250000	-3.997166e-001	1.257446e+002
55500000	-4.018691e-001	1.246928e+002
55750000	-4.039834e-001	1.236404e+002
56000000	-4.059780e-001	1.225881e+002
56250000	-4.079605e-001	1.215351e+002
56500000	-4.099626e-001	1.204827e+002
56750000	-4.118620e-001	1.194306e+002
57000000	-4.137748e-001	1.183780e+002
57250000	-4.155942e-001	1.173253e+002
57500000	-4.175178e-001	1.162722e+002
57750000	-4.192704e-001	1.152197e+002
58000000	-4.213239e-001	1.141668e+002
58250000	-4.230115e-001	1.131141e+002
58500000	-4.246639e-001	1.120614e+002
58750000	-4.264323e-001	1.110081e+002
59000000	-4.282734e-001	1.099558e+002
59250000	-4.298658e-001	1.089032e+002
59500000	-4.317139e-001	1.078502e+002
59750000	-4.332331e-001	1.067973e+002
60000000	-4.349202e-001	1.057442e+002
60250000	-4.363769e-001	1.046915e+002
60500000	-4.380258e-001	1.036383e+002
60750000	-4.394678e-001	1.025859e+002
61000000	-4.410986e-001	1.015315e+002
61250000	-4.426046e-001	1.004790e+002
61500000	-4.439571e-001	9.942537e+001
61750000	-4.454304e-001	9.837233e+001
62000000	-4.468628e-001	9.731858e+001
62250000	-4.482752e-001	9.626653e+001
62500000	-4.496125e-001	9.521183e+001
62750000	-4.508929e-001	9.415849e+001
63000000	-4.522962e-001	9.310408e+001
63250000	-4.535014e-001	9.205098e+001
63500000	-4.546719e-001	9.099695e+001
63750000	-4.558337e-001	8.994269e+001
64000000	-4.570698e-001	8.888859e+001
64250000	-4.581044e-001	8.783431e+001
64500000	-4.592926e-001	8.677972e+001
64750000	-4.602951e-001	8.572516e+001
65000000	-4.614096e-001	8.467091e+001
65250000	-4.608349e-001	8.361566e+001
65500000	-4.617955e-001	8.256077e+001
65750000	-4.628949e-001	8.150660e+001
66000000	-4.638722e-001	8.045210e+001
66250000	-4.646011e-001	7.939711e+001
66500000	-4.654100e-001	7.834087e+001
66750000	-4.662362e-001	7.728547e+001
67000000	-4.669506e-001	7.623113e+001
67250000	-4.676860e-001	7.517555e+001
67500000	-4.685254e-001	7.411897e+001
67750000	-4.691913e-001	7.306280e+001
68000000	-4.699781e-001	7.200614e+001
68250000	-4.705513e-001	7.095209e+001
68500000	-4.711358e-001	6.989601e+001
68750000	-4.717598e-001	6.883841e+001
69000000	-4.721110e-001	6.777914e+001
69250000	-4.727793e-001	6.672331e+001
69500000	-4.731559e-001	6.566840e+001
69750000	-4.736905e-001	6.461152e+001
70000000	-4.741538e-001	6.355109e+001
70250000	-4.744997e-001	6.249179e+001
70500000	-4.750663e-001	6.143349e+001
70750000	-4.752014e-001	6.038025e+001
71000000	-4.755123e-001	5.932307e+001
71250000	-4.758671e-001	5.826091e+001
71500000	-4.761741e-001	5.720018e+001
71750000	-4.763102e-001	5.614484e+001
72000000	-4.765504e-001	5.508955e+001
72250000	-4.767380e-001	5.402870e+001
72500000	-4.768279e-001	5.296381e+001
72750000	-4.769653e-001	5.190513e+001
73000000	-4.770153e-001	5.084986e+001
73250000	-4.770533e-001	4.979090e+001
73500000	-4.770330e-001	4.872648e+001
73750000	-4.771334e-001	4.766231e+001
74000000	-4.771170e-001	4.660584e+001
74250000	-4.770235e-001	4.554844e+001
74500000	-4.768957e-001	4.448339e+001
74750000	-4.768886e-001	4.341801e+001
75000000	-4.766987e-001	4.235966e+001
75250000	-4.765479e-001	4.130117e+001
75500000	-4.763252e-001	4.023657e+001
75750000	-4.761147e-001	3.917044e+001
76000000	-4.758658e-001	3.811043e+001
76250000	-4.755752e-001	3.704994e+001
76500000	-4.753453e-001	3.598437e+001
76750000	-4.750147e-001	3.491780e+001
77000000	-4.746213e-001	3.385716e+001
77250000	-4.743097e-001	3.279520e+001
77500000	-4.738985e-001	3.172769e+001
77750000	-4.735838e-001	3.066202e+001
78000000	-4.732106e-001	2.960069e+001
78250000	-4.727156e-001	2.853599e+001
78500000	-4.722817e-001	2.746733e+001
78750000	-4.718323e-001	2.640250e+001
79000000	-4.711967e-001	2.534057e+001
79250000	-4.707547e-001	2.427286e+001
79500000	-4.701430e-001	2.320337e+001
79750000	-4.695763e-001	2.213891e+001
80000000	-4.691197e-001	2.107285e+001
80250000	-4.684617e-001	2.000333e+001
80500000	-4.679120e-001	1.893451e+001
80750000	-4.673108e-001	1.787007e+001
81000000	-4.667048e-001	1.680096e+001
81250000	-4.659576e-001	1.572950e+001
81500000	-4.654019e-001	1.466269e+001
81750000	-4.646383e-001	1.359680e+001
82000000	-4.638571e-001	1.252541e+001
82250000	-4.632020e-001	1.145512e+001
82500000	-4.625237e-001	1.038823e+001
82750000	-4.616791e-001	9.318291e+000
83000000	-4.610083e-001	8.244522e+000
83250000	-4.603411e-001	7.174876e+000
83500000	-4.594925e-001	6.106842e+000
83750000	-4.586961e-001	5.032098e+000
84000000	-4.579635e-001	3.958597e+000
84250000	-4.572439e-001	2.889657e+000
84500000	-4.563658e-001	1.817223e+000
84750000	-4.556546e-001	7.408190e-001
85000000	-4.548665e-001	-3.308568e-001
85250000	-4.541100e-001	-1.399777e+000
85500000	-4.532580e-001	-2.474896e+000
85750000	-4.525625e-001	-3.551471e+000
86000000	-4.517017e-001	-4.621574e+000
86250000	-4.509509e-001	-5.693013e+000
86500000	-4.500410e-001	-6.771543e+000
86750000	-4.492956e-001	-7.846917e+000
87000000	-4.485805e-001	-8.918992e+000
87250000	-4.478193e-001	-9.994852e+000
87500000	-4.469565e-001	-1.107355e+001
87750000	-4.462441e-001	-1.214859e+001
88000000	-4.454623e-001	-1.322328e+001
88250000	-4.447689e-001	-1.430127e+001
88500000	-4.440342e-001	-1.537939e+001
88750000	-4.433447e-001	-1.645356e+001
89000000	-4.425379e-001	-1.753011e+001
89250000	-4.419373e-001	-1.860942e+001
89500000	-4.411499e-001	-1.968608e+001
89750000	-4.405186e-001	-2.076154e+001
90000000	-4.398695e-001	-2.184093e+001
90250000	-4.390739e-001	-2.291982e+001
90500000	-4.385036e-001	-2.399670e+001
90750000	-4.378541e-001	-2.507679e+001
91000000	-4.372435e-001	-2.615766e+001
91250000	-4.365353e-001	-2.723597e+001
91500000	-4.359208e-001	-2.831524e+001
91750000	-4.354440e-001	-2.939676e+001
92000000	-4.349637e-001	-3.047706e+001
92250000	-4.344592e-001	-3.155428e+001
92500000	-4.339127e-001	-3.263481e+001
92750000	-4.334320e-001	-3.371662e+001
93000000	-4.330559e-001	-3.479525e+001
93250000	-4.325737e-001	-3.587279e+001
93500000	-4.321088e-001	-3.695570e+001
93750000	-4.317455e-001	-3.803822e+001
94000000	-4.313930e-001	-3.911591e+001
94250000	-4.310731e-001	-4.019790e+001
94500000	-4.306291e-001	-4.128231e+001
94750000	-4.303305e-001	-4.236427e+001
95000000	-4.300338e-001	-4.344413e+001
95250000	-4.299860e-001	-4.452493e+001
95500000	-4.296861e-001	-4.560736e+001
95750000	-4.295048e-001	-4.669016e+001
96000000	-4.293978e-001	-4.777394e+001
96250000	-4.292616e-001	-4.885615e+001
96500000	-4.290956e-001	-4.993887e+001
96750000	-4.290872e-001	-5.101991e+001
97000000	-4.290836e-001	-5.210272e+001
97250000	-4.290478e-001	-5.318486e+001
97500000	-4.290870e-001	-5.426747e+001
97750000	-4.290467e-001	-5.535145e+001
98000000	-4.290772e-001	-5.643476e+001
98250000	-4.291372e-001	-5.751711e+001
98500000	-4.293690e-001	-5.859998e+001
98750000	-4.294716e-001	-5.968180e+001
99000000	-4.296922e-001	-6.076341e+001
99250000	-4.297937e-001	-6.184618e+001
99500000	-4.300364e-001	-6.292989e+001
99750000	-4.303673e-001	-6.401362e+001
100000000	-4.306655e-001	-6.509789e+001
