!Agilent Technologies,E5072A,MY51200456,A.01.06
!Date: Wed Sep 02 20:42:18 2015
!Data & Calibration Information:
!Freq	S11:SOLT1(ON)
!PortZ  Port1:50+j0
!Above PortZ is port z conversion or system Z0 setting when saving the data.
!When reading, reference impedance value at option line is always used.
# Hz S dB R 50
50000000	-3.644912e-001	-3.383304e+001
50250000	-3.640584e-001	-3.489792e+001
50500000	-3.638102e-001	-3.596180e+001
50750000	-3.635547e-001	-3.702654e+001
51000000	-3.632474e-001	-3.809090e+001
51250000	-3.630037e-001	-3.915691e+001
51500000	-3.628183e-001	-4.022004e+001
51750000	-3.625910e-001	-4.128519e+001
52000000	-3.624014e-001	-4.234966e+001
52250000	-3.621695e-001	-4.341444e+001
52500000	-3.620313e-001	-4.447834e+001
52750000	-3.618644e-001	-4.554268e+001
53000000	-3.617472e-001	-4.660681e+001
53250000	-3.615443e-001	-4.767122e+001
53500000	-3.614372e-001	-4.873542e+001
53750000	-3.613253e-001	-4.979968e+001
54000000	-3.611623e-001	-5.086466e+001
54250000	-3.611514e-001	-5.192799e+001
54500000	-3.610717e-001	-5.299213e+001
54750000	-3.611501e-001	-5.405650e+001
55000000	-3.611557e-001	-5.512166e+001
55250000	-3.611006e-001	-5.618409e+001
55500000	-3.612018e-001	-5.724819e+001
55750000	-3.611872e-001	-5.831315e+001
56000000	-3.613077e-001	-5.937700e+001
56250000	-3.614036e-001	-6.043976e+001
56500000	-3.615661e-001	-6.150345e+001
56750000	-3.618044e-001	-6.256710e+001
57000000	-3.618876e-001	-6.363056e+001
57250000	-3.621771e-001	-6.469371e+001
57500000	-3.622844e-001	-6.575648e+001
57750000	-3.625849e-001	-6.682032e+001
58000000	-3.627211e-001	-6.788263e+001
58250000	-3.631024e-001	-6.894599e+001
58500000	-3.634224e-001	-7.000847e+001
58750000	-3.637059e-001	-7.107151e+001
59000000	-3.640703e-001	-7.213318e+001
59250000	-3.645440e-001	-7.319664e+001
59500000	-3.648415e-001	-7.425887e+001
59750000	-3.653122e-001	-7.532138e+001
60000000	-3.656588e-001	-7.638376e+001
60250000	-3.662333e-001	-7.744555e+001
60500000	-3.667742e-001	-7.850778e+001
60750000	-3.672515e-001	-7.956940e+001
61000000	-3.677175e-001	-8.062954e+001
61250000	-3.682863e-001	-8.169281e+001
61500000	-3.690339e-001	-8.275351e+001
61750000	-3.696355e-001	-8.381531e+001
62000000	-3.701929e-001	-8.487568e+001
62250000	-3.709416e-001	-8.593689e+001
62500000	-3.716009e-001	-8.699752e+001
62750000	-3.724341e-001	-8.805797e+001
63000000	-3.729488e-001	-8.911775e+001
63250000	-3.738114e-001	-9.017847e+001
63500000	-3.747791e-001	-9.123838e+001
63750000	-3.755515e-001	-9.229814e+001
64000000	-3.762927e-001	-9.335756e+001
64250000	-3.772886e-001	-9.441745e+001
64500000	-3.780270e-001	-9.547583e+001
64750000	-3.789377e-001	-9.653464e+001
65000000	-3.799141e-001	-9.759398e+001
65250000	-3.794832e-001	-9.865225e+001
65500000	-3.803703e-001	-9.971068e+001
65750000	-3.814568e-001	-1.007679e+002
66000000	-3.823698e-001	-1.018259e+002
66250000	-3.835460e-001	-1.028837e+002
66500000	-3.844808e-001	-1.039417e+002
66750000	-3.854882e-001	-1.049986e+002
67000000	-3.866519e-001	-1.060557e+002
67250000	-3.878298e-001	-1.071114e+002
67500000	-3.888081e-001	-1.081686e+002
67750000	-3.900678e-001	-1.092266e+002
68000000	-3.913197e-001	-1.102822e+002
68250000	-3.925823e-001	-1.113390e+002
68500000	-3.938986e-001	-1.123935e+002
68750000	-3.949817e-001	-1.134504e+002
69000000	-3.963664e-001	-1.145070e+002
69250000	-3.976076e-001	-1.155626e+002
69500000	-3.989386e-001	-1.166164e+002
69750000	-4.001752e-001	-1.176703e+002
70000000	-4.014071e-001	-1.187267e+002
70250000	-4.029048e-001	-1.197830e+002
70500000	-4.042026e-001	-1.208340e+002
70750000	-4.056272e-001	-1.218860e+002
71000000	-4.070223e-001	-1.229391e+002
71250000	-4.084268e-001	-1.239958e+002
71500000	-4.098748e-001	-1.250501e+002
71750000	-4.115539e-001	-1.261001e+002
72000000	-4.129665e-001	-1.271491e+002
72250000	-4.143928e-001	-1.282034e+002
72500000	-4.159159e-001	-1.292596e+002
72750000	-4.175072e-001	-1.303110e+002
73000000	-4.189680e-001	-1.313572e+002
73250000	-4.207579e-001	-1.324077e+002
73500000	-4.223558e-001	-1.334624e+002
73750000	-4.238794e-001	-1.345152e+002
74000000	-4.254256e-001	-1.355615e+002
74250000	-4.269933e-001	-1.366083e+002
74500000	-4.285083e-001	-1.376624e+002
74750000	-4.301359e-001	-1.387154e+002
75000000	-4.319241e-001	-1.397615e+002
75250000	-4.336469e-001	-1.408060e+002
75500000	-4.351792e-001	-1.418578e+002
75750000	-4.368229e-001	-1.429089e+002
76000000	-4.385985e-001	-1.439549e+002
76250000	-4.402228e-001	-1.449999e+002
76500000	-4.419144e-001	-1.460492e+002
76750000	-4.435629e-001	-1.470992e+002
77000000	-4.454115e-001	-1.481434e+002
77250000	-4.471403e-001	-1.491880e+002
77500000	-4.488295e-001	-1.502374e+002
77750000	-4.506020e-001	-1.512839e+002
78000000	-4.524279e-001	-1.523271e+002
78250000	-4.540359e-001	-1.533715e+002
78500000	-4.558054e-001	-1.544196e+002
78750000	-4.575506e-001	-1.554635e+002
79000000	-4.593524e-001	-1.565050e+002
79250000	-4.610236e-001	-1.575500e+002
79500000	-4.627807e-001	-1.585965e+002
79750000	-4.645044e-001	-1.596385e+002
80000000	-4.662558e-001	-1.606805e+002
80250000	-4.680808e-001	-1.617268e+002
80500000	-4.697969e-001	-1.627698e+002
80750000	-4.714513e-001	-1.638094e+002
81000000	-4.732115e-001	-1.648521e+002
81250000	-4.750121e-001	-1.658968e+002
81500000	-4.766917e-001	-1.669371e+002
81750000	-4.783831e-001	-1.679753e+002
82000000	-4.800590e-001	-1.690190e+002
82250000	-4.817680e-001	-1.700606e+002
82500000	-4.835360e-001	-1.710978e+002
82750000	-4.851078e-001	-1.721379e+002
83000000	-4.868053e-001	-1.731810e+002
83250000	-4.885725e-001	-1.742202e+002
83500000	-4.901910e-001	-1.752570e+002
83750000	-4.917915e-001	-1.762987e+002
84000000	-4.934737e-001	-1.773401e+002
84250000	-4.950829e-001	-1.783760e+002
84500000	-4.966770e-001	-1.794143e+002
84750000	-4.982765e-001	1.795435e+002
85000000	-4.998468e-001	1.785068e+002
85250000	-5.012827e-001	1.774722e+002
85500000	-5.028563e-001	1.764332e+002
85750000	-5.043789e-001	1.753935e+002
86000000	-5.058615e-001	1.743596e+002
86250000	-5.071693e-001	1.733249e+002
86500000	-5.086847e-001	1.722844e+002
86750000	-5.100992e-001	1.712475e+002
87000000	-5.115538e-001	1.702144e+002
87250000	-5.129704e-001	1.691774e+002
87500000	-5.142956e-001	1.681385e+002
87750000	-5.157755e-001	1.671035e+002
88000000	-5.171529e-001	1.660694e+002
88250000	-5.184442e-001	1.650318e+002
88500000	-5.198606e-001	1.639956e+002
88750000	-5.210870e-001	1.629636e+002
89000000	-5.222794e-001	1.619289e+002
89250000	-5.234649e-001	1.608925e+002
89500000	-5.245893e-001	1.598592e+002
89750000	-5.257838e-001	1.588266e+002
90000000	-5.267969e-001	1.577908e+002
90250000	-5.280407e-001	1.567568e+002
90500000	-5.290269e-001	1.557241e+002
90750000	-5.300076e-001	1.546901e+002
91000000	-5.310866e-001	1.536535e+002
91250000	-5.321815e-001	1.526203e+002
91500000	-5.331804e-001	1.515876e+002
91750000	-5.341541e-001	1.505516e+002
92000000	-5.351303e-001	1.495175e+002
92250000	-5.360095e-001	1.484871e+002
92500000	-5.367501e-001	1.474539e+002
92750000	-5.375748e-001	1.464188e+002
93000000	-5.384559e-001	1.453873e+002
93250000	-5.391133e-001	1.443567e+002
93500000	-5.399151e-001	1.433218e+002
93750000	-5.407256e-001	1.422883e+002
94000000	-5.414089e-001	1.412582e+002
94250000	-5.420468e-001	1.402254e+002
94500000	-5.427098e-001	1.391890e+002
94750000	-5.433590e-001	1.381567e+002
95000000	-5.440643e-001	1.371246e+002
95250000	-5.445060e-001	1.360938e+002
95500000	-5.450329e-001	1.350602e+002
95750000	-5.455805e-001	1.340265e+002
96000000	-5.459892e-001	1.329924e+002
96250000	-5.464116e-001	1.319589e+002
96500000	-5.468260e-001	1.309258e+002
96750000	-5.471054e-001	1.298935e+002
97000000	-5.474734e-001	1.288617e+002
97250000	-5.477688e-001	1.278285e+002
97500000	-5.480033e-001	1.267949e+002
97750000	-5.483566e-001	1.257613e+002
98000000	-5.485613e-001	1.247276e+002
98250000	-5.488181e-001	1.236931e+002
98500000	-5.488119e-001	1.226605e+002
98750000	-5.489895e-001	1.216274e+002
99000000	-5.490861e-001	1.205940e+002
99250000	-5.491433e-001	1.195607e+002
99500000	-5.492962e-001	1.185261e+002
99750000	-5.491439e-001	1.174909e+002
100000000	-5.493145e-001	1.164563e+002
